[50] RDATA = 00000000, RLAST = 0, RRESP = 00 ARADDR = 0338, ARLEN = 6
[70] RDATA = 00000000, RLAST = 0, RRESP = 00 ARADDR = 0338, ARLEN = 6
[90] RDATA = 00000000, RLAST = 0, RRESP = 00 ARADDR = 0338, ARLEN = 6
[110] RDATA = 00000000, RLAST = 0, RRESP = 00 ARADDR = 0338, ARLEN = 6
[130] RDATA = 00000000, RLAST = 0, RRESP = 00 ARADDR = 0338, ARLEN = 6
[150] RDATA = 00000000, RLAST = 0, RRESP = 00 ARADDR = 0338, ARLEN = 6
[170] RDATA = 00000000, RLAST = 1, RRESP = 00 ARADDR = 0338, ARLEN = 6
[220] WDATA = 536cdb51, WLAST = 0 AWADDR = 1004, AWLEN = 6
[230] WDATA = 186e66d3, WLAST = 0 AWADDR = 1004, AWLEN = 6
[240] WDATA = 61968fd2, WLAST = 0 AWADDR = 1004, AWLEN = 6
[250] WDATA = 536bf2a0, WLAST = 0 AWADDR = 1004, AWLEN = 6
[260] WDATA = 76d40342, WLAST = 0 AWADDR = 1004, AWLEN = 6
[270] WDATA = f731fc33, WLAST = 0 AWADDR = 1004, AWLEN = 6
[280] BRESP = 10
[340] RDATA = 00000000, RLAST = 1, RRESP = 10 ARADDR = 1004, ARLEN = 6
[390] RDATA = 00000000, RLAST = 1, RRESP = 10 ARADDR = 25d4, ARLEN = 15
[440] RDATA = 00000000, RLAST = 1, RRESP = 10 ARADDR = 2480, ARLEN = 8
[490] RDATA = 00000000, RLAST = 1, RRESP = 10 ARADDR = 8f38, ARLEN = 13
[540] RDATA = 00000000, RLAST = 1, RRESP = 10 ARADDR = b3e8, ARLEN = 14
[590] RDATA = 00000000, RLAST = 1, RRESP = 10 ARADDR = 9a78, ARLEN = 13
[640] WDATA = da0749bb, WLAST = 0 AWADDR = 3438, AWLEN = 3
[650] WDATA = 607a5854, WLAST = 0 AWADDR = 3438, AWLEN = 3
[660] WDATA = 59da0bef, WLAST = 0 AWADDR = 3438, AWLEN = 3
[670] BRESP = 10
[730] RDATA = 00000000, RLAST = 1, RRESP = 10 ARADDR = 3438, ARLEN = 3
[780] RDATA = 00000000, RLAST = 1, RRESP = 10 ARADDR = ac70, ARLEN = 9
[830] WDATA = f37ab271, WLAST = 0 AWADDR = c3bc, AWLEN = 10
[840] WDATA = 7676c92f, WLAST = 0 AWADDR = c3bc, AWLEN = 10
[850] WDATA = 8fc41d5f, WLAST = 0 AWADDR = c3bc, AWLEN = 10
[860] WDATA = 74f90a92, WLAST = 0 AWADDR = c3bc, AWLEN = 10
[870] WDATA = 0abc4c48, WLAST = 0 AWADDR = c3bc, AWLEN = 10
[880] WDATA = cf24e577, WLAST = 0 AWADDR = c3bc, AWLEN = 10
[890] WDATA = 2737228a, WLAST = 0 AWADDR = c3bc, AWLEN = 10
[900] WDATA = 35ecbe85, WLAST = 0 AWADDR = c3bc, AWLEN = 10
[910] WDATA = 80f2578b, WLAST = 0 AWADDR = c3bc, AWLEN = 10
[920] WDATA = c1ce6b37, WLAST = 0 AWADDR = c3bc, AWLEN = 10
[930] BRESP = 10
[990] RDATA = 00000000, RLAST = 1, RRESP = 10 ARADDR = c3bc, ARLEN = 10
[1040] RDATA = 00000000, RLAST = 1, RRESP = 10 ARADDR = ea30, ARLEN = 12
[1090] WDATA = 538923c5, WLAST = 0 AWADDR = 0c34, AWLEN = 1
[1100] BRESP = 00
[1160] RDATA = 00000000, RLAST = 0, RRESP = 00 ARADDR = 0c34, ARLEN = 1
[1180] RDATA = 538923c5, RLAST = 1, RRESP = 00 ARADDR = 0c34, ARLEN = 1
[1230] RDATA = 00000000, RLAST = 1, RRESP = 10 ARADDR = 39c8, ARLEN = 10
[1280] RDATA = 00000000, RLAST = 1, RRESP = 10 ARADDR = bdb0, ARLEN = 8
[1330] WDATA = 121e2511, WLAST = 0 AWADDR = 5fac, AWLEN = 9
[1340] WDATA = 7c8115ab, WLAST = 0 AWADDR = 5fac, AWLEN = 9
[1350] WDATA = 299df067, WLAST = 0 AWADDR = 5fac, AWLEN = 9
[1360] WDATA = e8942f70, WLAST = 0 AWADDR = 5fac, AWLEN = 9
[1370] WDATA = 54ed2ef6, WLAST = 0 AWADDR = 5fac, AWLEN = 9
[1380] WDATA = 87339d6d, WLAST = 0 AWADDR = 5fac, AWLEN = 9
[1390] WDATA = ea455fac, WLAST = 0 AWADDR = 5fac, AWLEN = 9
[1400] WDATA = ea108187, WLAST = 0 AWADDR = 5fac, AWLEN = 9
[1410] WDATA = 64688849, WLAST = 0 AWADDR = 5fac, AWLEN = 9
[1420] BRESP = 10
[1480] RDATA = 00000000, RLAST = 1, RRESP = 10 ARADDR = 5fac, ARLEN = 9
[1530] RDATA = 00000000, RLAST = 1, RRESP = 10 ARADDR = 5430, ARLEN = 4
[1580] RDATA = 00000000, RLAST = 1, RRESP = 10 ARADDR = 2cf4, ARLEN = 14
[1630] WDATA = c1698986, WLAST = 0 AWADDR = c478, AWLEN = 14
[1640] WDATA = d1a0e9c7, WLAST = 0 AWADDR = c478, AWLEN = 14
[1650] WDATA = 5eaa6316, WLAST = 0 AWADDR = c478, AWLEN = 14
[1660] WDATA = d064af1c, WLAST = 0 AWADDR = c478, AWLEN = 14
[1670] WDATA = b8a577e0, WLAST = 0 AWADDR = c478, AWLEN = 14
[1680] WDATA = 1d2a48c0, WLAST = 0 AWADDR = c478, AWLEN = 14
[1690] WDATA = e9a5e084, WLAST = 0 AWADDR = c478, AWLEN = 14
[1700] WDATA = dc451cb8, WLAST = 0 AWADDR = c478, AWLEN = 14
[1710] WDATA = a76cfc12, WLAST = 0 AWADDR = c478, AWLEN = 14
[1720] WDATA = 004d2f0e, WLAST = 0 AWADDR = c478, AWLEN = 14
[1730] WDATA = 7d04ec1e, WLAST = 0 AWADDR = c478, AWLEN = 14
[1740] WDATA = 6d0afe29, WLAST = 0 AWADDR = c478, AWLEN = 14
[1750] WDATA = 620c32b9, WLAST = 0 AWADDR = c478, AWLEN = 14
[1760] WDATA = 24ff0f82, WLAST = 0 AWADDR = c478, AWLEN = 14
[1770] BRESP = 10
[1830] RDATA = 00000000, RLAST = 1, RRESP = 10 ARADDR = c478, ARLEN = 14
[1880] RDATA = 00000000, RLAST = 1, RRESP = 10 ARADDR = 9e9c, ARLEN = 3
[1930] RDATA = 00000000, RLAST = 1, RRESP = 10 ARADDR = 8ca4, ARLEN = 6
[1980] RDATA = 00000000, RLAST = 1, RRESP = 10 ARADDR = 6e90, ARLEN = 11
[2030] WDATA = ab06cd4f, WLAST = 0 AWADDR = 3cf4, AWLEN = 13
[2040] WDATA = 8d5db9ed, WLAST = 0 AWADDR = 3cf4, AWLEN = 13
[2050] WDATA = 859a0f0e, WLAST = 0 AWADDR = 3cf4, AWLEN = 13
[2060] WDATA = ef156ff5, WLAST = 0 AWADDR = 3cf4, AWLEN = 13
[2070] WDATA = 4059e16f, WLAST = 0 AWADDR = 3cf4, AWLEN = 13
[2080] WDATA = f962e7d4, WLAST = 0 AWADDR = 3cf4, AWLEN = 13
[2090] WDATA = 6b289132, WLAST = 0 AWADDR = 3cf4, AWLEN = 13
[2100] WDATA = 66603c3e, WLAST = 0 AWADDR = 3cf4, AWLEN = 13
[2110] WDATA = a878807a, WLAST = 0 AWADDR = 3cf4, AWLEN = 13
[2120] WDATA = 783b1785, WLAST = 0 AWADDR = 3cf4, AWLEN = 13
[2130] WDATA = 35731634, WLAST = 0 AWADDR = 3cf4, AWLEN = 13
[2140] WDATA = 933a42b6, WLAST = 0 AWADDR = 3cf4, AWLEN = 13
[2150] WDATA = 5e57d5f3, WLAST = 0 AWADDR = 3cf4, AWLEN = 13
[2160] BRESP = 10
[2220] RDATA = 00000000, RLAST = 1, RRESP = 10 ARADDR = 3cf4, ARLEN = 13
[2270] WDATA = e1fa37ea, WLAST = 0 AWADDR = ac7c, AWLEN = 7
[2280] WDATA = 7bc16335, WLAST = 0 AWADDR = ac7c, AWLEN = 7
[2290] WDATA = c988d3ff, WLAST = 0 AWADDR = ac7c, AWLEN = 7
[2300] WDATA = d025312e, WLAST = 0 AWADDR = ac7c, AWLEN = 7
[2310] WDATA = 38f826e9, WLAST = 0 AWADDR = ac7c, AWLEN = 7
[2320] WDATA = 5d2197ad, WLAST = 0 AWADDR = ac7c, AWLEN = 7
[2330] WDATA = c7a46587, WLAST = 0 AWADDR = ac7c, AWLEN = 7
[2340] BRESP = 10
[2400] RDATA = 00000000, RLAST = 1, RRESP = 10 ARADDR = ac7c, ARLEN = 7
[2450] WDATA = 557d9bbf, WLAST = 0 AWADDR = cb0c, AWLEN = 15
[2460] WDATA = cdc4739b, WLAST = 0 AWADDR = cb0c, AWLEN = 15
[2470] WDATA = c4941b31, WLAST = 0 AWADDR = cb0c, AWLEN = 15
[2480] WDATA = c7dfe04c, WLAST = 0 AWADDR = cb0c, AWLEN = 15
[2490] WDATA = ae6af445, WLAST = 0 AWADDR = cb0c, AWLEN = 15
[2500] WDATA = 0ae46c88, WLAST = 0 AWADDR = cb0c, AWLEN = 15
[2510] WDATA = 23890aa1, WLAST = 0 AWADDR = cb0c, AWLEN = 15
[2520] WDATA = efec1c1d, WLAST = 0 AWADDR = cb0c, AWLEN = 15
[2530] WDATA = f57d8ca5, WLAST = 0 AWADDR = cb0c, AWLEN = 15
[2540] WDATA = 10316194, WLAST = 0 AWADDR = cb0c, AWLEN = 15
[2550] WDATA = 78773374, WLAST = 0 AWADDR = cb0c, AWLEN = 15
[2560] WDATA = 1e1b947e, WLAST = 0 AWADDR = cb0c, AWLEN = 15
[2570] WDATA = a69088d2, WLAST = 0 AWADDR = cb0c, AWLEN = 15
[2580] WDATA = 590aabba, WLAST = 0 AWADDR = cb0c, AWLEN = 15
[2590] WDATA = c6a79f1a, WLAST = 0 AWADDR = cb0c, AWLEN = 15
[2600] BRESP = 10
[2660] RDATA = 00000000, RLAST = 1, RRESP = 10 ARADDR = cb0c, ARLEN = 15
[2710] WDATA = 616d7b91, WLAST = 0 AWADDR = 56f0, AWLEN = 13
[2720] WDATA = 5a1eb794, WLAST = 0 AWADDR = 56f0, AWLEN = 13
[2730] WDATA = 88dec535, WLAST = 0 AWADDR = 56f0, AWLEN = 13
[2740] WDATA = bb175102, WLAST = 0 AWADDR = 56f0, AWLEN = 13
[2750] WDATA = 5df41fde, WLAST = 0 AWADDR = 56f0, AWLEN = 13
[2760] WDATA = 9404c836, WLAST = 0 AWADDR = 56f0, AWLEN = 13
[2770] WDATA = c65d7e39, WLAST = 0 AWADDR = 56f0, AWLEN = 13
[2780] WDATA = 2bd19f5c, WLAST = 0 AWADDR = 56f0, AWLEN = 13
[2790] WDATA = 81107ce4, WLAST = 0 AWADDR = 56f0, AWLEN = 13
[2800] WDATA = 1b968aca, WLAST = 0 AWADDR = 56f0, AWLEN = 13
[2810] WDATA = cd7881d9, WLAST = 0 AWADDR = 56f0, AWLEN = 13
[2820] WDATA = cdf3366b, WLAST = 0 AWADDR = 56f0, AWLEN = 13
[2830] WDATA = 9e15f151, WLAST = 0 AWADDR = 56f0, AWLEN = 13
[2840] BRESP = 10
[2900] RDATA = 00000000, RLAST = 1, RRESP = 10 ARADDR = 56f0, ARLEN = 13
[2950] WDATA = 80125c44, WLAST = 0 AWADDR = d3e0, AWLEN = 10
[2960] WDATA = a9d5e67b, WLAST = 0 AWADDR = d3e0, AWLEN = 10
[2970] WDATA = f9868d2d, WLAST = 0 AWADDR = d3e0, AWLEN = 10
[2980] WDATA = 45ac0489, WLAST = 0 AWADDR = d3e0, AWLEN = 10
[2990] WDATA = 6a9574e8, WLAST = 0 AWADDR = d3e0, AWLEN = 10
[3000] WDATA = eeb876fa, WLAST = 0 AWADDR = d3e0, AWLEN = 10
[3010] WDATA = d79bc853, WLAST = 0 AWADDR = d3e0, AWLEN = 10
[3020] WDATA = 2dc29e1f, WLAST = 0 AWADDR = d3e0, AWLEN = 10
[3030] WDATA = c0322177, WLAST = 0 AWADDR = d3e0, AWLEN = 10
[3040] WDATA = 9bc85e7c, WLAST = 0 AWADDR = d3e0, AWLEN = 10
[3050] BRESP = 10
[3110] RDATA = 00000000, RLAST = 1, RRESP = 10 ARADDR = d3e0, ARLEN = 10
[3160] RDATA = 00000000, RLAST = 1, RRESP = 10 ARADDR = a828, ARLEN = 6
[3210] WDATA = 6aaa258f, WLAST = 0 AWADDR = df4c, AWLEN = 12
[3220] WDATA = 0d6f0f16, WLAST = 0 AWADDR = df4c, AWLEN = 12
[3230] WDATA = ba69190f, WLAST = 0 AWADDR = df4c, AWLEN = 12
[3240] WDATA = 9b22ac42, WLAST = 0 AWADDR = df4c, AWLEN = 12
[3250] WDATA = 483c9445, WLAST = 0 AWADDR = df4c, AWLEN = 12
[3260] WDATA = 8074159c, WLAST = 0 AWADDR = df4c, AWLEN = 12
[3270] WDATA = 00111143, WLAST = 0 AWADDR = df4c, AWLEN = 12
[3280] WDATA = b7b08c56, WLAST = 0 AWADDR = df4c, AWLEN = 12
[3290] WDATA = 97b6d892, WLAST = 0 AWADDR = df4c, AWLEN = 12
[3300] WDATA = cf897bba, WLAST = 0 AWADDR = df4c, AWLEN = 12
[3310] WDATA = feeed971, WLAST = 0 AWADDR = df4c, AWLEN = 12
[3320] WDATA = 454a6765, WLAST = 0 AWADDR = df4c, AWLEN = 12
[3330] BRESP = 10
[3390] RDATA = 00000000, RLAST = 1, RRESP = 10 ARADDR = df4c, ARLEN = 12
[3440] WDATA = 152a72e3, WLAST = 0 AWADDR = 1788, AWLEN = 2
[3450] WDATA = 3c544b5c, WLAST = 0 AWADDR = 1788, AWLEN = 2
[3460] BRESP = 10
[3520] RDATA = 00000000, RLAST = 1, RRESP = 10 ARADDR = 1788, ARLEN = 2
[3570] RDATA = 538923c5, RLAST = 0, RRESP = 00 ARADDR = 06c8, ARLEN = 2
[3590] RDATA = 00000000, RLAST = 0, RRESP = 00 ARADDR = 06c8, ARLEN = 2
[3610] RDATA = 00000000, RLAST = 1, RRESP = 00 ARADDR = 06c8, ARLEN = 2
[3660] WDATA = ef4ef672, WLAST = 0 AWADDR = ead4, AWLEN = 10
[3670] WDATA = 574a6e3b, WLAST = 0 AWADDR = ead4, AWLEN = 10
[3680] WDATA = e7284f80, WLAST = 0 AWADDR = ead4, AWLEN = 10
[3690] WDATA = b01d00a8, WLAST = 0 AWADDR = ead4, AWLEN = 10
[3700] WDATA = c07d87cd, WLAST = 0 AWADDR = ead4, AWLEN = 10
[3710] WDATA = 5a7ae703, WLAST = 0 AWADDR = ead4, AWLEN = 10
[3720] WDATA = 4490105d, WLAST = 0 AWADDR = ead4, AWLEN = 10
[3730] WDATA = 2ee0bd10, WLAST = 0 AWADDR = ead4, AWLEN = 10
[3740] WDATA = 88f44baf, WLAST = 0 AWADDR = ead4, AWLEN = 10
[3750] WDATA = 667ae54a, WLAST = 0 AWADDR = ead4, AWLEN = 10
[3760] BRESP = 10
[3820] RDATA = 00000000, RLAST = 1, RRESP = 10 ARADDR = ead4, ARLEN = 10
[3870] RDATA = 00000000, RLAST = 1, RRESP = 10 ARADDR = d3e8, ARLEN = 5
[3920] RDATA = 00000000, RLAST = 1, RRESP = 10 ARADDR = 43b0, ARLEN = 5
[3970] RDATA = 00000000, RLAST = 1, RRESP = 10 ARADDR = d1f8, ARLEN = 2
[4020] RDATA = 00000000, RLAST = 1, RRESP = 10 ARADDR = 5b04, ARLEN = 6
[4070] WDATA = 924c2437, WLAST = 0 AWADDR = fe94, AWLEN = 8
[4080] WDATA = 74089a5e, WLAST = 0 AWADDR = fe94, AWLEN = 8
[4090] WDATA = d10a7054, WLAST = 0 AWADDR = fe94, AWLEN = 8
[4100] WDATA = 81be10f9, WLAST = 0 AWADDR = fe94, AWLEN = 8
[4110] WDATA = 3e61c344, WLAST = 0 AWADDR = fe94, AWLEN = 8
[4120] WDATA = 097fe346, WLAST = 0 AWADDR = fe94, AWLEN = 8
[4130] WDATA = e6c63d79, WLAST = 0 AWADDR = fe94, AWLEN = 8
[4140] WDATA = 10df8b83, WLAST = 0 AWADDR = fe94, AWLEN = 8
[4150] BRESP = 10
[4210] RDATA = 00000000, RLAST = 1, RRESP = 10 ARADDR = fe94, ARLEN = 8
[4260] RDATA = 00000000, RLAST = 1, RRESP = 10 ARADDR = f1e4, ARLEN = 9
[4310] WDATA = a6226536, WLAST = 0 AWADDR = 4a9c, AWLEN = 12
[4320] WDATA = de9e97d3, WLAST = 0 AWADDR = 4a9c, AWLEN = 12
[4330] WDATA = 5807828e, WLAST = 0 AWADDR = 4a9c, AWLEN = 12
[4340] WDATA = 8d8b3854, WLAST = 0 AWADDR = 4a9c, AWLEN = 12
[4350] WDATA = bd42e1e5, WLAST = 0 AWADDR = 4a9c, AWLEN = 12
[4360] WDATA = bec981e7, WLAST = 0 AWADDR = 4a9c, AWLEN = 12
[4370] WDATA = cff9e4e5, WLAST = 0 AWADDR = 4a9c, AWLEN = 12
[4380] WDATA = 51cfe79e, WLAST = 0 AWADDR = 4a9c, AWLEN = 12
[4390] WDATA = e849053c, WLAST = 0 AWADDR = 4a9c, AWLEN = 12
[4400] WDATA = e9ee75a8, WLAST = 0 AWADDR = 4a9c, AWLEN = 12
[4410] WDATA = 5779b832, WLAST = 0 AWADDR = 4a9c, AWLEN = 12
[4420] WDATA = 7ad2971b, WLAST = 0 AWADDR = 4a9c, AWLEN = 12
[4430] BRESP = 10
[4490] RDATA = 00000000, RLAST = 1, RRESP = 10 ARADDR = 4a9c, ARLEN = 12
[4540] WDATA = 15728188, WLAST = 0 AWADDR = 5174, AWLEN = 8
[4550] WDATA = 7a262173, WLAST = 0 AWADDR = 5174, AWLEN = 8
[4560] WDATA = 08aca270, WLAST = 0 AWADDR = 5174, AWLEN = 8
[4570] WDATA = 4c5ab4c7, WLAST = 0 AWADDR = 5174, AWLEN = 8
[4580] WDATA = 64ae5d63, WLAST = 0 AWADDR = 5174, AWLEN = 8
[4590] WDATA = 31a52bb2, WLAST = 0 AWADDR = 5174, AWLEN = 8
[4600] WDATA = 0f118671, WLAST = 0 AWADDR = 5174, AWLEN = 8
[4610] WDATA = 675f86c9, WLAST = 0 AWADDR = 5174, AWLEN = 8
[4620] BRESP = 10
[4680] RDATA = 00000000, RLAST = 1, RRESP = 10 ARADDR = 5174, ARLEN = 8
[4730] WDATA = 8204d846, WLAST = 0 AWADDR = 22bc, AWLEN = 3
[4740] WDATA = fa6527ce, WLAST = 0 AWADDR = 22bc, AWLEN = 3
[4750] WDATA = 274c6e86, WLAST = 0 AWADDR = 22bc, AWLEN = 3
[4760] BRESP = 10
[4820] RDATA = 00000000, RLAST = 1, RRESP = 10 ARADDR = 22bc, ARLEN = 3
[4870] RDATA = 00000000, RLAST = 1, RRESP = 10 ARADDR = 5118, ARLEN = 1
[4920] RDATA = 00000000, RLAST = 1, RRESP = 10 ARADDR = bc44, ARLEN = 12
[4970] WDATA = 28b05bb9, WLAST = 0 AWADDR = 065c, AWLEN = 6
[4980] WDATA = 23bc9e16, WLAST = 0 AWADDR = 065c, AWLEN = 6
[4990] WDATA = 274f6db1, WLAST = 0 AWADDR = 065c, AWLEN = 6
[5000] WDATA = 1f3d4e4f, WLAST = 0 AWADDR = 065c, AWLEN = 6
[5010] WDATA = 307ea1cf, WLAST = 0 AWADDR = 065c, AWLEN = 6
[5020] WDATA = c23513c4, WLAST = 0 AWADDR = 065c, AWLEN = 6
[5030] BRESP = 00
[5090] RDATA = 00000000, RLAST = 0, RRESP = 00 ARADDR = 065c, ARLEN = 6
[5110] RDATA = 28b05bb9, RLAST = 0, RRESP = 00 ARADDR = 065c, ARLEN = 6
[5130] RDATA = 28b05bb9, RLAST = 0, RRESP = 00 ARADDR = 065c, ARLEN = 6
[5150] RDATA = 23bc9e16, RLAST = 0, RRESP = 00 ARADDR = 065c, ARLEN = 6
[5170] RDATA = 274f6db1, RLAST = 0, RRESP = 00 ARADDR = 065c, ARLEN = 6
[5190] RDATA = 1f3d4e4f, RLAST = 0, RRESP = 00 ARADDR = 065c, ARLEN = 6
[5210] RDATA = 307ea1cf, RLAST = 1, RRESP = 00 ARADDR = 065c, ARLEN = 6
[5260] WDATA = 1fab1a52, WLAST = 0 AWADDR = 2b3c, AWLEN = 12
[5270] WDATA = 7ca83b13, WLAST = 0 AWADDR = 2b3c, AWLEN = 12
[5280] WDATA = 117bd915, WLAST = 0 AWADDR = 2b3c, AWLEN = 12
[5290] WDATA = dc718200, WLAST = 0 AWADDR = 2b3c, AWLEN = 12
[5300] WDATA = acb0fc48, WLAST = 0 AWADDR = 2b3c, AWLEN = 12
[5310] WDATA = 212e0892, WLAST = 0 AWADDR = 2b3c, AWLEN = 12
[5320] WDATA = 70311704, WLAST = 0 AWADDR = 2b3c, AWLEN = 12
[5330] WDATA = df20163f, WLAST = 0 AWADDR = 2b3c, AWLEN = 12
[5340] WDATA = d85eedd3, WLAST = 0 AWADDR = 2b3c, AWLEN = 12
[5350] WDATA = e8e79885, WLAST = 0 AWADDR = 2b3c, AWLEN = 12
[5360] WDATA = 384e7051, WLAST = 0 AWADDR = 2b3c, AWLEN = 12
[5370] WDATA = 0c9d297c, WLAST = 0 AWADDR = 2b3c, AWLEN = 12
[5380] BRESP = 10
[5440] RDATA = 00000000, RLAST = 1, RRESP = 10 ARADDR = 2b3c, ARLEN = 12
[5490] RDATA = 00000000, RLAST = 1, RRESP = 10 ARADDR = 8df4, ARLEN = 13
[5540] WDATA = a90a8f36, WLAST = 0 AWADDR = 4b00, AWLEN = 6
[5550] WDATA = 0cbf7699, WLAST = 0 AWADDR = 4b00, AWLEN = 6
[5560] WDATA = b1012654, WLAST = 0 AWADDR = 4b00, AWLEN = 6
[5570] WDATA = b4939b08, WLAST = 0 AWADDR = 4b00, AWLEN = 6
[5580] WDATA = 09c376b6, WLAST = 0 AWADDR = 4b00, AWLEN = 6
[5590] WDATA = 90f7b53c, WLAST = 0 AWADDR = 4b00, AWLEN = 6
[5600] BRESP = 10
[5660] RDATA = 00000000, RLAST = 1, RRESP = 10 ARADDR = 4b00, ARLEN = 6
[5710] WDATA = 6e985d57, WLAST = 0 AWADDR = d03c, AWLEN = 3
[5720] WDATA = eb7b2d36, WLAST = 0 AWADDR = d03c, AWLEN = 3
[5730] WDATA = fb7c3016, WLAST = 0 AWADDR = d03c, AWLEN = 3
[5740] BRESP = 10
[5800] RDATA = 00000000, RLAST = 1, RRESP = 10 ARADDR = d03c, ARLEN = 3
[5850] RDATA = c23513c4, RLAST = 0, RRESP = 00 ARADDR = 08b4, ARLEN = 12
[5870] RDATA = 00000000, RLAST = 0, RRESP = 00 ARADDR = 08b4, ARLEN = 12
[5890] RDATA = 00000000, RLAST = 0, RRESP = 00 ARADDR = 08b4, ARLEN = 12
[5910] RDATA = 00000000, RLAST = 0, RRESP = 00 ARADDR = 08b4, ARLEN = 12
[5930] RDATA = 00000000, RLAST = 0, RRESP = 00 ARADDR = 08b4, ARLEN = 12
[5950] RDATA = 00000000, RLAST = 0, RRESP = 00 ARADDR = 08b4, ARLEN = 12
[5970] RDATA = 00000000, RLAST = 0, RRESP = 00 ARADDR = 08b4, ARLEN = 12
[5990] RDATA = 00000000, RLAST = 0, RRESP = 00 ARADDR = 08b4, ARLEN = 12
[6010] RDATA = 00000000, RLAST = 0, RRESP = 00 ARADDR = 08b4, ARLEN = 12
[6030] RDATA = 00000000, RLAST = 0, RRESP = 00 ARADDR = 08b4, ARLEN = 12
[6050] RDATA = 00000000, RLAST = 0, RRESP = 00 ARADDR = 08b4, ARLEN = 12
[6070] RDATA = 00000000, RLAST = 0, RRESP = 00 ARADDR = 08b4, ARLEN = 12
[6090] RDATA = 00000000, RLAST = 1, RRESP = 00 ARADDR = 08b4, ARLEN = 12
[6140] WDATA = 227023d8, WLAST = 0 AWADDR = 88a0, AWLEN = 3
[6150] WDATA = 6d5ee208, WLAST = 0 AWADDR = 88a0, AWLEN = 3
[6160] WDATA = c20a7b2a, WLAST = 0 AWADDR = 88a0, AWLEN = 3
[6170] BRESP = 10
[6230] RDATA = 00000000, RLAST = 1, RRESP = 10 ARADDR = 88a0, ARLEN = 3
[6280] WDATA = b8a2d70b, WLAST = 0 AWADDR = 4b08, AWLEN = 5
[6290] WDATA = ee319151, WLAST = 0 AWADDR = 4b08, AWLEN = 5
[6300] WDATA = 0f7e63cb, WLAST = 0 AWADDR = 4b08, AWLEN = 5
[6310] WDATA = b8ef551c, WLAST = 0 AWADDR = 4b08, AWLEN = 5
[6320] WDATA = 79fbbc76, WLAST = 0 AWADDR = 4b08, AWLEN = 5
[6330] BRESP = 10
[6390] RDATA = 00000000, RLAST = 1, RRESP = 10 ARADDR = 4b08, ARLEN = 5
[6440] RDATA = 00000000, RLAST = 1, RRESP = 10 ARADDR = 2824, ARLEN = 6
[6490] WDATA = 23dbb0c7, WLAST = 0 AWADDR = b6f0, AWLEN = 3
[6500] WDATA = 3ecef27f, WLAST = 0 AWADDR = b6f0, AWLEN = 3
[6510] WDATA = beedff11, WLAST = 0 AWADDR = b6f0, AWLEN = 3
[6520] BRESP = 10
[6580] RDATA = 00000000, RLAST = 1, RRESP = 10 ARADDR = b6f0, ARLEN = 3
[6630] WDATA = 83a62116, WLAST = 0 AWADDR = 9a94, AWLEN = 6
[6640] WDATA = f08ffd5e, WLAST = 0 AWADDR = 9a94, AWLEN = 6
[6650] WDATA = 64e2cada, WLAST = 0 AWADDR = 9a94, AWLEN = 6
[6660] WDATA = e65dd804, WLAST = 0 AWADDR = 9a94, AWLEN = 6
[6670] WDATA = fb4aaf2a, WLAST = 0 AWADDR = 9a94, AWLEN = 6
[6680] WDATA = 83103f34, WLAST = 0 AWADDR = 9a94, AWLEN = 6
[6690] BRESP = 10
[6750] RDATA = 00000000, RLAST = 1, RRESP = 10 ARADDR = 9a94, ARLEN = 6
[6800] RDATA = 00000000, RLAST = 1, RRESP = 10 ARADDR = 1c54, ARLEN = 10
[6850] RDATA = 00000000, RLAST = 1, RRESP = 10 ARADDR = fc30, ARLEN = 5
[6900] RDATA = 00000000, RLAST = 1, RRESP = 10 ARADDR = 702c, ARLEN = 8
[6950] RDATA = 00000000, RLAST = 1, RRESP = 10 ARADDR = c180, ARLEN = 12
[7000] RDATA = 00000000, RLAST = 1, RRESP = 10 ARADDR = e474, ARLEN = 9
[7050] WDATA = ff05dbb2, WLAST = 0 AWADDR = 6134, AWLEN = 6
[7060] WDATA = a7f12ea4, WLAST = 0 AWADDR = 6134, AWLEN = 6
[7070] WDATA = e1e7a1d5, WLAST = 0 AWADDR = 6134, AWLEN = 6
[7080] WDATA = 4ce29133, WLAST = 0 AWADDR = 6134, AWLEN = 6
[7090] WDATA = fcdc26dc, WLAST = 0 AWADDR = 6134, AWLEN = 6
[7100] WDATA = f5e52922, WLAST = 0 AWADDR = 6134, AWLEN = 6
[7110] BRESP = 10
[7170] RDATA = 00000000, RLAST = 1, RRESP = 10 ARADDR = 6134, ARLEN = 6
[7220] RDATA = 00000000, RLAST = 1, RRESP = 10 ARADDR = f10c, ARLEN = 8
[7270] WDATA = 3bc5c336, WLAST = 0 AWADDR = 33f0, AWLEN = 15
[7280] WDATA = e0f7fc1a, WLAST = 0 AWADDR = 33f0, AWLEN = 15
[7290] WDATA = ff104aae, WLAST = 0 AWADDR = 33f0, AWLEN = 15
[7300] WDATA = 8ca5b05c, WLAST = 0 AWADDR = 33f0, AWLEN = 15
[7310] WDATA = c34eefd4, WLAST = 0 AWADDR = 33f0, AWLEN = 15
[7320] WDATA = 0c429758, WLAST = 0 AWADDR = 33f0, AWLEN = 15
[7330] WDATA = 0cfd877d, WLAST = 0 AWADDR = 33f0, AWLEN = 15
[7340] WDATA = 13d781d6, WLAST = 0 AWADDR = 33f0, AWLEN = 15
[7350] WDATA = 1077ea5b, WLAST = 0 AWADDR = 33f0, AWLEN = 15
[7360] WDATA = 28d11701, WLAST = 0 AWADDR = 33f0, AWLEN = 15
[7370] WDATA = 0d64aa4b, WLAST = 0 AWADDR = 33f0, AWLEN = 15
[7380] WDATA = 692d7ae6, WLAST = 0 AWADDR = 33f0, AWLEN = 15
[7390] WDATA = 4c7cc71b, WLAST = 0 AWADDR = 33f0, AWLEN = 15
[7400] WDATA = 194977a9, WLAST = 0 AWADDR = 33f0, AWLEN = 15
[7410] WDATA = 05f551eb, WLAST = 0 AWADDR = 33f0, AWLEN = 15
[7420] BRESP = 10
[7480] RDATA = 00000000, RLAST = 1, RRESP = 10 ARADDR = 33f0, ARLEN = 15
[7530] RDATA = 00000000, RLAST = 1, RRESP = 10 ARADDR = 5084, ARLEN = 1
[7580] RDATA = 00000000, RLAST = 0, RRESP = 00 ARADDR = 08d0, ARLEN = 2
[7600] RDATA = 00000000, RLAST = 0, RRESP = 00 ARADDR = 08d0, ARLEN = 2
[7620] RDATA = 00000000, RLAST = 1, RRESP = 00 ARADDR = 08d0, ARLEN = 2
[7670] WDATA = 589ab195, WLAST = 0 AWADDR = 41f0, AWLEN = 6
[7680] WDATA = dd7fa775, WLAST = 0 AWADDR = 41f0, AWLEN = 6
[7690] WDATA = b88686d7, WLAST = 0 AWADDR = 41f0, AWLEN = 6
[7700] WDATA = e2786c27, WLAST = 0 AWADDR = 41f0, AWLEN = 6
[7710] WDATA = d1e3794c, WLAST = 0 AWADDR = 41f0, AWLEN = 6
[7720] WDATA = 4e68ec8e, WLAST = 0 AWADDR = 41f0, AWLEN = 6
[7730] BRESP = 10
[7790] RDATA = 00000000, RLAST = 1, RRESP = 10 ARADDR = 41f0, ARLEN = 6
[7840] RDATA = 00000000, RLAST = 1, RRESP = 10 ARADDR = 70b0, ARLEN = 15
[7890] RDATA = 00000000, RLAST = 1, RRESP = 10 ARADDR = 1c6c, ARLEN = 1
[7940] WDATA = 6a681e77, WLAST = 0 AWADDR = 4124, AWLEN = 5
[7950] WDATA = aec6e890, WLAST = 0 AWADDR = 4124, AWLEN = 5
[7960] WDATA = 3a25761f, WLAST = 0 AWADDR = 4124, AWLEN = 5
[7970] WDATA = d6415451, WLAST = 0 AWADDR = 4124, AWLEN = 5
[7980] WDATA = 155b8d4f, WLAST = 0 AWADDR = 4124, AWLEN = 5
[7990] BRESP = 10
[8050] RDATA = 00000000, RLAST = 1, RRESP = 10 ARADDR = 4124, ARLEN = 5
[8100] RDATA = 00000000, RLAST = 1, RRESP = 10 ARADDR = 3c58, ARLEN = 4
[8150] RDATA = 00000000, RLAST = 1, RRESP = 10 ARADDR = 2eac, ARLEN = 0
[8200] WDATA = fa983055, WLAST = 0 AWADDR = b7c0, AWLEN = 9
[8210] WDATA = ea8dfa2a, WLAST = 0 AWADDR = b7c0, AWLEN = 9
[8220] WDATA = 35cac584, WLAST = 0 AWADDR = b7c0, AWLEN = 9
[8230] WDATA = 1f319dd8, WLAST = 0 AWADDR = b7c0, AWLEN = 9
[8240] WDATA = d2c6d6c0, WLAST = 0 AWADDR = b7c0, AWLEN = 9
[8250] WDATA = f9923d89, WLAST = 0 AWADDR = b7c0, AWLEN = 9
[8260] WDATA = b5b60a15, WLAST = 0 AWADDR = b7c0, AWLEN = 9
[8270] WDATA = 3671bd90, WLAST = 0 AWADDR = b7c0, AWLEN = 9
[8280] WDATA = 6ff4c10c, WLAST = 0 AWADDR = b7c0, AWLEN = 9
[8290] BRESP = 10
[8350] RDATA = 00000000, RLAST = 1, RRESP = 10 ARADDR = b7c0, ARLEN = 9
[8400] RDATA = 00000000, RLAST = 1, RRESP = 10 ARADDR = 2de8, ARLEN = 0
[8450] WDATA = 12878f90, WLAST = 0 AWADDR = 20d0, AWLEN = 11
[8460] WDATA = 3c3d16bd, WLAST = 0 AWADDR = 20d0, AWLEN = 11
[8470] WDATA = 3fd14b42, WLAST = 0 AWADDR = 20d0, AWLEN = 11
[8480] WDATA = fe52361c, WLAST = 0 AWADDR = 20d0, AWLEN = 11
[8490] WDATA = bea43e24, WLAST = 0 AWADDR = 20d0, AWLEN = 11
[8500] WDATA = 2b16ceb4, WLAST = 0 AWADDR = 20d0, AWLEN = 11
[8510] WDATA = 597e1b4a, WLAST = 0 AWADDR = 20d0, AWLEN = 11
[8520] WDATA = b4ca1786, WLAST = 0 AWADDR = 20d0, AWLEN = 11
[8530] WDATA = 4bae4762, WLAST = 0 AWADDR = 20d0, AWLEN = 11
[8540] WDATA = 84fc8c74, WLAST = 0 AWADDR = 20d0, AWLEN = 11
[8550] WDATA = 82ae6014, WLAST = 0 AWADDR = 20d0, AWLEN = 11
[8560] BRESP = 10
[8620] RDATA = 00000000, RLAST = 1, RRESP = 10 ARADDR = 20d0, ARLEN = 11
[8670] WDATA = fa025e83, WLAST = 0 AWADDR = 4404, AWLEN = 3
[8680] WDATA = 33fe11d7, WLAST = 0 AWADDR = 4404, AWLEN = 3
[8690] WDATA = 8c39203a, WLAST = 0 AWADDR = 4404, AWLEN = 3
[8700] BRESP = 10
[8760] RDATA = 00000000, RLAST = 1, RRESP = 10 ARADDR = 4404, ARLEN = 3
[8810] RDATA = 00000000, RLAST = 1, RRESP = 10 ARADDR = fe98, ARLEN = 7
[8860] RDATA = 00000000, RLAST = 1, RRESP = 10 ARADDR = 57d0, ARLEN = 8
[8910] RDATA = 00000000, RLAST = 1, RRESP = 10 ARADDR = 7f58, ARLEN = 15
[8960] RDATA = 00000000, RLAST = 1, RRESP = 10 ARADDR = 3fa0, ARLEN = 5
[9010] WDATA = 4fdf0554, WLAST = 0 AWADDR = 0968, AWLEN = 7
[9020] WDATA = a9ba1e77, WLAST = 0 AWADDR = 0968, AWLEN = 7
[9030] WDATA = 7b37fb43, WLAST = 0 AWADDR = 0968, AWLEN = 7
[9040] WDATA = 00decda1, WLAST = 0 AWADDR = 0968, AWLEN = 7
[9050] WDATA = b287be45, WLAST = 0 AWADDR = 0968, AWLEN = 7
[9060] WDATA = 08853c32, WLAST = 0 AWADDR = 0968, AWLEN = 7
[9070] WDATA = e3453a6e, WLAST = 0 AWADDR = 0968, AWLEN = 7
[9080] BRESP = 00
[9140] RDATA = 00000000, RLAST = 0, RRESP = 00 ARADDR = 0968, ARLEN = 7
[9160] RDATA = 4fdf0554, RLAST = 0, RRESP = 00 ARADDR = 0968, ARLEN = 7
[9180] RDATA = 4fdf0554, RLAST = 0, RRESP = 00 ARADDR = 0968, ARLEN = 7
[9200] RDATA = a9ba1e77, RLAST = 0, RRESP = 00 ARADDR = 0968, ARLEN = 7
[9220] RDATA = 7b37fb43, RLAST = 0, RRESP = 00 ARADDR = 0968, ARLEN = 7
[9240] RDATA = 00decda1, RLAST = 0, RRESP = 00 ARADDR = 0968, ARLEN = 7
[9260] RDATA = b287be45, RLAST = 0, RRESP = 00 ARADDR = 0968, ARLEN = 7
[9280] RDATA = 08853c32, RLAST = 1, RRESP = 00 ARADDR = 0968, ARLEN = 7
[9330] RDATA = 00000000, RLAST = 1, RRESP = 10 ARADDR = 5724, ARLEN = 0
[9380] WDATA = b4cfd123, WLAST = 0 AWADDR = 9c90, AWLEN = 1
[9390] BRESP = 10
[9450] RDATA = 00000000, RLAST = 1, RRESP = 10 ARADDR = 9c90, ARLEN = 1
[9500] RDATA = 00000000, RLAST = 1, RRESP = 10 ARADDR = b378, ARLEN = 5
[9550] WDATA = a90faa09, WLAST = 0 AWADDR = 479c, AWLEN = 2
[9560] WDATA = 52d1f1ae, WLAST = 0 AWADDR = 479c, AWLEN = 2
[9570] BRESP = 10
[9630] RDATA = 00000000, RLAST = 1, RRESP = 10 ARADDR = 479c, ARLEN = 2
[9680] BRESP = 10
[9740] RDATA = 00000000, RLAST = 1, RRESP = 10 ARADDR = 7498, ARLEN = 0
[9790] RDATA = 00000000, RLAST = 1, RRESP = 10 ARADDR = 6f78, ARLEN = 0
[9840] WDATA = 9b073801, WLAST = 0 AWADDR = 6288, AWLEN = 9
[9850] WDATA = 1f189f53, WLAST = 0 AWADDR = 6288, AWLEN = 9
[9860] WDATA = d3107ed6, WLAST = 0 AWADDR = 6288, AWLEN = 9
[9870] WDATA = beaae8d9, WLAST = 0 AWADDR = 6288, AWLEN = 9
[9880] WDATA = 08cd07e0, WLAST = 0 AWADDR = 6288, AWLEN = 9
[9890] WDATA = 70807a3e, WLAST = 0 AWADDR = 6288, AWLEN = 9
[9900] WDATA = 88800ae0, WLAST = 0 AWADDR = 6288, AWLEN = 9
[9910] WDATA = 6aa23499, WLAST = 0 AWADDR = 6288, AWLEN = 9
[9920] WDATA = e59a6ad1, WLAST = 0 AWADDR = 6288, AWLEN = 9
[9930] BRESP = 10
[9990] RDATA = 00000000, RLAST = 1, RRESP = 10 ARADDR = 6288, ARLEN = 9
[10040] RDATA = 00000000, RLAST = 1, RRESP = 10 ARADDR = 218c, ARLEN = 12
[10090] RDATA = 00000000, RLAST = 1, RRESP = 10 ARADDR = cf24, ARLEN = 0
[10140] WDATA = a25e8bdb, WLAST = 0 AWADDR = 8a90, AWLEN = 1
[10150] BRESP = 10
[10210] RDATA = 00000000, RLAST = 1, RRESP = 10 ARADDR = 8a90, ARLEN = 1
[10260] RDATA = 00000000, RLAST = 1, RRESP = 10 ARADDR = 1054, ARLEN = 9
[10310] WDATA = ec0cd97a, WLAST = 0 AWADDR = b358, AWLEN = 5
[10320] WDATA = 9f6d2c80, WLAST = 0 AWADDR = b358, AWLEN = 5
[10330] WDATA = de555afd, WLAST = 0 AWADDR = b358, AWLEN = 5
[10340] WDATA = 6b8db3a0, WLAST = 0 AWADDR = b358, AWLEN = 5
[10350] WDATA = 2374ba56, WLAST = 0 AWADDR = b358, AWLEN = 5
[10360] BRESP = 10
[10420] RDATA = 00000000, RLAST = 1, RRESP = 10 ARADDR = b358, ARLEN = 5
[10470] RDATA = 00000000, RLAST = 1, RRESP = 10 ARADDR = 9c5c, ARLEN = 13
[10520] RDATA = 00000000, RLAST = 1, RRESP = 10 ARADDR = 4f94, ARLEN = 0
[10570] RDATA = 00000000, RLAST = 1, RRESP = 10 ARADDR = acd4, ARLEN = 10
[10620] RDATA = 00000000, RLAST = 1, RRESP = 10 ARADDR = 41e0, ARLEN = 10
[10670] RDATA = 00000000, RLAST = 1, RRESP = 10 ARADDR = 2eb8, ARLEN = 1
[10720] RDATA = 00000000, RLAST = 1, RRESP = 10 ARADDR = 5820, ARLEN = 13
[10770] WDATA = 90d2c8dc, WLAST = 0 AWADDR = 75b8, AWLEN = 7
[10780] WDATA = 17c4cbaf, WLAST = 0 AWADDR = 75b8, AWLEN = 7
[10790] WDATA = 8e2be73e, WLAST = 0 AWADDR = 75b8, AWLEN = 7
[10800] WDATA = a3f5bf64, WLAST = 0 AWADDR = 75b8, AWLEN = 7
[10810] WDATA = f9709003, WLAST = 0 AWADDR = 75b8, AWLEN = 7
[10820] WDATA = 87435124, WLAST = 0 AWADDR = 75b8, AWLEN = 7
[10830] WDATA = a958ae4d, WLAST = 0 AWADDR = 75b8, AWLEN = 7
[10840] BRESP = 10
[10900] RDATA = 00000000, RLAST = 1, RRESP = 10 ARADDR = 75b8, ARLEN = 7
[10950] RDATA = 00000000, RLAST = 1, RRESP = 10 ARADDR = c2f8, ARLEN = 9
[11000] RDATA = 00000000, RLAST = 1, RRESP = 10 ARADDR = 5e74, ARLEN = 8
[11050] WDATA = d89ddebc, WLAST = 0 AWADDR = 6d98, AWLEN = 14
[11060] WDATA = d75827ee, WLAST = 0 AWADDR = 6d98, AWLEN = 14
[11070] WDATA = 6ef8bc8b, WLAST = 0 AWADDR = 6d98, AWLEN = 14
[11080] WDATA = 55ce7f6a, WLAST = 0 AWADDR = 6d98, AWLEN = 14
[11090] WDATA = 0068c731, WLAST = 0 AWADDR = 6d98, AWLEN = 14
[11100] WDATA = 53960dde, WLAST = 0 AWADDR = 6d98, AWLEN = 14
[11110] WDATA = 32cb4e35, WLAST = 0 AWADDR = 6d98, AWLEN = 14
[11120] WDATA = d8c40357, WLAST = 0 AWADDR = 6d98, AWLEN = 14
[11130] WDATA = cfc8334d, WLAST = 0 AWADDR = 6d98, AWLEN = 14
[11140] WDATA = 516bbd63, WLAST = 0 AWADDR = 6d98, AWLEN = 14
[11150] WDATA = b92e2a57, WLAST = 0 AWADDR = 6d98, AWLEN = 14
[11160] WDATA = f82872ef, WLAST = 0 AWADDR = 6d98, AWLEN = 14
[11170] WDATA = 3f300583, WLAST = 0 AWADDR = 6d98, AWLEN = 14
[11180] WDATA = 9bc576bd, WLAST = 0 AWADDR = 6d98, AWLEN = 14
[11190] BRESP = 10
[11250] RDATA = 00000000, RLAST = 1, RRESP = 10 ARADDR = 6d98, ARLEN = 14
[11300] RDATA = 00000000, RLAST = 1, RRESP = 10 ARADDR = 3468, ARLEN = 15
[11350] RDATA = 00000000, RLAST = 1, RRESP = 10 ARADDR = aaec, ARLEN = 9
[11400] RDATA = 00000000, RLAST = 1, RRESP = 10 ARADDR = 82f0, ARLEN = 15
[11450] RDATA = 00000000, RLAST = 1, RRESP = 10 ARADDR = 4d78, ARLEN = 3
[11500] RDATA = 00000000, RLAST = 1, RRESP = 10 ARADDR = 68d0, ARLEN = 2
[11550] RDATA = 00000000, RLAST = 1, RRESP = 10 ARADDR = 4ac8, ARLEN = 13
[11600] RDATA = 00000000, RLAST = 1, RRESP = 10 ARADDR = 35b8, ARLEN = 2
[11650] RDATA = 00000000, RLAST = 1, RRESP = 10 ARADDR = 7ec8, ARLEN = 6
[11700] RDATA = 00000000, RLAST = 1, RRESP = 10 ARADDR = 6224, ARLEN = 12
[11750] WDATA = 4c3f6b6a, WLAST = 0 AWADDR = e900, AWLEN = 11
[11760] WDATA = c7f7d414, WLAST = 0 AWADDR = e900, AWLEN = 11
[11770] WDATA = 7fa3b54c, WLAST = 0 AWADDR = e900, AWLEN = 11
[11780] WDATA = d8704877, WLAST = 0 AWADDR = e900, AWLEN = 11
[11790] WDATA = 5f4c75b3, WLAST = 0 AWADDR = e900, AWLEN = 11
[11800] WDATA = dee817f9, WLAST = 0 AWADDR = e900, AWLEN = 11
[11810] WDATA = 22211028, WLAST = 0 AWADDR = e900, AWLEN = 11
[11820] WDATA = 2cdb3515, WLAST = 0 AWADDR = e900, AWLEN = 11
[11830] WDATA = 7a4c0442, WLAST = 0 AWADDR = e900, AWLEN = 11
[11840] WDATA = 3b676cf7, WLAST = 0 AWADDR = e900, AWLEN = 11
[11850] WDATA = 186e5604, WLAST = 0 AWADDR = e900, AWLEN = 11
[11860] BRESP = 10
[11920] RDATA = 00000000, RLAST = 1, RRESP = 10 ARADDR = e900, ARLEN = 11
[11970] RDATA = 00000000, RLAST = 1, RRESP = 10 ARADDR = 9938, ARLEN = 11
[12020] RDATA = 00000000, RLAST = 1, RRESP = 10 ARADDR = acec, ARLEN = 12
[12070] RDATA = e3453a6e, RLAST = 0, RRESP = 00 ARADDR = 0450, ARLEN = 14
[12090] RDATA = 00000000, RLAST = 0, RRESP = 00 ARADDR = 0450, ARLEN = 14
[12110] RDATA = 00000000, RLAST = 0, RRESP = 00 ARADDR = 0450, ARLEN = 14
[12130] RDATA = 00000000, RLAST = 0, RRESP = 00 ARADDR = 0450, ARLEN = 14
[12150] RDATA = 00000000, RLAST = 0, RRESP = 00 ARADDR = 0450, ARLEN = 14
[12170] RDATA = 00000000, RLAST = 0, RRESP = 00 ARADDR = 0450, ARLEN = 14
[12190] RDATA = 00000000, RLAST = 0, RRESP = 00 ARADDR = 0450, ARLEN = 14
[12210] RDATA = 00000000, RLAST = 0, RRESP = 00 ARADDR = 0450, ARLEN = 14
[12230] RDATA = 00000000, RLAST = 0, RRESP = 00 ARADDR = 0450, ARLEN = 14
[12250] RDATA = 00000000, RLAST = 0, RRESP = 00 ARADDR = 0450, ARLEN = 14
[12270] RDATA = 00000000, RLAST = 0, RRESP = 00 ARADDR = 0450, ARLEN = 14
[12290] RDATA = 00000000, RLAST = 0, RRESP = 00 ARADDR = 0450, ARLEN = 14
[12310] RDATA = 00000000, RLAST = 0, RRESP = 00 ARADDR = 0450, ARLEN = 14
[12330] RDATA = 00000000, RLAST = 0, RRESP = 00 ARADDR = 0450, ARLEN = 14
[12350] RDATA = 00000000, RLAST = 1, RRESP = 00 ARADDR = 0450, ARLEN = 14
[12400] WDATA = 03f45229, WLAST = 0 AWADDR = 0dd4, AWLEN = 15
[12410] WDATA = 7adcaf2a, WLAST = 0 AWADDR = 0dd4, AWLEN = 15
[12420] WDATA = bb000683, WLAST = 0 AWADDR = 0dd4, AWLEN = 15
[12430] WDATA = 623de092, WLAST = 0 AWADDR = 0dd4, AWLEN = 15
[12440] WDATA = e041a0e8, WLAST = 0 AWADDR = 0dd4, AWLEN = 15
[12450] WDATA = d0bd4afd, WLAST = 0 AWADDR = 0dd4, AWLEN = 15
[12460] WDATA = 51d24c3a, WLAST = 0 AWADDR = 0dd4, AWLEN = 15
[12470] WDATA = 9be31c1f, WLAST = 0 AWADDR = 0dd4, AWLEN = 15
[12480] WDATA = 04615f59, WLAST = 0 AWADDR = 0dd4, AWLEN = 15
[12490] WDATA = f7fb3726, WLAST = 0 AWADDR = 0dd4, AWLEN = 15
[12500] WDATA = af8739bd, WLAST = 0 AWADDR = 0dd4, AWLEN = 15
[12510] WDATA = f02a6d78, WLAST = 0 AWADDR = 0dd4, AWLEN = 15
[12520] WDATA = af109296, WLAST = 0 AWADDR = 0dd4, AWLEN = 15
[12530] WDATA = 7a8c80c9, WLAST = 0 AWADDR = 0dd4, AWLEN = 15
[12540] WDATA = 92cc513e, WLAST = 0 AWADDR = 0dd4, AWLEN = 15
[12550] BRESP = 00
[12610] RDATA = 00000000, RLAST = 0, RRESP = 00 ARADDR = 0dd4, ARLEN = 15
[12630] RDATA = 03f45229, RLAST = 0, RRESP = 00 ARADDR = 0dd4, ARLEN = 15
[12650] RDATA = 03f45229, RLAST = 0, RRESP = 00 ARADDR = 0dd4, ARLEN = 15
[12670] RDATA = 7adcaf2a, RLAST = 0, RRESP = 00 ARADDR = 0dd4, ARLEN = 15
[12690] RDATA = bb000683, RLAST = 0, RRESP = 00 ARADDR = 0dd4, ARLEN = 15
[12710] RDATA = 623de092, RLAST = 0, RRESP = 00 ARADDR = 0dd4, ARLEN = 15
[12730] RDATA = e041a0e8, RLAST = 0, RRESP = 00 ARADDR = 0dd4, ARLEN = 15
[12750] RDATA = d0bd4afd, RLAST = 0, RRESP = 00 ARADDR = 0dd4, ARLEN = 15
[12770] RDATA = 51d24c3a, RLAST = 0, RRESP = 00 ARADDR = 0dd4, ARLEN = 15
[12790] RDATA = 9be31c1f, RLAST = 0, RRESP = 00 ARADDR = 0dd4, ARLEN = 15
[12810] RDATA = 04615f59, RLAST = 0, RRESP = 00 ARADDR = 0dd4, ARLEN = 15
[12830] RDATA = f7fb3726, RLAST = 0, RRESP = 00 ARADDR = 0dd4, ARLEN = 15
[12850] RDATA = af8739bd, RLAST = 0, RRESP = 00 ARADDR = 0dd4, ARLEN = 15
[12870] RDATA = f02a6d78, RLAST = 0, RRESP = 00 ARADDR = 0dd4, ARLEN = 15
[12890] RDATA = af109296, RLAST = 0, RRESP = 00 ARADDR = 0dd4, ARLEN = 15
[12910] RDATA = 7a8c80c9, RLAST = 1, RRESP = 00 ARADDR = 0dd4, ARLEN = 15
[12960] RDATA = 00000000, RLAST = 1, RRESP = 10 ARADDR = 1c9c, ARLEN = 5
[13010] WDATA = ffdc2bfe, WLAST = 0 AWADDR = bd70, AWLEN = 6
[13020] WDATA = b2080579, WLAST = 0 AWADDR = bd70, AWLEN = 6
[13030] WDATA = 8dd493c0, WLAST = 0 AWADDR = bd70, AWLEN = 6
[13040] WDATA = 569a6b76, WLAST = 0 AWADDR = bd70, AWLEN = 6
[13050] WDATA = 56179cce, WLAST = 0 AWADDR = bd70, AWLEN = 6
[13060] WDATA = cbab63bc, WLAST = 0 AWADDR = bd70, AWLEN = 6
[13070] BRESP = 10
[13130] RDATA = 00000000, RLAST = 1, RRESP = 10 ARADDR = bd70, ARLEN = 6
[13180] RDATA = 00000000, RLAST = 1, RRESP = 10 ARADDR = 4d84, ARLEN = 2
[13230] RDATA = 00000000, RLAST = 1, RRESP = 10 ARADDR = dd7c, ARLEN = 4
[13280] RDATA = 00000000, RLAST = 1, RRESP = 10 ARADDR = 120c, ARLEN = 13
[13330] WDATA = 48446e92, WLAST = 0 AWADDR = c05c, AWLEN = 8
[13340] WDATA = ae89715c, WLAST = 0 AWADDR = c05c, AWLEN = 8
[13350] WDATA = 4243a015, WLAST = 0 AWADDR = c05c, AWLEN = 8
[13360] WDATA = d650f46b, WLAST = 0 AWADDR = c05c, AWLEN = 8
[13370] WDATA = ae6572a1, WLAST = 0 AWADDR = c05c, AWLEN = 8
[13380] WDATA = 19710e88, WLAST = 0 AWADDR = c05c, AWLEN = 8
[13390] WDATA = 688d1484, WLAST = 0 AWADDR = c05c, AWLEN = 8
[13400] WDATA = eb0ef5eb, WLAST = 0 AWADDR = c05c, AWLEN = 8
[13410] BRESP = 10
[13470] RDATA = 00000000, RLAST = 1, RRESP = 10 ARADDR = c05c, ARLEN = 8
[13520] WDATA = 2c3347bb, WLAST = 0 AWADDR = df94, AWLEN = 15
[13530] WDATA = 235b603a, WLAST = 0 AWADDR = df94, AWLEN = 15
[13540] WDATA = 2fafb5ae, WLAST = 0 AWADDR = df94, AWLEN = 15
[13550] WDATA = 987954b3, WLAST = 0 AWADDR = df94, AWLEN = 15
[13560] WDATA = 1c9b462f, WLAST = 0 AWADDR = df94, AWLEN = 15
[13570] WDATA = 07500bb1, WLAST = 0 AWADDR = df94, AWLEN = 15
[13580] WDATA = 29140f5b, WLAST = 0 AWADDR = df94, AWLEN = 15
[13590] WDATA = d65b11e8, WLAST = 0 AWADDR = df94, AWLEN = 15
[13600] WDATA = 13ab4dd9, WLAST = 0 AWADDR = df94, AWLEN = 15
[13610] WDATA = 3fc837ad, WLAST = 0 AWADDR = df94, AWLEN = 15
[13620] WDATA = 13fb7f5e, WLAST = 0 AWADDR = df94, AWLEN = 15
[13630] WDATA = 9645ffc0, WLAST = 0 AWADDR = df94, AWLEN = 15
[13640] WDATA = 1b090880, WLAST = 0 AWADDR = df94, AWLEN = 15
[13650] WDATA = f6607cbd, WLAST = 0 AWADDR = df94, AWLEN = 15
[13660] WDATA = d9a07fbf, WLAST = 0 AWADDR = df94, AWLEN = 15
[13670] BRESP = 10
[13730] RDATA = 00000000, RLAST = 1, RRESP = 10 ARADDR = df94, ARLEN = 15
[13780] RDATA = 00000000, RLAST = 1, RRESP = 10 ARADDR = 64d8, ARLEN = 14
[13830] RDATA = 00000000, RLAST = 1, RRESP = 10 ARADDR = cb1c, ARLEN = 13
[13880] WDATA = 761e863d, WLAST = 0 AWADDR = 8014, AWLEN = 2
[13890] WDATA = 74d347d1, WLAST = 0 AWADDR = 8014, AWLEN = 2
[13900] BRESP = 10
[13960] RDATA = 00000000, RLAST = 1, RRESP = 10 ARADDR = 8014, ARLEN = 2
[14010] RDATA = 92cc513e, RLAST = 0, RRESP = 00 ARADDR = 019c, ARLEN = 15
[14030] RDATA = 00000000, RLAST = 0, RRESP = 00 ARADDR = 019c, ARLEN = 15
[14050] RDATA = 00000000, RLAST = 0, RRESP = 00 ARADDR = 019c, ARLEN = 15
[14070] RDATA = 00000000, RLAST = 0, RRESP = 00 ARADDR = 019c, ARLEN = 15
[14090] RDATA = 00000000, RLAST = 0, RRESP = 00 ARADDR = 019c, ARLEN = 15
[14110] RDATA = 00000000, RLAST = 0, RRESP = 00 ARADDR = 019c, ARLEN = 15
[14130] RDATA = 00000000, RLAST = 0, RRESP = 00 ARADDR = 019c, ARLEN = 15
[14150] RDATA = 00000000, RLAST = 0, RRESP = 00 ARADDR = 019c, ARLEN = 15
[14170] RDATA = 00000000, RLAST = 0, RRESP = 00 ARADDR = 019c, ARLEN = 15
[14190] RDATA = 00000000, RLAST = 0, RRESP = 00 ARADDR = 019c, ARLEN = 15
[14210] RDATA = 00000000, RLAST = 0, RRESP = 00 ARADDR = 019c, ARLEN = 15
[14230] RDATA = 00000000, RLAST = 0, RRESP = 00 ARADDR = 019c, ARLEN = 15
[14250] RDATA = 00000000, RLAST = 0, RRESP = 00 ARADDR = 019c, ARLEN = 15
[14270] RDATA = 00000000, RLAST = 0, RRESP = 00 ARADDR = 019c, ARLEN = 15
[14290] RDATA = 00000000, RLAST = 0, RRESP = 00 ARADDR = 019c, ARLEN = 15
[14310] RDATA = 00000000, RLAST = 1, RRESP = 00 ARADDR = 019c, ARLEN = 15
[14360] WDATA = 86520156, WLAST = 0 AWADDR = 3f94, AWLEN = 10
[14370] WDATA = af3e810a, WLAST = 0 AWADDR = 3f94, AWLEN = 10
[14380] WDATA = 66809b90, WLAST = 0 AWADDR = 3f94, AWLEN = 10
[14390] WDATA = b3470ef1, WLAST = 0 AWADDR = 3f94, AWLEN = 10
[14400] WDATA = 2a7b4f52, WLAST = 0 AWADDR = 3f94, AWLEN = 10
[14410] WDATA = a3c66218, WLAST = 0 AWADDR = 3f94, AWLEN = 10
[14420] WDATA = 04b06d35, WLAST = 0 AWADDR = 3f94, AWLEN = 10
[14430] WDATA = 96cd4597, WLAST = 0 AWADDR = 3f94, AWLEN = 10
[14440] WDATA = a74e8530, WLAST = 0 AWADDR = 3f94, AWLEN = 10
[14450] WDATA = 4a137fd2, WLAST = 0 AWADDR = 3f94, AWLEN = 10
[14460] BRESP = 10
[14520] RDATA = 00000000, RLAST = 1, RRESP = 10 ARADDR = 3f94, ARLEN = 10
[14570] WDATA = b134c762, WLAST = 0 AWADDR = 0cac, AWLEN = 15
[14580] WDATA = 24bdc598, WLAST = 0 AWADDR = 0cac, AWLEN = 15
[14590] WDATA = faad7236, WLAST = 0 AWADDR = 0cac, AWLEN = 15
[14600] WDATA = 25ac8004, WLAST = 0 AWADDR = 0cac, AWLEN = 15
[14610] WDATA = 554508a0, WLAST = 0 AWADDR = 0cac, AWLEN = 15
[14620] WDATA = 1e90694e, WLAST = 0 AWADDR = 0cac, AWLEN = 15
[14630] WDATA = 0466ac54, WLAST = 0 AWADDR = 0cac, AWLEN = 15
[14640] WDATA = 811352df, WLAST = 0 AWADDR = 0cac, AWLEN = 15
[14650] WDATA = f373f776, WLAST = 0 AWADDR = 0cac, AWLEN = 15
[14660] WDATA = be5db140, WLAST = 0 AWADDR = 0cac, AWLEN = 15
[14670] WDATA = 1927215a, WLAST = 0 AWADDR = 0cac, AWLEN = 15
[14680] WDATA = 04efb4fc, WLAST = 0 AWADDR = 0cac, AWLEN = 15
[14690] WDATA = 02febe1f, WLAST = 0 AWADDR = 0cac, AWLEN = 15
[14700] WDATA = 4983dbca, WLAST = 0 AWADDR = 0cac, AWLEN = 15
[14710] WDATA = 2757e50f, WLAST = 0 AWADDR = 0cac, AWLEN = 15
[14720] BRESP = 00
[14780] RDATA = 00000000, RLAST = 0, RRESP = 00 ARADDR = 0cac, ARLEN = 15
[14800] RDATA = b134c762, RLAST = 0, RRESP = 00 ARADDR = 0cac, ARLEN = 15
[14820] RDATA = b134c762, RLAST = 0, RRESP = 00 ARADDR = 0cac, ARLEN = 15
[14840] RDATA = 24bdc598, RLAST = 0, RRESP = 00 ARADDR = 0cac, ARLEN = 15
[14860] RDATA = faad7236, RLAST = 0, RRESP = 00 ARADDR = 0cac, ARLEN = 15
[14880] RDATA = 25ac8004, RLAST = 0, RRESP = 00 ARADDR = 0cac, ARLEN = 15
[14900] RDATA = 554508a0, RLAST = 0, RRESP = 00 ARADDR = 0cac, ARLEN = 15
[14920] RDATA = 1e90694e, RLAST = 0, RRESP = 00 ARADDR = 0cac, ARLEN = 15
[14940] RDATA = 0466ac54, RLAST = 0, RRESP = 00 ARADDR = 0cac, ARLEN = 15
[14960] RDATA = 811352df, RLAST = 0, RRESP = 00 ARADDR = 0cac, ARLEN = 15
[14980] RDATA = f373f776, RLAST = 0, RRESP = 00 ARADDR = 0cac, ARLEN = 15
[15000] RDATA = be5db140, RLAST = 0, RRESP = 00 ARADDR = 0cac, ARLEN = 15
[15020] RDATA = 1927215a, RLAST = 0, RRESP = 00 ARADDR = 0cac, ARLEN = 15
[15040] RDATA = 04efb4fc, RLAST = 0, RRESP = 00 ARADDR = 0cac, ARLEN = 15
[15060] RDATA = 02febe1f, RLAST = 0, RRESP = 00 ARADDR = 0cac, ARLEN = 15
[15080] RDATA = 4983dbca, RLAST = 1, RRESP = 00 ARADDR = 0cac, ARLEN = 15
[15130] RDATA = 00000000, RLAST = 1, RRESP = 10 ARADDR = e158, ARLEN = 4
[15180] RDATA = 00000000, RLAST = 1, RRESP = 10 ARADDR = 69a0, ARLEN = 12
[15230] WDATA = b705c884, WLAST = 0 AWADDR = 1ee8, AWLEN = 8
[15240] WDATA = dc1fe76f, WLAST = 0 AWADDR = 1ee8, AWLEN = 8
[15250] WDATA = 96a0ba1e, WLAST = 0 AWADDR = 1ee8, AWLEN = 8
[15260] WDATA = 9c666577, WLAST = 0 AWADDR = 1ee8, AWLEN = 8
[15270] WDATA = 1b27b08f, WLAST = 0 AWADDR = 1ee8, AWLEN = 8
[15280] WDATA = 1fddf5c5, WLAST = 0 AWADDR = 1ee8, AWLEN = 8
[15290] WDATA = 0117b1ad, WLAST = 0 AWADDR = 1ee8, AWLEN = 8
[15300] WDATA = d7ee1abd, WLAST = 0 AWADDR = 1ee8, AWLEN = 8
[15310] BRESP = 10
[15370] RDATA = 00000000, RLAST = 1, RRESP = 10 ARADDR = 1ee8, ARLEN = 8
[15420] RDATA = 00000000, RLAST = 1, RRESP = 10 ARADDR = aab0, ARLEN = 13
[15470] WDATA = 16550b97, WLAST = 0 AWADDR = 9f20, AWLEN = 8
[15480] WDATA = ccecc3d0, WLAST = 0 AWADDR = 9f20, AWLEN = 8
[15490] WDATA = fcb347be, WLAST = 0 AWADDR = 9f20, AWLEN = 8
[15500] WDATA = 2b07c9d8, WLAST = 0 AWADDR = 9f20, AWLEN = 8
[15510] WDATA = 186a3031, WLAST = 0 AWADDR = 9f20, AWLEN = 8
[15520] WDATA = bedfd746, WLAST = 0 AWADDR = 9f20, AWLEN = 8
[15530] WDATA = 2a1753f1, WLAST = 0 AWADDR = 9f20, AWLEN = 8
[15540] WDATA = 65a55d44, WLAST = 0 AWADDR = 9f20, AWLEN = 8
[15550] BRESP = 10
[15610] RDATA = 00000000, RLAST = 1, RRESP = 10 ARADDR = 9f20, ARLEN = 8
[15660] WDATA = d49547c4, WLAST = 0 AWADDR = 7d44, AWLEN = 13
[15670] WDATA = 9cb818f4, WLAST = 0 AWADDR = 7d44, AWLEN = 13
[15680] WDATA = 833a60eb, WLAST = 0 AWADDR = 7d44, AWLEN = 13
[15690] WDATA = f5af0d7f, WLAST = 0 AWADDR = 7d44, AWLEN = 13
[15700] WDATA = 8b7522f4, WLAST = 0 AWADDR = 7d44, AWLEN = 13
[15710] WDATA = ba653f53, WLAST = 0 AWADDR = 7d44, AWLEN = 13
[15720] WDATA = c4452053, WLAST = 0 AWADDR = 7d44, AWLEN = 13
[15730] WDATA = ed8ed46f, WLAST = 0 AWADDR = 7d44, AWLEN = 13
[15740] WDATA = 791accd9, WLAST = 0 AWADDR = 7d44, AWLEN = 13
[15750] WDATA = fee26805, WLAST = 0 AWADDR = 7d44, AWLEN = 13
[15760] WDATA = 419865bb, WLAST = 0 AWADDR = 7d44, AWLEN = 13
[15770] WDATA = 146284d1, WLAST = 0 AWADDR = 7d44, AWLEN = 13
[15780] WDATA = 9f919c61, WLAST = 0 AWADDR = 7d44, AWLEN = 13
[15790] BRESP = 10
[15850] RDATA = 00000000, RLAST = 1, RRESP = 10 ARADDR = 7d44, ARLEN = 13
[15900] RDATA = 00000000, RLAST = 1, RRESP = 10 ARADDR = 18d8, ARLEN = 15
[15950] RDATA = 00000000, RLAST = 1, RRESP = 10 ARADDR = ccc0, ARLEN = 11
[16000] RDATA = 00000000, RLAST = 1, RRESP = 10 ARADDR = 5cac, ARLEN = 14
[16050] RDATA = 2757e50f, RLAST = 0, RRESP = 00 ARADDR = 0ba8, ARLEN = 15
[16070] RDATA = 00000000, RLAST = 0, RRESP = 00 ARADDR = 0ba8, ARLEN = 15
[16090] RDATA = 00000000, RLAST = 0, RRESP = 00 ARADDR = 0ba8, ARLEN = 15
[16110] RDATA = 00000000, RLAST = 0, RRESP = 00 ARADDR = 0ba8, ARLEN = 15
[16130] RDATA = 00000000, RLAST = 0, RRESP = 00 ARADDR = 0ba8, ARLEN = 15
[16150] RDATA = 00000000, RLAST = 0, RRESP = 00 ARADDR = 0ba8, ARLEN = 15
[16170] RDATA = 00000000, RLAST = 0, RRESP = 00 ARADDR = 0ba8, ARLEN = 15
[16190] RDATA = 00000000, RLAST = 0, RRESP = 00 ARADDR = 0ba8, ARLEN = 15
[16210] RDATA = 00000000, RLAST = 0, RRESP = 00 ARADDR = 0ba8, ARLEN = 15
[16230] RDATA = 00000000, RLAST = 0, RRESP = 00 ARADDR = 0ba8, ARLEN = 15
[16250] RDATA = 00000000, RLAST = 0, RRESP = 00 ARADDR = 0ba8, ARLEN = 15
[16270] RDATA = 00000000, RLAST = 0, RRESP = 00 ARADDR = 0ba8, ARLEN = 15
[16290] RDATA = 00000000, RLAST = 0, RRESP = 00 ARADDR = 0ba8, ARLEN = 15
[16310] RDATA = 00000000, RLAST = 0, RRESP = 00 ARADDR = 0ba8, ARLEN = 15
[16330] RDATA = 00000000, RLAST = 0, RRESP = 00 ARADDR = 0ba8, ARLEN = 15
[16350] RDATA = 00000000, RLAST = 1, RRESP = 00 ARADDR = 0ba8, ARLEN = 15
[16400] WDATA = 41b9c31c, WLAST = 0 AWADDR = 53ec, AWLEN = 9
[16410] WDATA = 1349e4d4, WLAST = 0 AWADDR = 53ec, AWLEN = 9
[16420] WDATA = 2e892543, WLAST = 0 AWADDR = 53ec, AWLEN = 9
[16430] WDATA = f5226a0f, WLAST = 0 AWADDR = 53ec, AWLEN = 9
[16440] WDATA = 1790406d, WLAST = 0 AWADDR = 53ec, AWLEN = 9
[16450] WDATA = 65a3a228, WLAST = 0 AWADDR = 53ec, AWLEN = 9
[16460] WDATA = 7bb395d5, WLAST = 0 AWADDR = 53ec, AWLEN = 9
[16470] WDATA = 807d992d, WLAST = 0 AWADDR = 53ec, AWLEN = 9
[16480] WDATA = 26c19599, WLAST = 0 AWADDR = 53ec, AWLEN = 9
[16490] BRESP = 10
[16550] RDATA = 00000000, RLAST = 1, RRESP = 10 ARADDR = 53ec, ARLEN = 9
[16600] WDATA = ec2e754f, WLAST = 0 AWADDR = c384, AWLEN = 8
[16610] WDATA = 8fb4fa5c, WLAST = 0 AWADDR = c384, AWLEN = 8
[16620] WDATA = 9ac93fd8, WLAST = 0 AWADDR = c384, AWLEN = 8
[16630] WDATA = 56eb7fa7, WLAST = 0 AWADDR = c384, AWLEN = 8
[16640] WDATA = 36f33a98, WLAST = 0 AWADDR = c384, AWLEN = 8
[16650] WDATA = 65b5619b, WLAST = 0 AWADDR = c384, AWLEN = 8
[16660] WDATA = 716ad95c, WLAST = 0 AWADDR = c384, AWLEN = 8
[16670] WDATA = f138e01e, WLAST = 0 AWADDR = c384, AWLEN = 8
[16680] BRESP = 10
[16740] RDATA = 00000000, RLAST = 1, RRESP = 10 ARADDR = c384, ARLEN = 8
[16790] WDATA = 2d61a050, WLAST = 0 AWADDR = 573c, AWLEN = 9
[16800] WDATA = 2d63237f, WLAST = 0 AWADDR = 573c, AWLEN = 9
[16810] WDATA = 6f2d36b9, WLAST = 0 AWADDR = 573c, AWLEN = 9
[16820] WDATA = 15da7fc6, WLAST = 0 AWADDR = 573c, AWLEN = 9
[16830] WDATA = ab07eff1, WLAST = 0 AWADDR = 573c, AWLEN = 9
[16840] WDATA = ecf8a73f, WLAST = 0 AWADDR = 573c, AWLEN = 9
[16850] WDATA = 7411cc60, WLAST = 0 AWADDR = 573c, AWLEN = 9
[16860] WDATA = e5d00c1b, WLAST = 0 AWADDR = 573c, AWLEN = 9
[16870] WDATA = b22d6727, WLAST = 0 AWADDR = 573c, AWLEN = 9
[16880] BRESP = 10
[16940] RDATA = 00000000, RLAST = 1, RRESP = 10 ARADDR = 573c, ARLEN = 9
[16990] WDATA = 2daac47f, WLAST = 0 AWADDR = 5be4, AWLEN = 1
[17000] BRESP = 10
[17060] RDATA = 00000000, RLAST = 1, RRESP = 10 ARADDR = 5be4, ARLEN = 1
[17110] WDATA = a60d85ae, WLAST = 0 AWADDR = ab2c, AWLEN = 3
[17120] WDATA = 84d21af2, WLAST = 0 AWADDR = ab2c, AWLEN = 3
[17130] WDATA = f814d30e, WLAST = 0 AWADDR = ab2c, AWLEN = 3
[17140] BRESP = 10
[17200] RDATA = 00000000, RLAST = 1, RRESP = 10 ARADDR = ab2c, ARLEN = 3
[17250] WDATA = 918dc1d1, WLAST = 0 AWADDR = 9a34, AWLEN = 1
[17260] BRESP = 10
[17320] RDATA = 00000000, RLAST = 1, RRESP = 10 ARADDR = 9a34, ARLEN = 1
[17370] WDATA = 08d1928c, WLAST = 0 AWADDR = c7c4, AWLEN = 13
[17380] WDATA = 2c46a5dd, WLAST = 0 AWADDR = c7c4, AWLEN = 13
[17390] WDATA = 609e073a, WLAST = 0 AWADDR = c7c4, AWLEN = 13
[17400] WDATA = 228649c4, WLAST = 0 AWADDR = c7c4, AWLEN = 13
[17410] WDATA = 70755e5c, WLAST = 0 AWADDR = c7c4, AWLEN = 13
[17420] WDATA = 1e42df07, WLAST = 0 AWADDR = c7c4, AWLEN = 13
[17430] WDATA = 76a2c996, WLAST = 0 AWADDR = c7c4, AWLEN = 13
[17440] WDATA = a16ad3d2, WLAST = 0 AWADDR = c7c4, AWLEN = 13
[17450] WDATA = 851f248a, WLAST = 0 AWADDR = c7c4, AWLEN = 13
[17460] WDATA = 777a9894, WLAST = 0 AWADDR = c7c4, AWLEN = 13
[17470] WDATA = 7c401002, WLAST = 0 AWADDR = c7c4, AWLEN = 13
[17480] WDATA = 7a032ac1, WLAST = 0 AWADDR = c7c4, AWLEN = 13
[17490] WDATA = 415122d3, WLAST = 0 AWADDR = c7c4, AWLEN = 13
[17500] BRESP = 10
[17560] RDATA = 00000000, RLAST = 1, RRESP = 10 ARADDR = c7c4, ARLEN = 13
[17610] WDATA = a9339be0, WLAST = 0 AWADDR = f86c, AWLEN = 8
[17620] WDATA = be96d0e9, WLAST = 0 AWADDR = f86c, AWLEN = 8
[17630] WDATA = e1854097, WLAST = 0 AWADDR = f86c, AWLEN = 8
[17640] WDATA = dcd6cd9c, WLAST = 0 AWADDR = f86c, AWLEN = 8
[17650] WDATA = 19719e93, WLAST = 0 AWADDR = f86c, AWLEN = 8
[17660] WDATA = a2426805, WLAST = 0 AWADDR = f86c, AWLEN = 8
[17670] WDATA = e5bc8722, WLAST = 0 AWADDR = f86c, AWLEN = 8
[17680] WDATA = 0b1efbcd, WLAST = 0 AWADDR = f86c, AWLEN = 8
[17690] BRESP = 10
[17750] RDATA = 00000000, RLAST = 1, RRESP = 10 ARADDR = f86c, ARLEN = 8
[17800] RDATA = 00000000, RLAST = 1, RRESP = 10 ARADDR = b328, ARLEN = 11
[17850] WDATA = 2bae7b49, WLAST = 0 AWADDR = 04a0, AWLEN = 14
[17860] WDATA = e1434119, WLAST = 0 AWADDR = 04a0, AWLEN = 14
[17870] WDATA = 8b74ce52, WLAST = 0 AWADDR = 04a0, AWLEN = 14
[17880] WDATA = 39cff99b, WLAST = 0 AWADDR = 04a0, AWLEN = 14
[17890] WDATA = f3b2fb80, WLAST = 0 AWADDR = 04a0, AWLEN = 14
[17900] WDATA = b4e2a02b, WLAST = 0 AWADDR = 04a0, AWLEN = 14
[17910] WDATA = 0f770d5f, WLAST = 0 AWADDR = 04a0, AWLEN = 14
[17920] WDATA = cf8ba129, WLAST = 0 AWADDR = 04a0, AWLEN = 14
[17930] WDATA = 9e6996ac, WLAST = 0 AWADDR = 04a0, AWLEN = 14
[17940] WDATA = a124d6fb, WLAST = 0 AWADDR = 04a0, AWLEN = 14
[17950] WDATA = 301b2a4e, WLAST = 0 AWADDR = 04a0, AWLEN = 14
[17960] WDATA = 38efcc4c, WLAST = 0 AWADDR = 04a0, AWLEN = 14
[17970] WDATA = 6b8fd6b2, WLAST = 0 AWADDR = 04a0, AWLEN = 14
[17980] WDATA = 13e1ecac, WLAST = 0 AWADDR = 04a0, AWLEN = 14
[17990] BRESP = 00
[18050] RDATA = 00000000, RLAST = 0, RRESP = 00 ARADDR = 04a0, ARLEN = 14
[18070] RDATA = 2bae7b49, RLAST = 0, RRESP = 00 ARADDR = 04a0, ARLEN = 14
[18090] RDATA = 2bae7b49, RLAST = 0, RRESP = 00 ARADDR = 04a0, ARLEN = 14
[18110] RDATA = e1434119, RLAST = 0, RRESP = 00 ARADDR = 04a0, ARLEN = 14
[18130] RDATA = 8b74ce52, RLAST = 0, RRESP = 00 ARADDR = 04a0, ARLEN = 14
[18150] RDATA = 39cff99b, RLAST = 0, RRESP = 00 ARADDR = 04a0, ARLEN = 14
[18170] RDATA = f3b2fb80, RLAST = 0, RRESP = 00 ARADDR = 04a0, ARLEN = 14
[18190] RDATA = b4e2a02b, RLAST = 0, RRESP = 00 ARADDR = 04a0, ARLEN = 14
[18210] RDATA = 0f770d5f, RLAST = 0, RRESP = 00 ARADDR = 04a0, ARLEN = 14
[18230] RDATA = cf8ba129, RLAST = 0, RRESP = 00 ARADDR = 04a0, ARLEN = 14
[18250] RDATA = 9e6996ac, RLAST = 0, RRESP = 00 ARADDR = 04a0, ARLEN = 14
[18270] RDATA = a124d6fb, RLAST = 0, RRESP = 00 ARADDR = 04a0, ARLEN = 14
[18290] RDATA = 301b2a4e, RLAST = 0, RRESP = 00 ARADDR = 04a0, ARLEN = 14
[18310] RDATA = 38efcc4c, RLAST = 0, RRESP = 00 ARADDR = 04a0, ARLEN = 14
[18330] RDATA = 6b8fd6b2, RLAST = 1, RRESP = 00 ARADDR = 04a0, ARLEN = 14
[18380] RDATA = 13e1ecac, RLAST = 0, RRESP = 00 ARADDR = 0838, ARLEN = 2
[18400] RDATA = 00000000, RLAST = 0, RRESP = 00 ARADDR = 0838, ARLEN = 2
[18420] RDATA = 00000000, RLAST = 1, RRESP = 00 ARADDR = 0838, ARLEN = 2
[18470] WDATA = a7dc9c71, WLAST = 0 AWADDR = 0524, AWLEN = 15
[18480] WDATA = 9e7365fa, WLAST = 0 AWADDR = 0524, AWLEN = 15
[18490] WDATA = 22013ec9, WLAST = 0 AWADDR = 0524, AWLEN = 15
[18500] WDATA = 9895dee2, WLAST = 0 AWADDR = 0524, AWLEN = 15
[18510] WDATA = 53ea53fc, WLAST = 0 AWADDR = 0524, AWLEN = 15
[18520] WDATA = 1e30e266, WLAST = 0 AWADDR = 0524, AWLEN = 15
[18530] WDATA = 23a2184e, WLAST = 0 AWADDR = 0524, AWLEN = 15
[18540] WDATA = 806e0222, WLAST = 0 AWADDR = 0524, AWLEN = 15
[18550] WDATA = f9136579, WLAST = 0 AWADDR = 0524, AWLEN = 15
[18560] WDATA = 533c0531, WLAST = 0 AWADDR = 0524, AWLEN = 15
[18570] WDATA = 079e8038, WLAST = 0 AWADDR = 0524, AWLEN = 15
[18580] WDATA = 586acd26, WLAST = 0 AWADDR = 0524, AWLEN = 15
[18590] WDATA = b79a331b, WLAST = 0 AWADDR = 0524, AWLEN = 15
[18600] WDATA = d45e0abc, WLAST = 0 AWADDR = 0524, AWLEN = 15
[18610] WDATA = 3bea4200, WLAST = 0 AWADDR = 0524, AWLEN = 15
[18620] BRESP = 00
[18680] RDATA = 00000000, RLAST = 0, RRESP = 00 ARADDR = 0524, ARLEN = 15
[18700] RDATA = a7dc9c71, RLAST = 0, RRESP = 00 ARADDR = 0524, ARLEN = 15
[18720] RDATA = a7dc9c71, RLAST = 0, RRESP = 00 ARADDR = 0524, ARLEN = 15
[18740] RDATA = 9e7365fa, RLAST = 0, RRESP = 00 ARADDR = 0524, ARLEN = 15
[18760] RDATA = 22013ec9, RLAST = 0, RRESP = 00 ARADDR = 0524, ARLEN = 15
[18780] RDATA = 9895dee2, RLAST = 0, RRESP = 00 ARADDR = 0524, ARLEN = 15
[18800] RDATA = 53ea53fc, RLAST = 0, RRESP = 00 ARADDR = 0524, ARLEN = 15
[18820] RDATA = 1e30e266, RLAST = 0, RRESP = 00 ARADDR = 0524, ARLEN = 15
[18840] RDATA = 23a2184e, RLAST = 0, RRESP = 00 ARADDR = 0524, ARLEN = 15
[18860] RDATA = 806e0222, RLAST = 0, RRESP = 00 ARADDR = 0524, ARLEN = 15
[18880] RDATA = f9136579, RLAST = 0, RRESP = 00 ARADDR = 0524, ARLEN = 15
[18900] RDATA = 533c0531, RLAST = 0, RRESP = 00 ARADDR = 0524, ARLEN = 15
[18920] RDATA = 079e8038, RLAST = 0, RRESP = 00 ARADDR = 0524, ARLEN = 15
[18940] RDATA = 586acd26, RLAST = 0, RRESP = 00 ARADDR = 0524, ARLEN = 15
[18960] RDATA = b79a331b, RLAST = 0, RRESP = 00 ARADDR = 0524, ARLEN = 15
[18980] RDATA = d45e0abc, RLAST = 1, RRESP = 00 ARADDR = 0524, ARLEN = 15
[19030] RDATA = 00000000, RLAST = 1, RRESP = 10 ARADDR = 9d20, ARLEN = 10
[19080] WDATA = 7b26b795, WLAST = 0 AWADDR = ac14, AWLEN = 9
[19090] WDATA = a395c8d4, WLAST = 0 AWADDR = ac14, AWLEN = 9
[19100] WDATA = f94e09f0, WLAST = 0 AWADDR = ac14, AWLEN = 9
[19110] WDATA = ddfbadb6, WLAST = 0 AWADDR = ac14, AWLEN = 9
[19120] WDATA = f78a79b3, WLAST = 0 AWADDR = ac14, AWLEN = 9
[19130] WDATA = 1dc0241d, WLAST = 0 AWADDR = ac14, AWLEN = 9
[19140] WDATA = 544a2eca, WLAST = 0 AWADDR = ac14, AWLEN = 9
[19150] WDATA = 9edc0b15, WLAST = 0 AWADDR = ac14, AWLEN = 9
[19160] WDATA = 9144048b, WLAST = 0 AWADDR = ac14, AWLEN = 9
[19170] BRESP = 10
[19230] RDATA = 00000000, RLAST = 1, RRESP = 10 ARADDR = ac14, ARLEN = 9
[19280] WDATA = 2e1fbecb, WLAST = 0 AWADDR = 9278, AWLEN = 5
[19290] WDATA = d4fcef09, WLAST = 0 AWADDR = 9278, AWLEN = 5
[19300] WDATA = 47c34ecd, WLAST = 0 AWADDR = 9278, AWLEN = 5
[19310] WDATA = a791251e, WLAST = 0 AWADDR = 9278, AWLEN = 5
[19320] WDATA = 33717cbb, WLAST = 0 AWADDR = 9278, AWLEN = 5
[19330] BRESP = 10
[19390] RDATA = 00000000, RLAST = 1, RRESP = 10 ARADDR = 9278, ARLEN = 5
[19440] WDATA = 8d272f71, WLAST = 0 AWADDR = 98c4, AWLEN = 15
[19450] WDATA = aa1cc5f1, WLAST = 0 AWADDR = 98c4, AWLEN = 15
[19460] WDATA = b2172008, WLAST = 0 AWADDR = 98c4, AWLEN = 15
[19470] WDATA = 266a2892, WLAST = 0 AWADDR = 98c4, AWLEN = 15
[19480] WDATA = 57d99569, WLAST = 0 AWADDR = 98c4, AWLEN = 15
[19490] WDATA = 0cb04357, WLAST = 0 AWADDR = 98c4, AWLEN = 15
[19500] WDATA = 260fa10c, WLAST = 0 AWADDR = 98c4, AWLEN = 15
[19510] WDATA = f5b9efb8, WLAST = 0 AWADDR = 98c4, AWLEN = 15
[19520] WDATA = 599be0bf, WLAST = 0 AWADDR = 98c4, AWLEN = 15
[19530] WDATA = 348402d4, WLAST = 0 AWADDR = 98c4, AWLEN = 15
[19540] WDATA = 972b20e4, WLAST = 0 AWADDR = 98c4, AWLEN = 15
[19550] WDATA = 89ae6ef3, WLAST = 0 AWADDR = 98c4, AWLEN = 15
[19560] WDATA = 914b95fe, WLAST = 0 AWADDR = 98c4, AWLEN = 15
[19570] WDATA = 1ad2e29d, WLAST = 0 AWADDR = 98c4, AWLEN = 15
[19580] WDATA = b9d17a2e, WLAST = 0 AWADDR = 98c4, AWLEN = 15
[19590] BRESP = 10
[19650] RDATA = 00000000, RLAST = 1, RRESP = 10 ARADDR = 98c4, ARLEN = 15
[19700] WDATA = 168c3ea3, WLAST = 0 AWADDR = 9318, AWLEN = 3
[19710] WDATA = a487d333, WLAST = 0 AWADDR = 9318, AWLEN = 3
[19720] WDATA = 1862db42, WLAST = 0 AWADDR = 9318, AWLEN = 3
[19730] BRESP = 10
[19790] RDATA = 00000000, RLAST = 1, RRESP = 10 ARADDR = 9318, ARLEN = 3
[19840] RDATA = 00000000, RLAST = 1, RRESP = 10 ARADDR = 4984, ARLEN = 4
[19890] RDATA = 3bea4200, RLAST = 0, RRESP = 00 ARADDR = 0dd0, ARLEN = 15
[19910] RDATA = 00000000, RLAST = 0, RRESP = 00 ARADDR = 0dd0, ARLEN = 15
[19930] RDATA = 00000000, RLAST = 0, RRESP = 00 ARADDR = 0dd0, ARLEN = 15
[19950] RDATA = 03f45229, RLAST = 0, RRESP = 00 ARADDR = 0dd0, ARLEN = 15
[19970] RDATA = 7adcaf2a, RLAST = 0, RRESP = 00 ARADDR = 0dd0, ARLEN = 15
[19990] RDATA = bb000683, RLAST = 0, RRESP = 00 ARADDR = 0dd0, ARLEN = 15
[20010] RDATA = 623de092, RLAST = 0, RRESP = 00 ARADDR = 0dd0, ARLEN = 15
[20030] RDATA = e041a0e8, RLAST = 0, RRESP = 00 ARADDR = 0dd0, ARLEN = 15
[20050] RDATA = d0bd4afd, RLAST = 0, RRESP = 00 ARADDR = 0dd0, ARLEN = 15
[20070] RDATA = 51d24c3a, RLAST = 0, RRESP = 00 ARADDR = 0dd0, ARLEN = 15
[20090] RDATA = 9be31c1f, RLAST = 0, RRESP = 00 ARADDR = 0dd0, ARLEN = 15
[20110] RDATA = 04615f59, RLAST = 0, RRESP = 00 ARADDR = 0dd0, ARLEN = 15
[20130] RDATA = f7fb3726, RLAST = 0, RRESP = 00 ARADDR = 0dd0, ARLEN = 15
[20150] RDATA = af8739bd, RLAST = 0, RRESP = 00 ARADDR = 0dd0, ARLEN = 15
[20170] RDATA = f02a6d78, RLAST = 0, RRESP = 00 ARADDR = 0dd0, ARLEN = 15
[20190] RDATA = af109296, RLAST = 1, RRESP = 00 ARADDR = 0dd0, ARLEN = 15
[20240] WDATA = 5677b280, WLAST = 0 AWADDR = 9a84, AWLEN = 4
[20250] WDATA = 09ea0c2e, WLAST = 0 AWADDR = 9a84, AWLEN = 4
[20260] WDATA = 1c27a1de, WLAST = 0 AWADDR = 9a84, AWLEN = 4
[20270] WDATA = 198b7e66, WLAST = 0 AWADDR = 9a84, AWLEN = 4
[20280] BRESP = 10
[20340] RDATA = 00000000, RLAST = 1, RRESP = 10 ARADDR = 9a84, ARLEN = 4
[20390] RDATA = 00000000, RLAST = 1, RRESP = 10 ARADDR = 4a54, ARLEN = 0
[20440] WDATA = a5573abf, WLAST = 0 AWADDR = f50c, AWLEN = 2
[20450] WDATA = 1fc5b38d, WLAST = 0 AWADDR = f50c, AWLEN = 2
[20460] BRESP = 10
[20520] RDATA = 00000000, RLAST = 1, RRESP = 10 ARADDR = f50c, ARLEN = 2
[20570] RDATA = 00000000, RLAST = 1, RRESP = 10 ARADDR = ece0, ARLEN = 6
[20620] WDATA = ffc1cff4, WLAST = 0 AWADDR = e290, AWLEN = 4
[20630] WDATA = 9734ae40, WLAST = 0 AWADDR = e290, AWLEN = 4
[20640] WDATA = d700a056, WLAST = 0 AWADDR = e290, AWLEN = 4
[20650] WDATA = 1c9c6595, WLAST = 0 AWADDR = e290, AWLEN = 4
[20660] BRESP = 10
[20720] RDATA = 00000000, RLAST = 1, RRESP = 10 ARADDR = e290, ARLEN = 4
[20770] WDATA = 2506d1fd, WLAST = 0 AWADDR = f5fc, AWLEN = 6
[20780] WDATA = 70a04378, WLAST = 0 AWADDR = f5fc, AWLEN = 6
[20790] WDATA = a6b8b83d, WLAST = 0 AWADDR = f5fc, AWLEN = 6
[20800] WDATA = e1e3b735, WLAST = 0 AWADDR = f5fc, AWLEN = 6
[20810] WDATA = f62d2514, WLAST = 0 AWADDR = f5fc, AWLEN = 6
[20820] WDATA = afb49c27, WLAST = 0 AWADDR = f5fc, AWLEN = 6
[20830] BRESP = 10
[20890] RDATA = 00000000, RLAST = 1, RRESP = 10 ARADDR = f5fc, ARLEN = 6
[20940] RDATA = 00000000, RLAST = 1, RRESP = 10 ARADDR = c438, ARLEN = 0
[20990] RDATA = 7a8c80c9, RLAST = 0, RRESP = 00 ARADDR = 0824, ARLEN = 12
[21010] RDATA = 00000000, RLAST = 0, RRESP = 00 ARADDR = 0824, ARLEN = 12
[21030] RDATA = 00000000, RLAST = 0, RRESP = 00 ARADDR = 0824, ARLEN = 12
[21050] RDATA = 00000000, RLAST = 0, RRESP = 00 ARADDR = 0824, ARLEN = 12
[21070] RDATA = 00000000, RLAST = 0, RRESP = 00 ARADDR = 0824, ARLEN = 12
[21090] RDATA = 00000000, RLAST = 0, RRESP = 00 ARADDR = 0824, ARLEN = 12
[21110] RDATA = 00000000, RLAST = 0, RRESP = 00 ARADDR = 0824, ARLEN = 12
[21130] RDATA = 00000000, RLAST = 0, RRESP = 00 ARADDR = 0824, ARLEN = 12
[21150] RDATA = 00000000, RLAST = 0, RRESP = 00 ARADDR = 0824, ARLEN = 12
[21170] RDATA = 00000000, RLAST = 0, RRESP = 00 ARADDR = 0824, ARLEN = 12
[21190] RDATA = 00000000, RLAST = 0, RRESP = 00 ARADDR = 0824, ARLEN = 12
[21210] RDATA = 00000000, RLAST = 0, RRESP = 00 ARADDR = 0824, ARLEN = 12
[21230] RDATA = 00000000, RLAST = 1, RRESP = 00 ARADDR = 0824, ARLEN = 12
[21280] WDATA = 8eeaff81, WLAST = 0 AWADDR = bf00, AWLEN = 4
[21290] WDATA = 2ebe1c31, WLAST = 0 AWADDR = bf00, AWLEN = 4
[21300] WDATA = 0cdca2b7, WLAST = 0 AWADDR = bf00, AWLEN = 4
[21310] WDATA = 6c8e0fa5, WLAST = 0 AWADDR = bf00, AWLEN = 4
[21320] BRESP = 10
[21380] RDATA = 00000000, RLAST = 1, RRESP = 10 ARADDR = bf00, ARLEN = 4
[21430] RDATA = 00000000, RLAST = 1, RRESP = 10 ARADDR = 61ec, ARLEN = 2
[21480] WDATA = 963602a2, WLAST = 0 AWADDR = d624, AWLEN = 7
[21490] WDATA = 0fcbd00d, WLAST = 0 AWADDR = d624, AWLEN = 7
[21500] WDATA = 59af2d37, WLAST = 0 AWADDR = d624, AWLEN = 7
[21510] WDATA = bac4331c, WLAST = 0 AWADDR = d624, AWLEN = 7
[21520] WDATA = 2678e67c, WLAST = 0 AWADDR = d624, AWLEN = 7
[21530] WDATA = 00a4f717, WLAST = 0 AWADDR = d624, AWLEN = 7
[21540] WDATA = 0d86028a, WLAST = 0 AWADDR = d624, AWLEN = 7
[21550] BRESP = 10
[21610] RDATA = 00000000, RLAST = 1, RRESP = 10 ARADDR = d624, ARLEN = 7
[21660] RDATA = 00000000, RLAST = 1, RRESP = 10 ARADDR = cdbc, ARLEN = 6
[21710] RDATA = 00000000, RLAST = 1, RRESP = 10 ARADDR = 2d00, ARLEN = 14
[21760] RDATA = 00000000, RLAST = 1, RRESP = 10 ARADDR = 98e4, ARLEN = 13
[21810] RDATA = 00000000, RLAST = 1, RRESP = 10 ARADDR = b1fc, ARLEN = 8
[21860] RDATA = 00000000, RLAST = 1, RRESP = 10 ARADDR = c9ec, ARLEN = 2
[21910] WDATA = 428d964b, WLAST = 0 AWADDR = ac9c, AWLEN = 4
[21920] WDATA = 50387ea8, WLAST = 0 AWADDR = ac9c, AWLEN = 4
[21930] WDATA = 342f9d3d, WLAST = 0 AWADDR = ac9c, AWLEN = 4
[21940] WDATA = 89c6552e, WLAST = 0 AWADDR = ac9c, AWLEN = 4
[21950] BRESP = 10
[22010] RDATA = 00000000, RLAST = 1, RRESP = 10 ARADDR = ac9c, ARLEN = 4
[22060] RDATA = 00000000, RLAST = 1, RRESP = 10 ARADDR = f3d8, ARLEN = 7
[22110] WDATA = 7f87e77a, WLAST = 0 AWADDR = 6a20, AWLEN = 15
[22120] WDATA = d1486959, WLAST = 0 AWADDR = 6a20, AWLEN = 15
[22130] WDATA = ef0aab38, WLAST = 0 AWADDR = 6a20, AWLEN = 15
[22140] WDATA = a2753ef6, WLAST = 0 AWADDR = 6a20, AWLEN = 15
[22150] WDATA = d8f98413, WLAST = 0 AWADDR = 6a20, AWLEN = 15
[22160] WDATA = 1096066f, WLAST = 0 AWADDR = 6a20, AWLEN = 15
[22170] WDATA = 0ede6f00, WLAST = 0 AWADDR = 6a20, AWLEN = 15
[22180] WDATA = 4b55f879, WLAST = 0 AWADDR = 6a20, AWLEN = 15
[22190] WDATA = d94f8efa, WLAST = 0 AWADDR = 6a20, AWLEN = 15
[22200] WDATA = 3e187774, WLAST = 0 AWADDR = 6a20, AWLEN = 15
[22210] WDATA = 3ccbca5d, WLAST = 0 AWADDR = 6a20, AWLEN = 15
[22220] WDATA = 5e56922a, WLAST = 0 AWADDR = 6a20, AWLEN = 15
[22230] WDATA = a62acdc7, WLAST = 0 AWADDR = 6a20, AWLEN = 15
[22240] WDATA = c1f3a6ac, WLAST = 0 AWADDR = 6a20, AWLEN = 15
[22250] WDATA = c78e6a56, WLAST = 0 AWADDR = 6a20, AWLEN = 15
[22260] BRESP = 10
[22320] RDATA = 00000000, RLAST = 1, RRESP = 10 ARADDR = 6a20, ARLEN = 15
[22370] RDATA = 00000000, RLAST = 1, RRESP = 10 ARADDR = 82c0, ARLEN = 4
[22420] RDATA = 00000000, RLAST = 1, RRESP = 10 ARADDR = 9344, ARLEN = 10
[22470] RDATA = 00000000, RLAST = 1, RRESP = 10 ARADDR = 1760, ARLEN = 8
[22520] RDATA = 00000000, RLAST = 1, RRESP = 10 ARADDR = 1900, ARLEN = 11
[22570] RDATA = 00000000, RLAST = 1, RRESP = 10 ARADDR = 8dc4, ARLEN = 1
[22620] WDATA = 7a6cbc2b, WLAST = 0 AWADDR = 0700, AWLEN = 3
[22630] WDATA = 84887aa5, WLAST = 0 AWADDR = 0700, AWLEN = 3
[22640] WDATA = 77b38019, WLAST = 0 AWADDR = 0700, AWLEN = 3
[22650] BRESP = 00
[22710] RDATA = 00000000, RLAST = 0, RRESP = 00 ARADDR = 0700, ARLEN = 3
[22730] RDATA = 7a6cbc2b, RLAST = 0, RRESP = 00 ARADDR = 0700, ARLEN = 3
[22750] RDATA = 7a6cbc2b, RLAST = 0, RRESP = 00 ARADDR = 0700, ARLEN = 3
[22770] RDATA = 84887aa5, RLAST = 1, RRESP = 00 ARADDR = 0700, ARLEN = 3
[22820] WDATA = 3c608c81, WLAST = 0 AWADDR = 5c24, AWLEN = 11
[22830] WDATA = 7efb948f, WLAST = 0 AWADDR = 5c24, AWLEN = 11
[22840] WDATA = daa81768, WLAST = 0 AWADDR = 5c24, AWLEN = 11
[22850] WDATA = 3c01f616, WLAST = 0 AWADDR = 5c24, AWLEN = 11
[22860] WDATA = abfae0e4, WLAST = 0 AWADDR = 5c24, AWLEN = 11
[22870] WDATA = fc7c16d5, WLAST = 0 AWADDR = 5c24, AWLEN = 11
[22880] WDATA = 659d1182, WLAST = 0 AWADDR = 5c24, AWLEN = 11
[22890] WDATA = 3c620e90, WLAST = 0 AWADDR = 5c24, AWLEN = 11
[22900] WDATA = 73bf164c, WLAST = 0 AWADDR = 5c24, AWLEN = 11
[22910] WDATA = 215b9710, WLAST = 0 AWADDR = 5c24, AWLEN = 11
[22920] WDATA = 104be730, WLAST = 0 AWADDR = 5c24, AWLEN = 11
[22930] BRESP = 10
[22990] RDATA = 00000000, RLAST = 1, RRESP = 10 ARADDR = 5c24, ARLEN = 11
[23040] RDATA = 00000000, RLAST = 1, RRESP = 10 ARADDR = e4d4, ARLEN = 9
[23090] RDATA = 00000000, RLAST = 1, RRESP = 10 ARADDR = 9ac4, ARLEN = 4
[23140] WDATA = f03280f9, WLAST = 0 AWADDR = 22b4, AWLEN = 11
[23150] WDATA = 8b3365a8, WLAST = 0 AWADDR = 22b4, AWLEN = 11
[23160] WDATA = 0445fa6d, WLAST = 0 AWADDR = 22b4, AWLEN = 11
[23170] WDATA = 767a2408, WLAST = 0 AWADDR = 22b4, AWLEN = 11
[23180] WDATA = b6c2a023, WLAST = 0 AWADDR = 22b4, AWLEN = 11
[23190] WDATA = b1e6579a, WLAST = 0 AWADDR = 22b4, AWLEN = 11
[23200] WDATA = 6809b281, WLAST = 0 AWADDR = 22b4, AWLEN = 11
[23210] WDATA = d5ae7165, WLAST = 0 AWADDR = 22b4, AWLEN = 11
[23220] WDATA = 00e4bda2, WLAST = 0 AWADDR = 22b4, AWLEN = 11
[23230] WDATA = 763d469c, WLAST = 0 AWADDR = 22b4, AWLEN = 11
[23240] WDATA = 87e45cb4, WLAST = 0 AWADDR = 22b4, AWLEN = 11
[23250] BRESP = 10
[23310] RDATA = 00000000, RLAST = 1, RRESP = 10 ARADDR = 22b4, ARLEN = 11
[23360] WDATA = 681f5afe, WLAST = 0 AWADDR = 8ad4, AWLEN = 1
[23370] BRESP = 10
[23430] RDATA = 00000000, RLAST = 1, RRESP = 10 ARADDR = 8ad4, ARLEN = 1
[23480] WDATA = 4b341ec3, WLAST = 0 AWADDR = e578, AWLEN = 6
[23490] WDATA = e8339b7e, WLAST = 0 AWADDR = e578, AWLEN = 6
[23500] WDATA = ac01b396, WLAST = 0 AWADDR = e578, AWLEN = 6
[23510] WDATA = 319b75ba, WLAST = 0 AWADDR = e578, AWLEN = 6
[23520] WDATA = 959925f2, WLAST = 0 AWADDR = e578, AWLEN = 6
[23530] WDATA = b685b9e0, WLAST = 0 AWADDR = e578, AWLEN = 6
[23540] BRESP = 10
[23600] RDATA = 00000000, RLAST = 1, RRESP = 10 ARADDR = e578, ARLEN = 6
[23650] WDATA = 0bfca689, WLAST = 0 AWADDR = a864, AWLEN = 15
[23660] WDATA = 393e464e, WLAST = 0 AWADDR = a864, AWLEN = 15
[23670] WDATA = 0b0c6b77, WLAST = 0 AWADDR = a864, AWLEN = 15
[23680] WDATA = 1c528339, WLAST = 0 AWADDR = a864, AWLEN = 15
[23690] WDATA = a8e70360, WLAST = 0 AWADDR = a864, AWLEN = 15
[23700] WDATA = 8cd377be, WLAST = 0 AWADDR = a864, AWLEN = 15
[23710] WDATA = 54d95745, WLAST = 0 AWADDR = a864, AWLEN = 15
[23720] WDATA = 9dd0e356, WLAST = 0 AWADDR = a864, AWLEN = 15
[23730] WDATA = 9601a391, WLAST = 0 AWADDR = a864, AWLEN = 15
[23740] WDATA = 3df3de63, WLAST = 0 AWADDR = a864, AWLEN = 15
[23750] WDATA = fc34fa0a, WLAST = 0 AWADDR = a864, AWLEN = 15
[23760] WDATA = 0aced37f, WLAST = 0 AWADDR = a864, AWLEN = 15
[23770] WDATA = dd00ff83, WLAST = 0 AWADDR = a864, AWLEN = 15
[23780] WDATA = 59dca664, WLAST = 0 AWADDR = a864, AWLEN = 15
[23790] WDATA = 7ebf697c, WLAST = 0 AWADDR = a864, AWLEN = 15
[23800] BRESP = 10
[23860] RDATA = 00000000, RLAST = 1, RRESP = 10 ARADDR = a864, ARLEN = 15
[23910] RDATA = 00000000, RLAST = 1, RRESP = 10 ARADDR = d58c, ARLEN = 2
[23960] RDATA = 00000000, RLAST = 1, RRESP = 10 ARADDR = b5a0, ARLEN = 0
[24010] RDATA = 00000000, RLAST = 1, RRESP = 10 ARADDR = 413c, ARLEN = 8
[24060] WDATA = 1cad5c57, WLAST = 0 AWADDR = 611c, AWLEN = 9
[24070] WDATA = a17f4bcc, WLAST = 0 AWADDR = 611c, AWLEN = 9
[24080] WDATA = 7b6ae7fb, WLAST = 0 AWADDR = 611c, AWLEN = 9
[24090] WDATA = 63db4b46, WLAST = 0 AWADDR = 611c, AWLEN = 9
[24100] WDATA = 971bb781, WLAST = 0 AWADDR = 611c, AWLEN = 9
[24110] WDATA = bd54ac0c, WLAST = 0 AWADDR = 611c, AWLEN = 9
[24120] WDATA = ff78390a, WLAST = 0 AWADDR = 611c, AWLEN = 9
[24130] WDATA = 16aba73f, WLAST = 0 AWADDR = 611c, AWLEN = 9
[24140] WDATA = 48985fa4, WLAST = 0 AWADDR = 611c, AWLEN = 9
[24150] BRESP = 10
[24210] RDATA = 00000000, RLAST = 1, RRESP = 10 ARADDR = 611c, ARLEN = 9
[24260] RDATA = 00000000, RLAST = 1, RRESP = 10 ARADDR = ec70, ARLEN = 15
[24310] RDATA = 00000000, RLAST = 1, RRESP = 10 ARADDR = af68, ARLEN = 2
[24360] RDATA = 00000000, RLAST = 1, RRESP = 10 ARADDR = f018, ARLEN = 6
[24410] RDATA = 00000000, RLAST = 1, RRESP = 10 ARADDR = b884, ARLEN = 14
[24460] WDATA = 5e5036e3, WLAST = 0 AWADDR = 6958, AWLEN = 8
[24470] WDATA = 8fc90c75, WLAST = 0 AWADDR = 6958, AWLEN = 8
[24480] WDATA = c60111d5, WLAST = 0 AWADDR = 6958, AWLEN = 8
[24490] WDATA = 18443176, WLAST = 0 AWADDR = 6958, AWLEN = 8
[24500] WDATA = 596d86e9, WLAST = 0 AWADDR = 6958, AWLEN = 8
[24510] WDATA = bc8346e8, WLAST = 0 AWADDR = 6958, AWLEN = 8
[24520] WDATA = 10615b2f, WLAST = 0 AWADDR = 6958, AWLEN = 8
[24530] WDATA = 12a0fc04, WLAST = 0 AWADDR = 6958, AWLEN = 8
[24540] BRESP = 10
[24600] RDATA = 00000000, RLAST = 1, RRESP = 10 ARADDR = 6958, ARLEN = 8
[24650] WDATA = b0abb818, WLAST = 0 AWADDR = 8de0, AWLEN = 3
[24660] WDATA = f32553e8, WLAST = 0 AWADDR = 8de0, AWLEN = 3
[24670] WDATA = acac0a55, WLAST = 0 AWADDR = 8de0, AWLEN = 3
[24680] BRESP = 10
[24740] RDATA = 00000000, RLAST = 1, RRESP = 10 ARADDR = 8de0, ARLEN = 3
[24790] WDATA = 629638f5, WLAST = 0 AWADDR = 4618, AWLEN = 11
[24800] WDATA = 841acbc1, WLAST = 0 AWADDR = 4618, AWLEN = 11
[24810] WDATA = 81df6df9, WLAST = 0 AWADDR = 4618, AWLEN = 11
[24820] WDATA = 2b39d221, WLAST = 0 AWADDR = 4618, AWLEN = 11
[24830] WDATA = ec805767, WLAST = 0 AWADDR = 4618, AWLEN = 11
[24840] WDATA = eec2b07d, WLAST = 0 AWADDR = 4618, AWLEN = 11
[24850] WDATA = 4fe9642c, WLAST = 0 AWADDR = 4618, AWLEN = 11
[24860] WDATA = 0234211f, WLAST = 0 AWADDR = 4618, AWLEN = 11
[24870] WDATA = 5c2df74d, WLAST = 0 AWADDR = 4618, AWLEN = 11
[24880] WDATA = ffbde475, WLAST = 0 AWADDR = 4618, AWLEN = 11
[24890] WDATA = ea4a9581, WLAST = 0 AWADDR = 4618, AWLEN = 11
[24900] BRESP = 10
[24960] RDATA = 00000000, RLAST = 1, RRESP = 10 ARADDR = 4618, ARLEN = 11
[25010] WDATA = 845f781b, WLAST = 0 AWADDR = ec98, AWLEN = 4
[25020] WDATA = d914651c, WLAST = 0 AWADDR = ec98, AWLEN = 4
[25030] WDATA = 33be4bab, WLAST = 0 AWADDR = ec98, AWLEN = 4
[25040] WDATA = d383ef61, WLAST = 0 AWADDR = ec98, AWLEN = 4
[25050] BRESP = 10
[25110] RDATA = 00000000, RLAST = 1, RRESP = 10 ARADDR = ec98, ARLEN = 4
[25160] WDATA = 076d01e1, WLAST = 0 AWADDR = 3470, AWLEN = 13
[25170] WDATA = 298b6ae4, WLAST = 0 AWADDR = 3470, AWLEN = 13
[25180] WDATA = a972d06d, WLAST = 0 AWADDR = 3470, AWLEN = 13
[25190] WDATA = a0fd825e, WLAST = 0 AWADDR = 3470, AWLEN = 13
[25200] WDATA = 49124fc6, WLAST = 0 AWADDR = 3470, AWLEN = 13
[25210] WDATA = fd2e7d80, WLAST = 0 AWADDR = 3470, AWLEN = 13
[25220] WDATA = 6ec88a87, WLAST = 0 AWADDR = 3470, AWLEN = 13
[25230] WDATA = ec627c68, WLAST = 0 AWADDR = 3470, AWLEN = 13
[25240] WDATA = fc691609, WLAST = 0 AWADDR = 3470, AWLEN = 13
[25250] WDATA = ccacb69d, WLAST = 0 AWADDR = 3470, AWLEN = 13
[25260] WDATA = cb56f477, WLAST = 0 AWADDR = 3470, AWLEN = 13
[25270] WDATA = 3a527bd6, WLAST = 0 AWADDR = 3470, AWLEN = 13
[25280] WDATA = 483a8503, WLAST = 0 AWADDR = 3470, AWLEN = 13
[25290] BRESP = 10
[25350] RDATA = 00000000, RLAST = 1, RRESP = 10 ARADDR = 3470, ARLEN = 13
[25400] RDATA = 77b38019, RLAST = 0, RRESP = 00 ARADDR = 0698, ARLEN = 7
[25420] RDATA = 00000000, RLAST = 0, RRESP = 00 ARADDR = 0698, ARLEN = 7
[25440] RDATA = 00000000, RLAST = 0, RRESP = 00 ARADDR = 0698, ARLEN = 7
[25460] RDATA = 00000000, RLAST = 0, RRESP = 00 ARADDR = 0698, ARLEN = 7
[25480] RDATA = 00000000, RLAST = 0, RRESP = 00 ARADDR = 0698, ARLEN = 7
[25500] RDATA = 00000000, RLAST = 0, RRESP = 00 ARADDR = 0698, ARLEN = 7
[25520] RDATA = 00000000, RLAST = 0, RRESP = 00 ARADDR = 0698, ARLEN = 7
[25540] RDATA = 00000000, RLAST = 1, RRESP = 00 ARADDR = 0698, ARLEN = 7
[25590] WDATA = 1b1f6000, WLAST = 0 AWADDR = 2640, AWLEN = 14
[25600] WDATA = 9810647b, WLAST = 0 AWADDR = 2640, AWLEN = 14
[25610] WDATA = f820d053, WLAST = 0 AWADDR = 2640, AWLEN = 14
[25620] WDATA = 574e7544, WLAST = 0 AWADDR = 2640, AWLEN = 14
[25630] WDATA = 396d57dd, WLAST = 0 AWADDR = 2640, AWLEN = 14
[25640] WDATA = 3865c62d, WLAST = 0 AWADDR = 2640, AWLEN = 14
[25650] WDATA = 00dcad74, WLAST = 0 AWADDR = 2640, AWLEN = 14
[25660] WDATA = cce074d9, WLAST = 0 AWADDR = 2640, AWLEN = 14
[25670] WDATA = 3687efe2, WLAST = 0 AWADDR = 2640, AWLEN = 14
[25680] WDATA = 9d4160fc, WLAST = 0 AWADDR = 2640, AWLEN = 14
[25690] WDATA = 61408537, WLAST = 0 AWADDR = 2640, AWLEN = 14
[25700] WDATA = 8792a5e3, WLAST = 0 AWADDR = 2640, AWLEN = 14
[25710] WDATA = 62f5f302, WLAST = 0 AWADDR = 2640, AWLEN = 14
[25720] WDATA = 36e7e832, WLAST = 0 AWADDR = 2640, AWLEN = 14
[25730] BRESP = 10
[25790] RDATA = 00000000, RLAST = 1, RRESP = 10 ARADDR = 2640, ARLEN = 14
[25840] RDATA = 00000000, RLAST = 1, RRESP = 10 ARADDR = fe44, ARLEN = 6
[25890] WDATA = 653dfb06, WLAST = 0 AWADDR = 9700, AWLEN = 1
[25900] BRESP = 10
[25960] RDATA = 00000000, RLAST = 1, RRESP = 10 ARADDR = 9700, ARLEN = 1
[26010] WDATA = 8bb3135f, WLAST = 0 AWADDR = 6bd4, AWLEN = 13
[26020] WDATA = 02151b94, WLAST = 0 AWADDR = 6bd4, AWLEN = 13
[26030] WDATA = 67a93b00, WLAST = 0 AWADDR = 6bd4, AWLEN = 13
[26040] WDATA = 34479840, WLAST = 0 AWADDR = 6bd4, AWLEN = 13
[26050] WDATA = 7aebe46f, WLAST = 0 AWADDR = 6bd4, AWLEN = 13
[26060] WDATA = 8dc7eb08, WLAST = 0 AWADDR = 6bd4, AWLEN = 13
[26070] WDATA = 695d9178, WLAST = 0 AWADDR = 6bd4, AWLEN = 13
[26080] WDATA = 0d2e6a55, WLAST = 0 AWADDR = 6bd4, AWLEN = 13
[26090] WDATA = 3a2b613d, WLAST = 0 AWADDR = 6bd4, AWLEN = 13
[26100] WDATA = e5776fca, WLAST = 0 AWADDR = 6bd4, AWLEN = 13
[26110] WDATA = 98e464c8, WLAST = 0 AWADDR = 6bd4, AWLEN = 13
[26120] WDATA = b0349cfb, WLAST = 0 AWADDR = 6bd4, AWLEN = 13
[26130] WDATA = fdd04832, WLAST = 0 AWADDR = 6bd4, AWLEN = 13
[26140] BRESP = 10
[26200] RDATA = 00000000, RLAST = 1, RRESP = 10 ARADDR = 6bd4, ARLEN = 13
[26250] WDATA = aee80df3, WLAST = 0 AWADDR = 55ec, AWLEN = 9
[26260] WDATA = 78980e08, WLAST = 0 AWADDR = 55ec, AWLEN = 9
[26270] WDATA = 5608d385, WLAST = 0 AWADDR = 55ec, AWLEN = 9
[26280] WDATA = 81de9203, WLAST = 0 AWADDR = 55ec, AWLEN = 9
[26290] WDATA = 1852ebff, WLAST = 0 AWADDR = 55ec, AWLEN = 9
[26300] WDATA = 2f41443d, WLAST = 0 AWADDR = 55ec, AWLEN = 9
[26310] WDATA = 8a4abbb1, WLAST = 0 AWADDR = 55ec, AWLEN = 9
[26320] WDATA = 012e40ee, WLAST = 0 AWADDR = 55ec, AWLEN = 9
[26330] WDATA = ef227d66, WLAST = 0 AWADDR = 55ec, AWLEN = 9
[26340] BRESP = 10
[26400] RDATA = 00000000, RLAST = 1, RRESP = 10 ARADDR = 55ec, ARLEN = 9
[26450] RDATA = 00000000, RLAST = 1, RRESP = 10 ARADDR = 3d64, ARLEN = 11
[26500] RDATA = 00000000, RLAST = 1, RRESP = 10 ARADDR = c4bc, ARLEN = 12
[26550] WDATA = fae733f4, WLAST = 0 AWADDR = 847c, AWLEN = 13
[26560] WDATA = 7af620a8, WLAST = 0 AWADDR = 847c, AWLEN = 13
[26570] WDATA = c09a761f, WLAST = 0 AWADDR = 847c, AWLEN = 13
[26580] WDATA = a62b3c39, WLAST = 0 AWADDR = 847c, AWLEN = 13
[26590] WDATA = 51952cc1, WLAST = 0 AWADDR = 847c, AWLEN = 13
[26600] WDATA = 1eea422a, WLAST = 0 AWADDR = 847c, AWLEN = 13
[26610] WDATA = bb0d1be8, WLAST = 0 AWADDR = 847c, AWLEN = 13
[26620] WDATA = b47f930f, WLAST = 0 AWADDR = 847c, AWLEN = 13
[26630] WDATA = fd42c26c, WLAST = 0 AWADDR = 847c, AWLEN = 13
[26640] WDATA = b1db1377, WLAST = 0 AWADDR = 847c, AWLEN = 13
[26650] WDATA = 29281c1a, WLAST = 0 AWADDR = 847c, AWLEN = 13
[26660] WDATA = 1a30bfb3, WLAST = 0 AWADDR = 847c, AWLEN = 13
[26670] WDATA = bed9e4e2, WLAST = 0 AWADDR = 847c, AWLEN = 13
[26680] BRESP = 10
[26740] RDATA = 00000000, RLAST = 1, RRESP = 10 ARADDR = 847c, ARLEN = 13
[26790] RDATA = 00000000, RLAST = 1, RRESP = 10 ARADDR = 5598, ARLEN = 4
[26840] RDATA = 00000000, RLAST = 1, RRESP = 10 ARADDR = 20e0, ARLEN = 9
[26890] RDATA = 00000000, RLAST = 1, RRESP = 10 ARADDR = 387c, ARLEN = 10
[26940] WDATA = 31ed1d46, WLAST = 0 AWADDR = 5bbc, AWLEN = 13
[26950] WDATA = 7acff698, WLAST = 0 AWADDR = 5bbc, AWLEN = 13
[26960] WDATA = 19532743, WLAST = 0 AWADDR = 5bbc, AWLEN = 13
[26970] WDATA = ae037b26, WLAST = 0 AWADDR = 5bbc, AWLEN = 13
[26980] WDATA = d36e7e84, WLAST = 0 AWADDR = 5bbc, AWLEN = 13
[26990] WDATA = 72bb1a93, WLAST = 0 AWADDR = 5bbc, AWLEN = 13
[27000] WDATA = 80e82b79, WLAST = 0 AWADDR = 5bbc, AWLEN = 13
[27010] WDATA = 4eccb6bc, WLAST = 0 AWADDR = 5bbc, AWLEN = 13
[27020] WDATA = 183f4a5a, WLAST = 0 AWADDR = 5bbc, AWLEN = 13
[27030] WDATA = 3a5455d9, WLAST = 0 AWADDR = 5bbc, AWLEN = 13
[27040] WDATA = fba5ac3f, WLAST = 0 AWADDR = 5bbc, AWLEN = 13
[27050] WDATA = eaf2281c, WLAST = 0 AWADDR = 5bbc, AWLEN = 13
[27060] WDATA = 15753766, WLAST = 0 AWADDR = 5bbc, AWLEN = 13
[27070] BRESP = 10
[27130] RDATA = 00000000, RLAST = 1, RRESP = 10 ARADDR = 5bbc, ARLEN = 13
[27180] WDATA = 8d0619cc, WLAST = 0 AWADDR = baa4, AWLEN = 5
[27190] WDATA = 5122ceb8, WLAST = 0 AWADDR = baa4, AWLEN = 5
[27200] WDATA = f29ffffb, WLAST = 0 AWADDR = baa4, AWLEN = 5
[27210] WDATA = cf55af11, WLAST = 0 AWADDR = baa4, AWLEN = 5
[27220] WDATA = 0b069ac8, WLAST = 0 AWADDR = baa4, AWLEN = 5
[27230] BRESP = 10
[27290] RDATA = 00000000, RLAST = 1, RRESP = 10 ARADDR = baa4, ARLEN = 5
[27340] RDATA = 00000000, RLAST = 1, RRESP = 10 ARADDR = 56a4, ARLEN = 9
[27390] RDATA = 00000000, RLAST = 1, RRESP = 10 ARADDR = 5988, ARLEN = 15
[27440] WDATA = 6d9cb13f, WLAST = 0 AWADDR = 5290, AWLEN = 5
[27450] WDATA = 853c9095, WLAST = 0 AWADDR = 5290, AWLEN = 5
[27460] WDATA = 12ba331d, WLAST = 0 AWADDR = 5290, AWLEN = 5
[27470] WDATA = 0ecf7650, WLAST = 0 AWADDR = 5290, AWLEN = 5
[27480] WDATA = ea34ee9f, WLAST = 0 AWADDR = 5290, AWLEN = 5
[27490] BRESP = 10
[27550] RDATA = 00000000, RLAST = 1, RRESP = 10 ARADDR = 5290, ARLEN = 5
[27600] BRESP = 10
[27660] RDATA = 00000000, RLAST = 1, RRESP = 10 ARADDR = 9b58, ARLEN = 0
[27710] WDATA = dc193302, WLAST = 0 AWADDR = f780, AWLEN = 11
[27720] WDATA = 31c7dc4d, WLAST = 0 AWADDR = f780, AWLEN = 11
[27730] WDATA = b7415649, WLAST = 0 AWADDR = f780, AWLEN = 11
[27740] WDATA = d0c2aa24, WLAST = 0 AWADDR = f780, AWLEN = 11
[27750] WDATA = 5d6c46da, WLAST = 0 AWADDR = f780, AWLEN = 11
[27760] WDATA = 92da5a46, WLAST = 0 AWADDR = f780, AWLEN = 11
[27770] WDATA = 03d24065, WLAST = 0 AWADDR = f780, AWLEN = 11
[27780] WDATA = e7614a24, WLAST = 0 AWADDR = f780, AWLEN = 11
[27790] WDATA = b40274fa, WLAST = 0 AWADDR = f780, AWLEN = 11
[27800] WDATA = 8502aeae, WLAST = 0 AWADDR = f780, AWLEN = 11
[27810] WDATA = eac7ac26, WLAST = 0 AWADDR = f780, AWLEN = 11
[27820] BRESP = 10
[27880] RDATA = 00000000, RLAST = 1, RRESP = 10 ARADDR = f780, ARLEN = 11
[27930] WDATA = 92b8b474, WLAST = 0 AWADDR = fdd0, AWLEN = 13
[27940] WDATA = 0507f80d, WLAST = 0 AWADDR = fdd0, AWLEN = 13
[27950] WDATA = 0edfd503, WLAST = 0 AWADDR = fdd0, AWLEN = 13
[27960] WDATA = 95f9eac4, WLAST = 0 AWADDR = fdd0, AWLEN = 13
[27970] WDATA = 92aad2d0, WLAST = 0 AWADDR = fdd0, AWLEN = 13
[27980] WDATA = c95f9b03, WLAST = 0 AWADDR = fdd0, AWLEN = 13
[27990] WDATA = 83ca5ffd, WLAST = 0 AWADDR = fdd0, AWLEN = 13
[28000] WDATA = 4edb136e, WLAST = 0 AWADDR = fdd0, AWLEN = 13
[28010] WDATA = cc6f1821, WLAST = 0 AWADDR = fdd0, AWLEN = 13
[28020] WDATA = 93b5da91, WLAST = 0 AWADDR = fdd0, AWLEN = 13
[28030] WDATA = f4095fdd, WLAST = 0 AWADDR = fdd0, AWLEN = 13
[28040] WDATA = 479b46b2, WLAST = 0 AWADDR = fdd0, AWLEN = 13
[28050] WDATA = 36518856, WLAST = 0 AWADDR = fdd0, AWLEN = 13
[28060] BRESP = 10
[28120] RDATA = 00000000, RLAST = 1, RRESP = 10 ARADDR = fdd0, ARLEN = 13
[28170] RDATA = 00000000, RLAST = 1, RRESP = 10 ARADDR = a61c, ARLEN = 4
[28220] RDATA = 00000000, RLAST = 1, RRESP = 10 ARADDR = 12b8, ARLEN = 7
[28270] WDATA = a9720797, WLAST = 0 AWADDR = 5518, AWLEN = 10
[28280] WDATA = af425684, WLAST = 0 AWADDR = 5518, AWLEN = 10
[28290] WDATA = 1a1dd3ea, WLAST = 0 AWADDR = 5518, AWLEN = 10
[28300] WDATA = c324e344, WLAST = 0 AWADDR = 5518, AWLEN = 10
[28310] WDATA = a896cc5e, WLAST = 0 AWADDR = 5518, AWLEN = 10
[28320] WDATA = 4c7de480, WLAST = 0 AWADDR = 5518, AWLEN = 10
[28330] WDATA = f170c1a1, WLAST = 0 AWADDR = 5518, AWLEN = 10
[28340] WDATA = 877ea564, WLAST = 0 AWADDR = 5518, AWLEN = 10
[28350] WDATA = 79595a68, WLAST = 0 AWADDR = 5518, AWLEN = 10
[28360] WDATA = 951f6c8d, WLAST = 0 AWADDR = 5518, AWLEN = 10
[28370] BRESP = 10
[28430] RDATA = 00000000, RLAST = 1, RRESP = 10 ARADDR = 5518, ARLEN = 10
[28480] RDATA = 00000000, RLAST = 1, RRESP = 10 ARADDR = 50ec, ARLEN = 15
[28530] RDATA = 00000000, RLAST = 0, RRESP = 00 ARADDR = 0e84, ARLEN = 12
[28550] RDATA = 00000000, RLAST = 0, RRESP = 00 ARADDR = 0e84, ARLEN = 12
[28570] RDATA = 00000000, RLAST = 0, RRESP = 00 ARADDR = 0e84, ARLEN = 12
[28590] RDATA = 00000000, RLAST = 0, RRESP = 00 ARADDR = 0e84, ARLEN = 12
[28610] RDATA = 00000000, RLAST = 0, RRESP = 00 ARADDR = 0e84, ARLEN = 12
[28630] RDATA = 00000000, RLAST = 0, RRESP = 00 ARADDR = 0e84, ARLEN = 12
[28650] RDATA = 00000000, RLAST = 0, RRESP = 00 ARADDR = 0e84, ARLEN = 12
[28670] RDATA = 00000000, RLAST = 0, RRESP = 00 ARADDR = 0e84, ARLEN = 12
[28690] RDATA = 00000000, RLAST = 0, RRESP = 00 ARADDR = 0e84, ARLEN = 12
[28710] RDATA = 00000000, RLAST = 0, RRESP = 00 ARADDR = 0e84, ARLEN = 12
[28730] RDATA = 00000000, RLAST = 0, RRESP = 00 ARADDR = 0e84, ARLEN = 12
[28750] RDATA = 00000000, RLAST = 0, RRESP = 00 ARADDR = 0e84, ARLEN = 12
[28770] RDATA = 00000000, RLAST = 1, RRESP = 00 ARADDR = 0e84, ARLEN = 12
[28820] RDATA = 00000000, RLAST = 1, RRESP = 10 ARADDR = 5d94, ARLEN = 0
[28870] WDATA = 58660bb1, WLAST = 0 AWADDR = 4f00, AWLEN = 14
[28880] WDATA = 48c4d94f, WLAST = 0 AWADDR = 4f00, AWLEN = 14
[28890] WDATA = f6c90e4a, WLAST = 0 AWADDR = 4f00, AWLEN = 14
[28900] WDATA = b5a7d27a, WLAST = 0 AWADDR = 4f00, AWLEN = 14
[28910] WDATA = d9fcd257, WLAST = 0 AWADDR = 4f00, AWLEN = 14
[28920] WDATA = fb660202, WLAST = 0 AWADDR = 4f00, AWLEN = 14
[28930] WDATA = 793d3e42, WLAST = 0 AWADDR = 4f00, AWLEN = 14
[28940] WDATA = 498da963, WLAST = 0 AWADDR = 4f00, AWLEN = 14
[28950] WDATA = 067a7fc4, WLAST = 0 AWADDR = 4f00, AWLEN = 14
[28960] WDATA = f7da47e3, WLAST = 0 AWADDR = 4f00, AWLEN = 14
[28970] WDATA = 4f279700, WLAST = 0 AWADDR = 4f00, AWLEN = 14
[28980] WDATA = 78de3ae5, WLAST = 0 AWADDR = 4f00, AWLEN = 14
[28990] WDATA = b9d8ba93, WLAST = 0 AWADDR = 4f00, AWLEN = 14
[29000] WDATA = c288588a, WLAST = 0 AWADDR = 4f00, AWLEN = 14
[29010] BRESP = 10
[29070] RDATA = 00000000, RLAST = 1, RRESP = 10 ARADDR = 4f00, ARLEN = 14
[29120] WDATA = 1b96d53b, WLAST = 0 AWADDR = 2b7c, AWLEN = 15
[29130] WDATA = ef5afdaf, WLAST = 0 AWADDR = 2b7c, AWLEN = 15
[29140] WDATA = eaeae71e, WLAST = 0 AWADDR = 2b7c, AWLEN = 15
[29150] WDATA = 423b203e, WLAST = 0 AWADDR = 2b7c, AWLEN = 15
[29160] WDATA = 50c82f45, WLAST = 0 AWADDR = 2b7c, AWLEN = 15
[29170] WDATA = 61c23c2d, WLAST = 0 AWADDR = 2b7c, AWLEN = 15
[29180] WDATA = ace66d8e, WLAST = 0 AWADDR = 2b7c, AWLEN = 15
[29190] WDATA = c0bdf8b4, WLAST = 0 AWADDR = 2b7c, AWLEN = 15
[29200] WDATA = d253545f, WLAST = 0 AWADDR = 2b7c, AWLEN = 15
[29210] WDATA = 22b0a29c, WLAST = 0 AWADDR = 2b7c, AWLEN = 15
[29220] WDATA = 535ad2e2, WLAST = 0 AWADDR = 2b7c, AWLEN = 15
[29230] WDATA = 6ab7e799, WLAST = 0 AWADDR = 2b7c, AWLEN = 15
[29240] WDATA = a6973eb0, WLAST = 0 AWADDR = 2b7c, AWLEN = 15
[29250] WDATA = 031b6f80, WLAST = 0 AWADDR = 2b7c, AWLEN = 15
[29260] WDATA = ab7fc422, WLAST = 0 AWADDR = 2b7c, AWLEN = 15
[29270] BRESP = 10
[29330] RDATA = 00000000, RLAST = 1, RRESP = 10 ARADDR = 2b7c, ARLEN = 15
[29380] RDATA = 00000000, RLAST = 1, RRESP = 10 ARADDR = 60a4, ARLEN = 14
[29430] WDATA = 8f94902a, WLAST = 0 AWADDR = a61c, AWLEN = 15
[29440] WDATA = 76d42232, WLAST = 0 AWADDR = a61c, AWLEN = 15
[29450] WDATA = 09711265, WLAST = 0 AWADDR = a61c, AWLEN = 15
[29460] WDATA = 90c1a683, WLAST = 0 AWADDR = a61c, AWLEN = 15
[29470] WDATA = df8d820f, WLAST = 0 AWADDR = a61c, AWLEN = 15
[29480] WDATA = c3a8c51e, WLAST = 0 AWADDR = a61c, AWLEN = 15
[29490] WDATA = 421de270, WLAST = 0 AWADDR = a61c, AWLEN = 15
[29500] WDATA = a529bfc3, WLAST = 0 AWADDR = a61c, AWLEN = 15
[29510] WDATA = e520c25d, WLAST = 0 AWADDR = a61c, AWLEN = 15
[29520] WDATA = 9513fa5d, WLAST = 0 AWADDR = a61c, AWLEN = 15
[29530] WDATA = 4aacd4d8, WLAST = 0 AWADDR = a61c, AWLEN = 15
[29540] WDATA = 70a500be, WLAST = 0 AWADDR = a61c, AWLEN = 15
[29550] WDATA = f3fb9abe, WLAST = 0 AWADDR = a61c, AWLEN = 15
[29560] WDATA = bbe1a647, WLAST = 0 AWADDR = a61c, AWLEN = 15
[29570] WDATA = 2e962c0f, WLAST = 0 AWADDR = a61c, AWLEN = 15
[29580] BRESP = 10
[29640] RDATA = 00000000, RLAST = 1, RRESP = 10 ARADDR = a61c, ARLEN = 15
[29690] WDATA = 2f00f546, WLAST = 0 AWADDR = a46c, AWLEN = 14
[29700] WDATA = 7d1cd636, WLAST = 0 AWADDR = a46c, AWLEN = 14
[29710] WDATA = e46d0b09, WLAST = 0 AWADDR = a46c, AWLEN = 14
[29720] WDATA = 4aff8ee3, WLAST = 0 AWADDR = a46c, AWLEN = 14
[29730] WDATA = 8d28c8bd, WLAST = 0 AWADDR = a46c, AWLEN = 14
[29740] WDATA = 7c585811, WLAST = 0 AWADDR = a46c, AWLEN = 14
[29750] WDATA = 5026b4f2, WLAST = 0 AWADDR = a46c, AWLEN = 14
[29760] WDATA = a2981d9b, WLAST = 0 AWADDR = a46c, AWLEN = 14
[29770] WDATA = 88d06d2f, WLAST = 0 AWADDR = a46c, AWLEN = 14
[29780] WDATA = b94daf7a, WLAST = 0 AWADDR = a46c, AWLEN = 14
[29790] WDATA = 43d8f7e5, WLAST = 0 AWADDR = a46c, AWLEN = 14
[29800] WDATA = e01297f6, WLAST = 0 AWADDR = a46c, AWLEN = 14
[29810] WDATA = a4d5f930, WLAST = 0 AWADDR = a46c, AWLEN = 14
[29820] WDATA = 2e4a3176, WLAST = 0 AWADDR = a46c, AWLEN = 14
[29830] BRESP = 10
[29890] RDATA = 00000000, RLAST = 1, RRESP = 10 ARADDR = a46c, ARLEN = 14
[29940] RDATA = 00000000, RLAST = 1, RRESP = 10 ARADDR = 85a4, ARLEN = 11
[29990] RDATA = 00000000, RLAST = 1, RRESP = 10 ARADDR = d79c, ARLEN = 11
[30040] WDATA = e4566c9e, WLAST = 0 AWADDR = 281c, AWLEN = 2
[30050] WDATA = 602d1314, WLAST = 0 AWADDR = 281c, AWLEN = 2
[30060] BRESP = 10
[30120] RDATA = 00000000, RLAST = 1, RRESP = 10 ARADDR = 281c, ARLEN = 2
[30170] RDATA = 00000000, RLAST = 1, RRESP = 10 ARADDR = 42dc, ARLEN = 2
[30220] RDATA = 00000000, RLAST = 1, RRESP = 10 ARADDR = fce8, ARLEN = 8
[30270] RDATA = 00000000, RLAST = 1, RRESP = 10 ARADDR = 5d94, ARLEN = 6
[30320] RDATA = 00000000, RLAST = 1, RRESP = 10 ARADDR = cab8, ARLEN = 3
[30370] WDATA = ea4f3675, WLAST = 0 AWADDR = 7230, AWLEN = 15
[30380] WDATA = dfe20439, WLAST = 0 AWADDR = 7230, AWLEN = 15
[30390] WDATA = b4001554, WLAST = 0 AWADDR = 7230, AWLEN = 15
[30400] WDATA = c04e84dd, WLAST = 0 AWADDR = 7230, AWLEN = 15
[30410] WDATA = 982bc339, WLAST = 0 AWADDR = 7230, AWLEN = 15
[30420] WDATA = ea30ce9a, WLAST = 0 AWADDR = 7230, AWLEN = 15
[30430] WDATA = 1654d0b8, WLAST = 0 AWADDR = 7230, AWLEN = 15
[30440] WDATA = d400ea04, WLAST = 0 AWADDR = 7230, AWLEN = 15
[30450] WDATA = 44eb7303, WLAST = 0 AWADDR = 7230, AWLEN = 15
[30460] WDATA = 5ddfec0b, WLAST = 0 AWADDR = 7230, AWLEN = 15
[30470] WDATA = 636a2498, WLAST = 0 AWADDR = 7230, AWLEN = 15
[30480] WDATA = 42d3ed25, WLAST = 0 AWADDR = 7230, AWLEN = 15
[30490] WDATA = 80fc72e2, WLAST = 0 AWADDR = 7230, AWLEN = 15
[30500] WDATA = e2ce9fee, WLAST = 0 AWADDR = 7230, AWLEN = 15
[30510] WDATA = e34df12a, WLAST = 0 AWADDR = 7230, AWLEN = 15
[30520] BRESP = 10
[30580] RDATA = 00000000, RLAST = 1, RRESP = 10 ARADDR = 7230, ARLEN = 15
[30630] RDATA = 00000000, RLAST = 1, RRESP = 10 ARADDR = 8fd8, ARLEN = 11
[30680] WDATA = 4289af3c, WLAST = 0 AWADDR = 1c30, AWLEN = 14
[30690] WDATA = a021a781, WLAST = 0 AWADDR = 1c30, AWLEN = 14
[30700] WDATA = b59d95a6, WLAST = 0 AWADDR = 1c30, AWLEN = 14
[30710] WDATA = 8925476f, WLAST = 0 AWADDR = 1c30, AWLEN = 14
[30720] WDATA = c11e2be5, WLAST = 0 AWADDR = 1c30, AWLEN = 14
[30730] WDATA = 2976381c, WLAST = 0 AWADDR = 1c30, AWLEN = 14
[30740] WDATA = b4b7f46b, WLAST = 0 AWADDR = 1c30, AWLEN = 14
[30750] WDATA = 0da5acc9, WLAST = 0 AWADDR = 1c30, AWLEN = 14
[30760] WDATA = e4e2e3c2, WLAST = 0 AWADDR = 1c30, AWLEN = 14
[30770] WDATA = 2bbff28c, WLAST = 0 AWADDR = 1c30, AWLEN = 14
[30780] WDATA = ea986f81, WLAST = 0 AWADDR = 1c30, AWLEN = 14
[30790] WDATA = c9ced645, WLAST = 0 AWADDR = 1c30, AWLEN = 14
[30800] WDATA = 60d44cde, WLAST = 0 AWADDR = 1c30, AWLEN = 14
[30810] WDATA = 8a9c6dac, WLAST = 0 AWADDR = 1c30, AWLEN = 14
[30820] BRESP = 10
[30880] RDATA = 00000000, RLAST = 1, RRESP = 10 ARADDR = 1c30, ARLEN = 14
[30930] RDATA = 00000000, RLAST = 1, RRESP = 10 ARADDR = a4d8, ARLEN = 9
[30980] RDATA = 00000000, RLAST = 1, RRESP = 10 ARADDR = dfcc, ARLEN = 12
[31030] WDATA = f538248a, WLAST = 0 AWADDR = 916c, AWLEN = 12
[31040] WDATA = ba9cc79d, WLAST = 0 AWADDR = 916c, AWLEN = 12
[31050] WDATA = 16561955, WLAST = 0 AWADDR = 916c, AWLEN = 12
[31060] WDATA = c99d7e39, WLAST = 0 AWADDR = 916c, AWLEN = 12
[31070] WDATA = 1edac637, WLAST = 0 AWADDR = 916c, AWLEN = 12
[31080] WDATA = 32691d78, WLAST = 0 AWADDR = 916c, AWLEN = 12
[31090] WDATA = 30411e25, WLAST = 0 AWADDR = 916c, AWLEN = 12
[31100] WDATA = defb0957, WLAST = 0 AWADDR = 916c, AWLEN = 12
[31110] WDATA = 64f92bb1, WLAST = 0 AWADDR = 916c, AWLEN = 12
[31120] WDATA = f32b3fb6, WLAST = 0 AWADDR = 916c, AWLEN = 12
[31130] WDATA = a894e26d, WLAST = 0 AWADDR = 916c, AWLEN = 12
[31140] WDATA = cd6ba1ef, WLAST = 0 AWADDR = 916c, AWLEN = 12
[31150] BRESP = 10
[31210] RDATA = 00000000, RLAST = 1, RRESP = 10 ARADDR = 916c, ARLEN = 12
[31260] WDATA = bbbf9bed, WLAST = 0 AWADDR = 2c98, AWLEN = 11
[31270] WDATA = 25b98827, WLAST = 0 AWADDR = 2c98, AWLEN = 11
[31280] WDATA = e77aff19, WLAST = 0 AWADDR = 2c98, AWLEN = 11
[31290] WDATA = 1b3067c8, WLAST = 0 AWADDR = 2c98, AWLEN = 11
[31300] WDATA = 8a9890b8, WLAST = 0 AWADDR = 2c98, AWLEN = 11
[31310] WDATA = f12cd9b6, WLAST = 0 AWADDR = 2c98, AWLEN = 11
[31320] WDATA = f5237f26, WLAST = 0 AWADDR = 2c98, AWLEN = 11
[31330] WDATA = 400732b8, WLAST = 0 AWADDR = 2c98, AWLEN = 11
[31340] WDATA = 08e10f3e, WLAST = 0 AWADDR = 2c98, AWLEN = 11
[31350] WDATA = b8581b0e, WLAST = 0 AWADDR = 2c98, AWLEN = 11
[31360] WDATA = 7581913d, WLAST = 0 AWADDR = 2c98, AWLEN = 11
[31370] BRESP = 10
[31430] RDATA = 00000000, RLAST = 1, RRESP = 10 ARADDR = 2c98, ARLEN = 11
[31480] RDATA = 00000000, RLAST = 1, RRESP = 10 ARADDR = 9d30, ARLEN = 11
[31530] RDATA = 00000000, RLAST = 1, RRESP = 10 ARADDR = 79b8, ARLEN = 14
[31580] RDATA = 00000000, RLAST = 1, RRESP = 10 ARADDR = 9c10, ARLEN = 9
[31630] BRESP = 10
[31690] RDATA = 00000000, RLAST = 1, RRESP = 10 ARADDR = 9124, ARLEN = 0
[31740] RDATA = 00000000, RLAST = 1, RRESP = 10 ARADDR = 366c, ARLEN = 4
[31790] RDATA = 00000000, RLAST = 0, RRESP = 00 ARADDR = 0b10, ARLEN = 1
[31810] RDATA = 00000000, RLAST = 1, RRESP = 00 ARADDR = 0b10, ARLEN = 1
[31860] WDATA = ddd19e0c, WLAST = 0 AWADDR = 8670, AWLEN = 8
[31870] WDATA = 729acc71, WLAST = 0 AWADDR = 8670, AWLEN = 8
[31880] WDATA = 8e0896cb, WLAST = 0 AWADDR = 8670, AWLEN = 8
[31890] WDATA = 18d762bb, WLAST = 0 AWADDR = 8670, AWLEN = 8
[31900] WDATA = bc1573d3, WLAST = 0 AWADDR = 8670, AWLEN = 8
[31910] WDATA = 51df2050, WLAST = 0 AWADDR = 8670, AWLEN = 8
[31920] WDATA = fa34b433, WLAST = 0 AWADDR = 8670, AWLEN = 8
[31930] WDATA = 9179dd76, WLAST = 0 AWADDR = 8670, AWLEN = 8
[31940] BRESP = 10
[32000] RDATA = 00000000, RLAST = 1, RRESP = 10 ARADDR = 8670, ARLEN = 8
[32050] RDATA = 00000000, RLAST = 1, RRESP = 10 ARADDR = 465c, ARLEN = 14
[32100] RDATA = 00000000, RLAST = 1, RRESP = 10 ARADDR = e9ec, ARLEN = 2
[32150] WDATA = e10a891c, WLAST = 0 AWADDR = ecf0, AWLEN = 13
[32160] WDATA = 8c18e952, WLAST = 0 AWADDR = ecf0, AWLEN = 13
[32170] WDATA = 829c0443, WLAST = 0 AWADDR = ecf0, AWLEN = 13
[32180] WDATA = 2826cd72, WLAST = 0 AWADDR = ecf0, AWLEN = 13
[32190] WDATA = 1989f321, WLAST = 0 AWADDR = ecf0, AWLEN = 13
[32200] WDATA = 63ecb5f2, WLAST = 0 AWADDR = ecf0, AWLEN = 13
[32210] WDATA = 3030305b, WLAST = 0 AWADDR = ecf0, AWLEN = 13
[32220] WDATA = c0ab41bd, WLAST = 0 AWADDR = ecf0, AWLEN = 13
[32230] WDATA = de37c3f7, WLAST = 0 AWADDR = ecf0, AWLEN = 13
[32240] WDATA = 3531e2c6, WLAST = 0 AWADDR = ecf0, AWLEN = 13
[32250] WDATA = bd0a4695, WLAST = 0 AWADDR = ecf0, AWLEN = 13
[32260] WDATA = a6923d09, WLAST = 0 AWADDR = ecf0, AWLEN = 13
[32270] WDATA = 9d0ac249, WLAST = 0 AWADDR = ecf0, AWLEN = 13
[32280] BRESP = 10
[32340] RDATA = 00000000, RLAST = 1, RRESP = 10 ARADDR = ecf0, ARLEN = 13
[32390] WDATA = 915801e3, WLAST = 0 AWADDR = 8280, AWLEN = 9
[32400] WDATA = cf3a991f, WLAST = 0 AWADDR = 8280, AWLEN = 9
[32410] WDATA = 0b4fa4ea, WLAST = 0 AWADDR = 8280, AWLEN = 9
[32420] WDATA = 584d644d, WLAST = 0 AWADDR = 8280, AWLEN = 9
[32430] WDATA = 0cc0c80d, WLAST = 0 AWADDR = 8280, AWLEN = 9
[32440] WDATA = aea8b9d9, WLAST = 0 AWADDR = 8280, AWLEN = 9
[32450] WDATA = 75b0f028, WLAST = 0 AWADDR = 8280, AWLEN = 9
[32460] WDATA = 4fff92c8, WLAST = 0 AWADDR = 8280, AWLEN = 9
[32470] WDATA = 86eb0d7c, WLAST = 0 AWADDR = 8280, AWLEN = 9
[32480] BRESP = 10
[32540] RDATA = 00000000, RLAST = 1, RRESP = 10 ARADDR = 8280, ARLEN = 9
[32590] RDATA = 00000000, RLAST = 1, RRESP = 10 ARADDR = dfdc, ARLEN = 15
[32640] RDATA = 00000000, RLAST = 1, RRESP = 10 ARADDR = df70, ARLEN = 6
[32690] WDATA = 7d9eb16d, WLAST = 0 AWADDR = 6a2c, AWLEN = 9
[32700] WDATA = 88e904e1, WLAST = 0 AWADDR = 6a2c, AWLEN = 9
[32710] WDATA = cd4f2c73, WLAST = 0 AWADDR = 6a2c, AWLEN = 9
[32720] WDATA = a27e5dd0, WLAST = 0 AWADDR = 6a2c, AWLEN = 9
[32730] WDATA = c8cc4b72, WLAST = 0 AWADDR = 6a2c, AWLEN = 9
[32740] WDATA = 9a2191c0, WLAST = 0 AWADDR = 6a2c, AWLEN = 9
[32750] WDATA = e6d7101d, WLAST = 0 AWADDR = 6a2c, AWLEN = 9
[32760] WDATA = 4de26477, WLAST = 0 AWADDR = 6a2c, AWLEN = 9
[32770] WDATA = 8f3f6f09, WLAST = 0 AWADDR = 6a2c, AWLEN = 9
[32780] BRESP = 10
[32840] RDATA = 00000000, RLAST = 1, RRESP = 10 ARADDR = 6a2c, ARLEN = 9
[32890] RDATA = 00000000, RLAST = 1, RRESP = 10 ARADDR = 9cfc, ARLEN = 14
[32940] WDATA = 8224d654, WLAST = 0 AWADDR = 8b50, AWLEN = 10
[32950] WDATA = 145668a7, WLAST = 0 AWADDR = 8b50, AWLEN = 10
[32960] WDATA = e6e34b36, WLAST = 0 AWADDR = 8b50, AWLEN = 10
[32970] WDATA = b0cfe1fe, WLAST = 0 AWADDR = 8b50, AWLEN = 10
[32980] WDATA = 83604385, WLAST = 0 AWADDR = 8b50, AWLEN = 10
[32990] WDATA = 5ad966b8, WLAST = 0 AWADDR = 8b50, AWLEN = 10
[33000] WDATA = 99ee7628, WLAST = 0 AWADDR = 8b50, AWLEN = 10
[33010] WDATA = 3867d257, WLAST = 0 AWADDR = 8b50, AWLEN = 10
[33020] WDATA = c7d4ece9, WLAST = 0 AWADDR = 8b50, AWLEN = 10
[33030] WDATA = 83291b14, WLAST = 0 AWADDR = 8b50, AWLEN = 10
[33040] BRESP = 10
[33100] RDATA = 00000000, RLAST = 1, RRESP = 10 ARADDR = 8b50, ARLEN = 10
[33150] RDATA = 00000000, RLAST = 1, RRESP = 10 ARADDR = 9d0c, ARLEN = 3
[33200] RDATA = 00000000, RLAST = 0, RRESP = 00 ARADDR = 02b8, ARLEN = 12
[33220] RDATA = 00000000, RLAST = 0, RRESP = 00 ARADDR = 02b8, ARLEN = 12
[33240] RDATA = 00000000, RLAST = 0, RRESP = 00 ARADDR = 02b8, ARLEN = 12
[33260] RDATA = 00000000, RLAST = 0, RRESP = 00 ARADDR = 02b8, ARLEN = 12
[33280] RDATA = 00000000, RLAST = 0, RRESP = 00 ARADDR = 02b8, ARLEN = 12
[33300] RDATA = 00000000, RLAST = 0, RRESP = 00 ARADDR = 02b8, ARLEN = 12
[33320] RDATA = 00000000, RLAST = 0, RRESP = 00 ARADDR = 02b8, ARLEN = 12
[33340] RDATA = 00000000, RLAST = 0, RRESP = 00 ARADDR = 02b8, ARLEN = 12
[33360] RDATA = 00000000, RLAST = 0, RRESP = 00 ARADDR = 02b8, ARLEN = 12
[33380] RDATA = 00000000, RLAST = 0, RRESP = 00 ARADDR = 02b8, ARLEN = 12
[33400] RDATA = 00000000, RLAST = 0, RRESP = 00 ARADDR = 02b8, ARLEN = 12
[33420] RDATA = 00000000, RLAST = 0, RRESP = 00 ARADDR = 02b8, ARLEN = 12
[33440] RDATA = 00000000, RLAST = 1, RRESP = 00 ARADDR = 02b8, ARLEN = 12
[33490] RDATA = 00000000, RLAST = 1, RRESP = 10 ARADDR = b010, ARLEN = 5
[33540] WDATA = 1c5dec1f, WLAST = 0 AWADDR = e514, AWLEN = 8
[33550] WDATA = 2f0126d0, WLAST = 0 AWADDR = e514, AWLEN = 8
[33560] WDATA = 33a2d65f, WLAST = 0 AWADDR = e514, AWLEN = 8
[33570] WDATA = d252524c, WLAST = 0 AWADDR = e514, AWLEN = 8
[33580] WDATA = c1ce177c, WLAST = 0 AWADDR = e514, AWLEN = 8
[33590] WDATA = bc484174, WLAST = 0 AWADDR = e514, AWLEN = 8
[33600] WDATA = 84c5220b, WLAST = 0 AWADDR = e514, AWLEN = 8
[33610] WDATA = 1cff992c, WLAST = 0 AWADDR = e514, AWLEN = 8
[33620] BRESP = 10
[33680] RDATA = 00000000, RLAST = 1, RRESP = 10 ARADDR = e514, ARLEN = 8
[33730] RDATA = 00000000, RLAST = 1, RRESP = 10 ARADDR = 77ec, ARLEN = 2
[33780] WDATA = 8855dc3a, WLAST = 0 AWADDR = 385c, AWLEN = 14
[33790] WDATA = 853e3ed8, WLAST = 0 AWADDR = 385c, AWLEN = 14
[33800] WDATA = a5994fd8, WLAST = 0 AWADDR = 385c, AWLEN = 14
[33810] WDATA = 66c6d41e, WLAST = 0 AWADDR = 385c, AWLEN = 14
[33820] WDATA = 18a86f84, WLAST = 0 AWADDR = 385c, AWLEN = 14
[33830] WDATA = dbfd9283, WLAST = 0 AWADDR = 385c, AWLEN = 14
[33840] WDATA = b7cb4aad, WLAST = 0 AWADDR = 385c, AWLEN = 14
[33850] WDATA = 2f6aacd7, WLAST = 0 AWADDR = 385c, AWLEN = 14
[33860] WDATA = 5605002b, WLAST = 0 AWADDR = 385c, AWLEN = 14
[33870] WDATA = 7a6f2e34, WLAST = 0 AWADDR = 385c, AWLEN = 14
[33880] WDATA = 3dbf1772, WLAST = 0 AWADDR = 385c, AWLEN = 14
[33890] WDATA = 16dadc18, WLAST = 0 AWADDR = 385c, AWLEN = 14
[33900] WDATA = b777acf1, WLAST = 0 AWADDR = 385c, AWLEN = 14
[33910] WDATA = 2bdc79ac, WLAST = 0 AWADDR = 385c, AWLEN = 14
[33920] BRESP = 10
[33980] RDATA = 00000000, RLAST = 1, RRESP = 10 ARADDR = 385c, ARLEN = 14
[34030] RDATA = 00000000, RLAST = 0, RRESP = 00 ARADDR = 0310, ARLEN = 8
[34050] RDATA = 00000000, RLAST = 0, RRESP = 00 ARADDR = 0310, ARLEN = 8
[34070] RDATA = 00000000, RLAST = 0, RRESP = 00 ARADDR = 0310, ARLEN = 8
[34090] RDATA = 00000000, RLAST = 0, RRESP = 00 ARADDR = 0310, ARLEN = 8
[34110] RDATA = 00000000, RLAST = 0, RRESP = 00 ARADDR = 0310, ARLEN = 8
[34130] RDATA = 00000000, RLAST = 0, RRESP = 00 ARADDR = 0310, ARLEN = 8
[34150] RDATA = 00000000, RLAST = 0, RRESP = 00 ARADDR = 0310, ARLEN = 8
[34170] RDATA = 00000000, RLAST = 0, RRESP = 00 ARADDR = 0310, ARLEN = 8
[34190] RDATA = 00000000, RLAST = 1, RRESP = 00 ARADDR = 0310, ARLEN = 8
[34240] RDATA = 00000000, RLAST = 1, RRESP = 10 ARADDR = 9c48, ARLEN = 14
[34290] RDATA = 00000000, RLAST = 1, RRESP = 10 ARADDR = 3954, ARLEN = 2
[34340] WDATA = 8dac04c3, WLAST = 0 AWADDR = 70d0, AWLEN = 5
[34350] WDATA = c4d478ef, WLAST = 0 AWADDR = 70d0, AWLEN = 5
[34360] WDATA = 68bfd503, WLAST = 0 AWADDR = 70d0, AWLEN = 5
[34370] WDATA = 8b8f3731, WLAST = 0 AWADDR = 70d0, AWLEN = 5
[34380] WDATA = 920e06e0, WLAST = 0 AWADDR = 70d0, AWLEN = 5
[34390] BRESP = 10
[34450] RDATA = 00000000, RLAST = 1, RRESP = 10 ARADDR = 70d0, ARLEN = 5
[34500] RDATA = 00000000, RLAST = 0, RRESP = 00 ARADDR = 01a4, ARLEN = 3
[34520] RDATA = 00000000, RLAST = 0, RRESP = 00 ARADDR = 01a4, ARLEN = 3
[34540] RDATA = 00000000, RLAST = 0, RRESP = 00 ARADDR = 01a4, ARLEN = 3
[34560] RDATA = 00000000, RLAST = 1, RRESP = 00 ARADDR = 01a4, ARLEN = 3
[34610] WDATA = 8bc93c75, WLAST = 0 AWADDR = 2fa4, AWLEN = 9
[34620] WDATA = cfc775ba, WLAST = 0 AWADDR = 2fa4, AWLEN = 9
[34630] WDATA = 4b4e559a, WLAST = 0 AWADDR = 2fa4, AWLEN = 9
[34640] WDATA = c3d8f28c, WLAST = 0 AWADDR = 2fa4, AWLEN = 9
[34650] WDATA = 4020c13c, WLAST = 0 AWADDR = 2fa4, AWLEN = 9
[34660] WDATA = 8bc36437, WLAST = 0 AWADDR = 2fa4, AWLEN = 9
[34670] WDATA = 55a641a8, WLAST = 0 AWADDR = 2fa4, AWLEN = 9
[34680] WDATA = 22002cad, WLAST = 0 AWADDR = 2fa4, AWLEN = 9
[34690] WDATA = d49b704d, WLAST = 0 AWADDR = 2fa4, AWLEN = 9
[34700] BRESP = 10
[34760] RDATA = 00000000, RLAST = 1, RRESP = 10 ARADDR = 2fa4, ARLEN = 9
[34810] WDATA = 8acef7fe, WLAST = 0 AWADDR = 92a0, AWLEN = 14
[34820] WDATA = 092a8ac6, WLAST = 0 AWADDR = 92a0, AWLEN = 14
[34830] WDATA = 14b4a52d, WLAST = 0 AWADDR = 92a0, AWLEN = 14
[34840] WDATA = fafbd97d, WLAST = 0 AWADDR = 92a0, AWLEN = 14
[34850] WDATA = 32b43a34, WLAST = 0 AWADDR = 92a0, AWLEN = 14
[34860] WDATA = e24944b9, WLAST = 0 AWADDR = 92a0, AWLEN = 14
[34870] WDATA = a5bbf55d, WLAST = 0 AWADDR = 92a0, AWLEN = 14
[34880] WDATA = 2c6f69bd, WLAST = 0 AWADDR = 92a0, AWLEN = 14
[34890] WDATA = 43d48f86, WLAST = 0 AWADDR = 92a0, AWLEN = 14
[34900] WDATA = 12ccf5f8, WLAST = 0 AWADDR = 92a0, AWLEN = 14
[34910] WDATA = 40efd37b, WLAST = 0 AWADDR = 92a0, AWLEN = 14
[34920] WDATA = ab985aae, WLAST = 0 AWADDR = 92a0, AWLEN = 14
[34930] WDATA = e4a0f597, WLAST = 0 AWADDR = 92a0, AWLEN = 14
[34940] WDATA = d1597b29, WLAST = 0 AWADDR = 92a0, AWLEN = 14
[34950] BRESP = 10
[35010] RDATA = 00000000, RLAST = 1, RRESP = 10 ARADDR = 92a0, ARLEN = 14
[35060] WDATA = c295bdfb, WLAST = 0 AWADDR = cf08, AWLEN = 1
[35070] BRESP = 10
[35130] RDATA = 00000000, RLAST = 1, RRESP = 10 ARADDR = cf08, ARLEN = 1
[35180] WDATA = e19b7fbf, WLAST = 0 AWADDR = 14f4, AWLEN = 14
[35190] WDATA = 6669d25f, WLAST = 0 AWADDR = 14f4, AWLEN = 14
[35200] WDATA = 8fdae42b, WLAST = 0 AWADDR = 14f4, AWLEN = 14
[35210] WDATA = 56ddb360, WLAST = 0 AWADDR = 14f4, AWLEN = 14
[35220] WDATA = 13707049, WLAST = 0 AWADDR = 14f4, AWLEN = 14
[35230] WDATA = 55d8e745, WLAST = 0 AWADDR = 14f4, AWLEN = 14
[35240] WDATA = 5465585a, WLAST = 0 AWADDR = 14f4, AWLEN = 14
[35250] WDATA = d8a3db31, WLAST = 0 AWADDR = 14f4, AWLEN = 14
[35260] WDATA = e06deca4, WLAST = 0 AWADDR = 14f4, AWLEN = 14
[35270] WDATA = 0774daac, WLAST = 0 AWADDR = 14f4, AWLEN = 14
[35280] WDATA = d9d0f494, WLAST = 0 AWADDR = 14f4, AWLEN = 14
[35290] WDATA = 0134db5d, WLAST = 0 AWADDR = 14f4, AWLEN = 14
[35300] WDATA = 679f52f4, WLAST = 0 AWADDR = 14f4, AWLEN = 14
[35310] WDATA = a428895b, WLAST = 0 AWADDR = 14f4, AWLEN = 14
[35320] BRESP = 10
[35380] RDATA = 00000000, RLAST = 1, RRESP = 10 ARADDR = 14f4, ARLEN = 14
[35430] RDATA = 00000000, RLAST = 1, RRESP = 10 ARADDR = 72b4, ARLEN = 9
[35480] WDATA = 69d8c020, WLAST = 0 AWADDR = a5ac, AWLEN = 3
[35490] WDATA = e62fb043, WLAST = 0 AWADDR = a5ac, AWLEN = 3
[35500] WDATA = c5d84b4d, WLAST = 0 AWADDR = a5ac, AWLEN = 3
[35510] BRESP = 10
[35570] RDATA = 00000000, RLAST = 1, RRESP = 10 ARADDR = a5ac, ARLEN = 3
[35620] RDATA = 00000000, RLAST = 1, RRESP = 10 ARADDR = 6cd8, ARLEN = 8
