[25] ARADDR = 0338, ARLEN = 6
[45] RDATA = 00000000, RLAST = 0, RRESP = 00
[65] RDATA = 00000000, RLAST = 0, RRESP = 00
[85] RDATA = 00000000, RLAST = 0, RRESP = 00
[105] RDATA = 00000000, RLAST = 0, RRESP = 00
[125] RDATA = 00000000, RLAST = 0, RRESP = 00
[145] RDATA = 00000000, RLAST = 0, RRESP = 00
[165] RDATA = 00000000, RLAST = 1, RRESP = 00
[185] AWADDR = 568c, AWLEN = 4
[205] WDATA = 17e9241c, WLAST = 0
[215] WDATA = a3ea30be, WLAST = 0
[225] WDATA = 12f806fd, WLAST = 0
[235] WDATA = 3fb8d2d8, WLAST = 0
[245] WDATA = 88daf049, WLAST = 1
[255] BRESP = 10
[275] ARADDR = 568c, ARLEN = 4
[295] RDATA = 00000000, RLAST = 0, RRESP = 10
[315] RDATA = 00000000, RLAST = 0, RRESP = 10
[335] RDATA = 00000000, RLAST = 0, RRESP = 10
[355] RDATA = 00000000, RLAST = 0, RRESP = 10
[375] RDATA = 00000000, RLAST = 1, RRESP = 10
[395] ARADDR = 1998, ARLEN = 0
[415] RDATA = 00000000, RLAST = 1, RRESP = 10
[435] AWADDR = 7598, AWLEN = 14
[455] WDATA = 536bf2a0, WLAST = 0
[465] WDATA = 76d40342, WLAST = 0
[475] WDATA = f731fc33, WLAST = 0
[485] WDATA = 2a7dc54c, WLAST = 0
[495] WDATA = caf5baf4, WLAST = 0
[505] WDATA = caa56f5e, WLAST = 0
[515] WDATA = 5fa3b47f, WLAST = 0
[525] WDATA = 3e0f89da, WLAST = 0
[535] WDATA = f3cd9f14, WLAST = 0
[545] WDATA = 9c3b23a2, WLAST = 0
[555] WDATA = 60370af1, WLAST = 0
[565] WDATA = 158f2193, WLAST = 0
[575] WDATA = b7c69af8, WLAST = 0
[585] WDATA = 35be01fe, WLAST = 0
[595] WDATA = 68aa371e, WLAST = 1
[605] BRESP = 10
[625] ARADDR = 7598, ARLEN = 14
[645] RDATA = 00000000, RLAST = 0, RRESP = 10
[665] RDATA = 00000000, RLAST = 0, RRESP = 10
[685] RDATA = 00000000, RLAST = 0, RRESP = 10
[705] RDATA = 00000000, RLAST = 0, RRESP = 10
[725] RDATA = 00000000, RLAST = 0, RRESP = 10
[745] RDATA = 00000000, RLAST = 0, RRESP = 10
[765] RDATA = 00000000, RLAST = 0, RRESP = 10
[785] RDATA = 00000000, RLAST = 0, RRESP = 10
[805] RDATA = 00000000, RLAST = 0, RRESP = 10
[825] RDATA = 00000000, RLAST = 0, RRESP = 10
[845] RDATA = 00000000, RLAST = 0, RRESP = 10
[865] RDATA = 00000000, RLAST = 0, RRESP = 10
[885] RDATA = 00000000, RLAST = 0, RRESP = 10
[905] RDATA = 00000000, RLAST = 0, RRESP = 10
[925] RDATA = 00000000, RLAST = 1, RRESP = 10
[945] ARADDR = 8a54, ARLEN = 12
[965] RDATA = 00000000, RLAST = 0, RRESP = 10
[985] RDATA = 00000000, RLAST = 0, RRESP = 10
[1005] RDATA = 00000000, RLAST = 0, RRESP = 10
[1025] RDATA = 00000000, RLAST = 0, RRESP = 10
[1045] RDATA = 00000000, RLAST = 0, RRESP = 10
[1065] RDATA = 00000000, RLAST = 0, RRESP = 10
[1085] RDATA = 00000000, RLAST = 0, RRESP = 10
[1105] RDATA = 00000000, RLAST = 0, RRESP = 10
[1125] RDATA = 00000000, RLAST = 0, RRESP = 10
[1145] RDATA = 00000000, RLAST = 0, RRESP = 10
[1165] RDATA = 00000000, RLAST = 0, RRESP = 10
[1185] RDATA = 00000000, RLAST = 0, RRESP = 10
[1205] RDATA = 00000000, RLAST = 1, RRESP = 10
[1225] AWADDR = 8bb0, AWLEN = 12
[1245] WDATA = 0761ff90, WLAST = 0
[1255] WDATA = 6e6c5daf, WLAST = 0
[1265] WDATA = a3d604fd, WLAST = 0
[1275] WDATA = 628101e5, WLAST = 0
[1285] WDATA = 27746d80, WLAST = 0
[1295] WDATA = 834d4a9a, WLAST = 0
[1305] WDATA = 6feeba1e, WLAST = 0
[1315] WDATA = 6bb58161, WLAST = 0
[1325] WDATA = 1922f3e6, WLAST = 0
[1335] WDATA = da0749bb, WLAST = 0
[1345] WDATA = 607a5854, WLAST = 0
[1355] WDATA = 59da0bef, WLAST = 0
[1365] WDATA = 7a518c92, WLAST = 1
[1375] BRESP = 10
[1395] ARADDR = 8bb0, ARLEN = 12
[1415] RDATA = 00000000, RLAST = 0, RRESP = 10
[1435] RDATA = 00000000, RLAST = 0, RRESP = 10
[1455] RDATA = 00000000, RLAST = 0, RRESP = 10
[1475] RDATA = 00000000, RLAST = 0, RRESP = 10
[1495] RDATA = 00000000, RLAST = 0, RRESP = 10
[1515] RDATA = 00000000, RLAST = 0, RRESP = 10
[1535] RDATA = 00000000, RLAST = 0, RRESP = 10
[1555] RDATA = 00000000, RLAST = 0, RRESP = 10
[1575] RDATA = 00000000, RLAST = 0, RRESP = 10
[1595] RDATA = 00000000, RLAST = 0, RRESP = 10
[1615] RDATA = 00000000, RLAST = 0, RRESP = 10
[1635] RDATA = 00000000, RLAST = 0, RRESP = 10
[1655] RDATA = 00000000, RLAST = 1, RRESP = 10
[1675] ARADDR = ac70, ARLEN = 9
[1695] RDATA = 00000000, RLAST = 0, RRESP = 10
[1715] RDATA = 00000000, RLAST = 0, RRESP = 10
[1735] RDATA = 00000000, RLAST = 0, RRESP = 10
[1755] RDATA = 00000000, RLAST = 0, RRESP = 10
[1775] RDATA = 00000000, RLAST = 0, RRESP = 10
[1795] RDATA = 00000000, RLAST = 0, RRESP = 10
[1815] RDATA = 00000000, RLAST = 0, RRESP = 10
[1835] RDATA = 00000000, RLAST = 0, RRESP = 10
[1855] RDATA = 00000000, RLAST = 0, RRESP = 10
[1875] RDATA = 00000000, RLAST = 1, RRESP = 10
[1895] ARADDR = daa8, ARLEN = 2
[1915] RDATA = 00000000, RLAST = 0, RRESP = 10
[1935] RDATA = 00000000, RLAST = 0, RRESP = 10
[1955] RDATA = 00000000, RLAST = 1, RRESP = 10
[1975] ARADDR = ea30, ARLEN = 12
[1995] RDATA = 00000000, RLAST = 0, RRESP = 10
[2015] RDATA = 00000000, RLAST = 0, RRESP = 10
[2035] RDATA = 00000000, RLAST = 0, RRESP = 10
[2055] RDATA = 00000000, RLAST = 0, RRESP = 10
[2075] RDATA = 00000000, RLAST = 0, RRESP = 10
[2095] RDATA = 00000000, RLAST = 0, RRESP = 10
[2115] RDATA = 00000000, RLAST = 0, RRESP = 10
[2135] RDATA = 00000000, RLAST = 0, RRESP = 10
[2155] RDATA = 00000000, RLAST = 0, RRESP = 10
[2175] RDATA = 00000000, RLAST = 0, RRESP = 10
[2195] RDATA = 00000000, RLAST = 0, RRESP = 10
[2215] RDATA = 00000000, RLAST = 0, RRESP = 10
[2235] RDATA = 00000000, RLAST = 1, RRESP = 10
[2255] ARADDR = f028, ARLEN = 8
[2275] RDATA = 00000000, RLAST = 0, RRESP = 10
[2295] RDATA = 00000000, RLAST = 0, RRESP = 10
[2315] RDATA = 00000000, RLAST = 0, RRESP = 10
[2335] RDATA = 00000000, RLAST = 0, RRESP = 10
[2355] RDATA = 00000000, RLAST = 0, RRESP = 10
[2375] RDATA = 00000000, RLAST = 0, RRESP = 10
[2395] RDATA = 00000000, RLAST = 0, RRESP = 10
[2415] RDATA = 00000000, RLAST = 0, RRESP = 10
[2435] RDATA = 00000000, RLAST = 1, RRESP = 10
[2455] ARADDR = 50f0, ARLEN = 9
[2475] RDATA = 00000000, RLAST = 0, RRESP = 10
[2495] RDATA = 00000000, RLAST = 0, RRESP = 10
[2515] RDATA = 00000000, RLAST = 0, RRESP = 10
[2535] RDATA = 00000000, RLAST = 0, RRESP = 10
[2555] RDATA = 00000000, RLAST = 0, RRESP = 10
[2575] RDATA = 00000000, RLAST = 0, RRESP = 10
[2595] RDATA = 00000000, RLAST = 0, RRESP = 10
[2615] RDATA = 00000000, RLAST = 0, RRESP = 10
[2635] RDATA = 00000000, RLAST = 0, RRESP = 10
[2655] RDATA = 00000000, RLAST = 1, RRESP = 10
[2675] ARADDR = dfe8, ARLEN = 12
[2695] RDATA = 00000000, RLAST = 0, RRESP = 10
[2715] RDATA = 00000000, RLAST = 0, RRESP = 10
[2735] RDATA = 00000000, RLAST = 0, RRESP = 10
[2755] RDATA = 00000000, RLAST = 0, RRESP = 10
[2775] RDATA = 00000000, RLAST = 0, RRESP = 10
[2795] RDATA = 00000000, RLAST = 0, RRESP = 10
[2815] RDATA = 00000000, RLAST = 0, RRESP = 10
[2835] RDATA = 00000000, RLAST = 0, RRESP = 10
[2855] RDATA = 00000000, RLAST = 0, RRESP = 10
[2875] RDATA = 00000000, RLAST = 0, RRESP = 10
[2895] RDATA = 00000000, RLAST = 0, RRESP = 10
[2915] RDATA = 00000000, RLAST = 0, RRESP = 10
[2935] RDATA = 00000000, RLAST = 1, RRESP = 10
[2955] AWADDR = d98c, AWLEN = 12
[2975] WDATA = 7da76e9a, WLAST = 0
[2985] WDATA = cdaec229, WLAST = 0
[2995] WDATA = fb3c8774, WLAST = 0
[3005] WDATA = c9b6e6fa, WLAST = 0
[3015] WDATA = 4aec3eda, WLAST = 0
[3025] WDATA = 77e1e11e, WLAST = 0
[3035] WDATA = 75f7fb57, WLAST = 0
[3045] WDATA = c4d7da20, WLAST = 0
[3055] WDATA = 624c10d4, WLAST = 0
[3065] WDATA = 6cfb28af, WLAST = 0
[3075] WDATA = 93c6d867, WLAST = 0
[3085] WDATA = 48a0b46e, WLAST = 0
[3095] WDATA = 879a1c79, WLAST = 1
[3105] BRESP = 10
[3125] ARADDR = d98c, ARLEN = 12
[3145] RDATA = 00000000, RLAST = 0, RRESP = 10
[3165] RDATA = 00000000, RLAST = 0, RRESP = 10
[3185] RDATA = 00000000, RLAST = 0, RRESP = 10
[3205] RDATA = 00000000, RLAST = 0, RRESP = 10
[3225] RDATA = 00000000, RLAST = 0, RRESP = 10
[3245] RDATA = 00000000, RLAST = 0, RRESP = 10
[3265] RDATA = 00000000, RLAST = 0, RRESP = 10
[3285] RDATA = 00000000, RLAST = 0, RRESP = 10
[3305] RDATA = 00000000, RLAST = 0, RRESP = 10
[3325] RDATA = 00000000, RLAST = 0, RRESP = 10
[3345] RDATA = 00000000, RLAST = 0, RRESP = 10
[3365] RDATA = 00000000, RLAST = 0, RRESP = 10
[3385] RDATA = 00000000, RLAST = 1, RRESP = 10
[3405] AWADDR = c478, AWLEN = 14
[3425] WDATA = c1698986, WLAST = 0
[3435] WDATA = d1a0e9c7, WLAST = 0
[3445] WDATA = 5eaa6316, WLAST = 0
[3455] WDATA = d064af1c, WLAST = 0
[3465] WDATA = b8a577e0, WLAST = 0
[3475] WDATA = 1d2a48c0, WLAST = 0
[3485] WDATA = e9a5e084, WLAST = 0
[3495] WDATA = dc451cb8, WLAST = 0
[3505] WDATA = a76cfc12, WLAST = 0
[3515] WDATA = 004d2f0e, WLAST = 0
[3525] WDATA = 7d04ec1e, WLAST = 0
[3535] WDATA = 6d0afe29, WLAST = 0
[3545] WDATA = 620c32b9, WLAST = 0
[3555] WDATA = 24ff0f82, WLAST = 0
[3565] WDATA = 64d9c4cc, WLAST = 1
[3575] BRESP = 10
[3595] ARADDR = c478, ARLEN = 14
[3615] RDATA = 00000000, RLAST = 0, RRESP = 10
[3635] RDATA = 00000000, RLAST = 0, RRESP = 10
[3655] RDATA = 00000000, RLAST = 0, RRESP = 10
[3675] RDATA = 00000000, RLAST = 0, RRESP = 10
[3695] RDATA = 00000000, RLAST = 0, RRESP = 10
[3715] RDATA = 00000000, RLAST = 0, RRESP = 10
[3735] RDATA = 00000000, RLAST = 0, RRESP = 10
[3755] RDATA = 00000000, RLAST = 0, RRESP = 10
[3775] RDATA = 00000000, RLAST = 0, RRESP = 10
[3795] RDATA = 00000000, RLAST = 0, RRESP = 10
[3815] RDATA = 00000000, RLAST = 0, RRESP = 10
[3835] RDATA = 00000000, RLAST = 0, RRESP = 10
[3855] RDATA = 00000000, RLAST = 0, RRESP = 10
[3875] RDATA = 00000000, RLAST = 0, RRESP = 10
[3895] RDATA = 00000000, RLAST = 1, RRESP = 10
[3915] ARADDR = 9e9c, ARLEN = 3
[3935] RDATA = 00000000, RLAST = 0, RRESP = 10
[3955] RDATA = 00000000, RLAST = 0, RRESP = 10
[3975] RDATA = 00000000, RLAST = 0, RRESP = 10
[3995] RDATA = 00000000, RLAST = 1, RRESP = 10
[4015] AWADDR = c324, AWLEN = 8
[4035] WDATA = 761dbcb9, WLAST = 0
[4045] WDATA = 55768587, WLAST = 0
[4055] WDATA = 6f56b344, WLAST = 0
[4065] WDATA = 6996a1ba, WLAST = 0
[4075] WDATA = f4c3cd25, WLAST = 0
[4085] WDATA = 18b08f47, WLAST = 0
[4095] WDATA = 7406ff8b, WLAST = 0
[4105] WDATA = 8817a112, WLAST = 0
[4115] WDATA = fa4e2af2, WLAST = 1
[4125] BRESP = 10
[4145] ARADDR = c324, ARLEN = 8
[4165] RDATA = 00000000, RLAST = 0, RRESP = 10
[4185] RDATA = 00000000, RLAST = 0, RRESP = 10
[4205] RDATA = 00000000, RLAST = 0, RRESP = 10
[4225] RDATA = 00000000, RLAST = 0, RRESP = 10
[4245] RDATA = 00000000, RLAST = 0, RRESP = 10
[4265] RDATA = 00000000, RLAST = 0, RRESP = 10
[4285] RDATA = 00000000, RLAST = 0, RRESP = 10
[4305] RDATA = 00000000, RLAST = 0, RRESP = 10
[4325] RDATA = 00000000, RLAST = 1, RRESP = 10
[4345] ARADDR = 8ca4, ARLEN = 6
[4365] RDATA = 00000000, RLAST = 0, RRESP = 10
[4385] RDATA = 00000000, RLAST = 0, RRESP = 10
[4405] RDATA = 00000000, RLAST = 0, RRESP = 10
[4425] RDATA = 00000000, RLAST = 0, RRESP = 10
[4445] RDATA = 00000000, RLAST = 0, RRESP = 10
[4465] RDATA = 00000000, RLAST = 0, RRESP = 10
[4485] RDATA = 00000000, RLAST = 1, RRESP = 10
[4505] ARADDR = ae64, ARLEN = 12
[4525] RDATA = 00000000, RLAST = 0, RRESP = 10
[4545] RDATA = 00000000, RLAST = 0, RRESP = 10
[4565] RDATA = 00000000, RLAST = 0, RRESP = 10
[4585] RDATA = 00000000, RLAST = 0, RRESP = 10
[4605] RDATA = 00000000, RLAST = 0, RRESP = 10
[4625] RDATA = 00000000, RLAST = 0, RRESP = 10
[4645] RDATA = 00000000, RLAST = 0, RRESP = 10
[4665] RDATA = 00000000, RLAST = 0, RRESP = 10
[4685] RDATA = 00000000, RLAST = 0, RRESP = 10
[4705] RDATA = 00000000, RLAST = 0, RRESP = 10
[4725] RDATA = 00000000, RLAST = 0, RRESP = 10
[4745] RDATA = 00000000, RLAST = 0, RRESP = 10
[4765] RDATA = 00000000, RLAST = 1, RRESP = 10
[4785] AWADDR = ef24, AWLEN = 10
[4805] WDATA = 8d5db9ed, WLAST = 0
[4815] WDATA = 859a0f0e, WLAST = 0
[4825] WDATA = ef156ff5, WLAST = 0
[4835] WDATA = 4059e16f, WLAST = 0
[4845] WDATA = f962e7d4, WLAST = 0
[4855] WDATA = 6b289132, WLAST = 0
[4865] WDATA = 66603c3e, WLAST = 0
[4875] WDATA = a878807a, WLAST = 0
[4885] WDATA = 783b1785, WLAST = 0
[4895] WDATA = 35731634, WLAST = 0
[4905] WDATA = 933a42b6, WLAST = 1
[4915] BRESP = 10
[4935] ARADDR = ef24, ARLEN = 10
[4955] RDATA = 00000000, RLAST = 0, RRESP = 10
[4975] RDATA = 00000000, RLAST = 0, RRESP = 10
[4995] RDATA = 00000000, RLAST = 0, RRESP = 10
[5015] RDATA = 00000000, RLAST = 0, RRESP = 10
[5035] RDATA = 00000000, RLAST = 0, RRESP = 10
[5055] RDATA = 00000000, RLAST = 0, RRESP = 10
[5075] RDATA = 00000000, RLAST = 0, RRESP = 10
[5095] RDATA = 00000000, RLAST = 0, RRESP = 10
[5115] RDATA = 00000000, RLAST = 0, RRESP = 10
[5135] RDATA = 00000000, RLAST = 0, RRESP = 10
[5155] RDATA = 00000000, RLAST = 1, RRESP = 10
[5175] ARADDR = 230c, ARLEN = 15
[5195] RDATA = 00000000, RLAST = 0, RRESP = 10
[5215] RDATA = 00000000, RLAST = 0, RRESP = 10
[5235] RDATA = 00000000, RLAST = 0, RRESP = 10
[5255] RDATA = 00000000, RLAST = 0, RRESP = 10
[5275] RDATA = 00000000, RLAST = 0, RRESP = 10
[5295] RDATA = 00000000, RLAST = 0, RRESP = 10
[5315] RDATA = 00000000, RLAST = 0, RRESP = 10
[5335] RDATA = 00000000, RLAST = 0, RRESP = 10
[5355] RDATA = 00000000, RLAST = 0, RRESP = 10
[5375] RDATA = 00000000, RLAST = 0, RRESP = 10
[5395] RDATA = 00000000, RLAST = 0, RRESP = 10
[5415] RDATA = 00000000, RLAST = 0, RRESP = 10
[5435] RDATA = 00000000, RLAST = 0, RRESP = 10
[5455] RDATA = 00000000, RLAST = 0, RRESP = 10
[5475] RDATA = 00000000, RLAST = 0, RRESP = 10
[5495] RDATA = 00000000, RLAST = 1, RRESP = 10
[5515] AWADDR = 9050, AWLEN = 3
[5535] WDATA = 23890aa1, WLAST = 0
[5545] WDATA = efec1c1d, WLAST = 0
[5555] WDATA = f57d8ca5, WLAST = 0
[5565] WDATA = 10316194, WLAST = 1
[5575] BRESP = 10
[5595] ARADDR = 9050, ARLEN = 3
[5615] RDATA = 00000000, RLAST = 0, RRESP = 10
[5635] RDATA = 00000000, RLAST = 0, RRESP = 10
[5655] RDATA = 00000000, RLAST = 0, RRESP = 10
[5675] RDATA = 00000000, RLAST = 1, RRESP = 10
[5695] AWADDR = 6878, AWLEN = 11
[5715] WDATA = 1e1b947e, WLAST = 0
[5725] WDATA = a69088d2, WLAST = 0
[5735] WDATA = 590aabba, WLAST = 0
[5745] WDATA = c6a79f1a, WLAST = 0
[5755] WDATA = 6b6d7405, WLAST = 0
[5765] WDATA = 5bfb6eab, WLAST = 0
[5775] WDATA = 616d7b91, WLAST = 0
[5785] WDATA = 5a1eb794, WLAST = 0
[5795] WDATA = 88dec535, WLAST = 0
[5805] WDATA = bb175102, WLAST = 0
[5815] WDATA = 5df41fde, WLAST = 0
[5825] WDATA = 9404c836, WLAST = 1
[5835] BRESP = 10
[5855] ARADDR = 6878, ARLEN = 11
[5875] RDATA = 00000000, RLAST = 0, RRESP = 10
[5895] RDATA = 00000000, RLAST = 0, RRESP = 10
[5915] RDATA = 00000000, RLAST = 0, RRESP = 10
[5935] RDATA = 00000000, RLAST = 0, RRESP = 10
[5955] RDATA = 00000000, RLAST = 0, RRESP = 10
[5975] RDATA = 00000000, RLAST = 0, RRESP = 10
[5995] RDATA = 00000000, RLAST = 0, RRESP = 10
[6015] RDATA = 00000000, RLAST = 0, RRESP = 10
[6035] RDATA = 00000000, RLAST = 0, RRESP = 10
[6055] RDATA = 00000000, RLAST = 0, RRESP = 10
[6075] RDATA = 00000000, RLAST = 0, RRESP = 10
[6095] RDATA = 00000000, RLAST = 1, RRESP = 10
[6115] AWADDR = bf14, AWLEN = 9
[6135] WDATA = 2bd19f5c, WLAST = 0
[6145] WDATA = 81107ce4, WLAST = 0
[6155] WDATA = 1b968aca, WLAST = 0
[6165] WDATA = cd7881d9, WLAST = 0
[6175] WDATA = cdf3366b, WLAST = 0
[6185] WDATA = 9e15f151, WLAST = 0
[6195] WDATA = 69d4a90f, WLAST = 0
[6205] WDATA = bef928a8, WLAST = 0
[6215] WDATA = 80125c44, WLAST = 0
[6225] WDATA = a9d5e67b, WLAST = 1
[6235] BRESP = 10
[6255] ARADDR = bf14, ARLEN = 9
[6275] RDATA = 00000000, RLAST = 0, RRESP = 10
[6295] RDATA = 00000000, RLAST = 0, RRESP = 10
[6315] RDATA = 00000000, RLAST = 0, RRESP = 10
[6335] RDATA = 00000000, RLAST = 0, RRESP = 10
[6355] RDATA = 00000000, RLAST = 0, RRESP = 10
[6375] RDATA = 00000000, RLAST = 0, RRESP = 10
[6395] RDATA = 00000000, RLAST = 0, RRESP = 10
[6415] RDATA = 00000000, RLAST = 0, RRESP = 10
[6435] RDATA = 00000000, RLAST = 0, RRESP = 10
[6455] RDATA = 00000000, RLAST = 1, RRESP = 10
[6475] AWADDR = 6238, AWLEN = 7
[6495] WDATA = 45ac0489, WLAST = 0
[6505] WDATA = 6a9574e8, WLAST = 0
[6515] WDATA = eeb876fa, WLAST = 0
[6525] WDATA = d79bc853, WLAST = 0
[6535] WDATA = 2dc29e1f, WLAST = 0
[6545] WDATA = c0322177, WLAST = 0
[6555] WDATA = 9bc85e7c, WLAST = 0
[6565] WDATA = 2eb72eea, WLAST = 1
[6575] BRESP = 10
[6595] ARADDR = 6238, ARLEN = 7
[6615] RDATA = 00000000, RLAST = 0, RRESP = 10
[6635] RDATA = 00000000, RLAST = 0, RRESP = 10
[6655] RDATA = 00000000, RLAST = 0, RRESP = 10
[6675] RDATA = 00000000, RLAST = 0, RRESP = 10
[6695] RDATA = 00000000, RLAST = 0, RRESP = 10
[6715] RDATA = 00000000, RLAST = 0, RRESP = 10
[6735] RDATA = 00000000, RLAST = 0, RRESP = 10
[6755] RDATA = 00000000, RLAST = 1, RRESP = 10
[6775] ARADDR = a828, ARLEN = 6
[6795] RDATA = 00000000, RLAST = 0, RRESP = 10
[6815] RDATA = 00000000, RLAST = 0, RRESP = 10
[6835] RDATA = 00000000, RLAST = 0, RRESP = 10
[6855] RDATA = 00000000, RLAST = 0, RRESP = 10
[6875] RDATA = 00000000, RLAST = 0, RRESP = 10
[6895] RDATA = 00000000, RLAST = 0, RRESP = 10
[6915] RDATA = 00000000, RLAST = 1, RRESP = 10
[6935] ARADDR = aaa4, ARLEN = 6
[6955] RDATA = 00000000, RLAST = 0, RRESP = 10
[6975] RDATA = 00000000, RLAST = 0, RRESP = 10
[6995] RDATA = 00000000, RLAST = 0, RRESP = 10
[7015] RDATA = 00000000, RLAST = 0, RRESP = 10
[7035] RDATA = 00000000, RLAST = 0, RRESP = 10
[7055] RDATA = 00000000, RLAST = 0, RRESP = 10
[7075] RDATA = 00000000, RLAST = 1, RRESP = 10
[7095] AWADDR = 7268, AWLEN = 8
[7115] WDATA = cf897bba, WLAST = 0
[7125] WDATA = feeed971, WLAST = 0
[7135] WDATA = 454a6765, WLAST = 0
[7145] WDATA = 5a69588c, WLAST = 0
[7155] WDATA = e3ee2f01, WLAST = 0
[7165] WDATA = 152a72e3, WLAST = 0
[7175] WDATA = 3c544b5c, WLAST = 0
[7185] WDATA = 0447c912, WLAST = 0
[7195] WDATA = 83b6a3dc, WLAST = 1
[7205] BRESP = 10
[7225] ARADDR = 7268, ARLEN = 8
[7245] RDATA = 00000000, RLAST = 0, RRESP = 10
[7265] RDATA = 00000000, RLAST = 0, RRESP = 10
[7285] RDATA = 00000000, RLAST = 0, RRESP = 10
[7305] RDATA = 00000000, RLAST = 0, RRESP = 10
[7325] RDATA = 00000000, RLAST = 0, RRESP = 10
[7345] RDATA = 00000000, RLAST = 0, RRESP = 10
[7365] RDATA = 00000000, RLAST = 0, RRESP = 10
[7385] RDATA = 00000000, RLAST = 0, RRESP = 10
[7405] RDATA = 00000000, RLAST = 1, RRESP = 10
[7425] AWADDR = b3a8, AWLEN = 2
[7445] WDATA = 6cabc795, WLAST = 0
[7455] WDATA = bd2316b9, WLAST = 0
[7465] WDATA = 932ca5dd, WLAST = 1
[7475] BRESP = 10
[7495] ARADDR = b3a8, ARLEN = 2
[7515] RDATA = 00000000, RLAST = 0, RRESP = 10
[7535] RDATA = 00000000, RLAST = 0, RRESP = 10
[7555] RDATA = 00000000, RLAST = 1, RRESP = 10
[7575] AWADDR = ead4, AWLEN = 10
[7595] WDATA = ef4ef672, WLAST = 0
[7605] WDATA = 574a6e3b, WLAST = 0
[7615] WDATA = e7284f80, WLAST = 0
[7625] WDATA = b01d00a8, WLAST = 0
[7635] WDATA = c07d87cd, WLAST = 0
[7645] WDATA = 5a7ae703, WLAST = 0
[7655] WDATA = 4490105d, WLAST = 0
[7665] WDATA = 2ee0bd10, WLAST = 0
[7675] WDATA = 88f44baf, WLAST = 0
[7685] WDATA = 667ae54a, WLAST = 0
[7695] WDATA = d22be68e, WLAST = 1
[7705] BRESP = 10
[7725] ARADDR = ead4, ARLEN = 10
[7745] RDATA = 00000000, RLAST = 0, RRESP = 10
[7765] RDATA = 00000000, RLAST = 0, RRESP = 10
[7785] RDATA = 00000000, RLAST = 0, RRESP = 10
[7805] RDATA = 00000000, RLAST = 0, RRESP = 10
[7825] RDATA = 00000000, RLAST = 0, RRESP = 10
[7845] RDATA = 00000000, RLAST = 0, RRESP = 10
[7865] RDATA = 00000000, RLAST = 0, RRESP = 10
[7885] RDATA = 00000000, RLAST = 0, RRESP = 10
[7905] RDATA = 00000000, RLAST = 0, RRESP = 10
[7925] RDATA = 00000000, RLAST = 0, RRESP = 10
[7945] RDATA = 00000000, RLAST = 1, RRESP = 10
[7965] ARADDR = d3e8, ARLEN = 5
[7985] RDATA = 00000000, RLAST = 0, RRESP = 10
[8005] RDATA = 00000000, RLAST = 0, RRESP = 10
[8025] RDATA = 00000000, RLAST = 0, RRESP = 10
[8045] RDATA = 00000000, RLAST = 0, RRESP = 10
[8065] RDATA = 00000000, RLAST = 0, RRESP = 10
[8085] RDATA = 00000000, RLAST = 1, RRESP = 10
[8105] ARADDR = bcdc, ARLEN = 1
[8125] RDATA = 00000000, RLAST = 0, RRESP = 10
[8145] RDATA = 00000000, RLAST = 1, RRESP = 10
[8165] AWADDR = a450, AWLEN = 8
[8185] WDATA = cd54c6d4, WLAST = 0
[8195] WDATA = 799c32b6, WLAST = 0
[8205] WDATA = 54ade280, WLAST = 0
[8215] WDATA = 72be29c9, WLAST = 0
[8225] WDATA = 0429fd5d, WLAST = 0
[8235] WDATA = 9798cb86, WLAST = 0
[8245] WDATA = 47c2b4d1, WLAST = 0
[8255] WDATA = a0d84a0b, WLAST = 0
[8265] WDATA = 0a4f5965, WLAST = 1
[8275] BRESP = 10
[8295] ARADDR = a450, ARLEN = 8
[8315] RDATA = 00000000, RLAST = 0, RRESP = 10
[8335] RDATA = 00000000, RLAST = 0, RRESP = 10
[8355] RDATA = 00000000, RLAST = 0, RRESP = 10
[8375] RDATA = 00000000, RLAST = 0, RRESP = 10
[8395] RDATA = 00000000, RLAST = 0, RRESP = 10
[8415] RDATA = 00000000, RLAST = 0, RRESP = 10
[8435] RDATA = 00000000, RLAST = 0, RRESP = 10
[8455] RDATA = 00000000, RLAST = 0, RRESP = 10
[8475] RDATA = 00000000, RLAST = 1, RRESP = 10
[8495] AWADDR = ecdc, AWLEN = 11
[8515] WDATA = 23c77dd8, WLAST = 0
[8525] WDATA = e353a65a, WLAST = 0
[8535] WDATA = 67bdaf12, WLAST = 0
[8545] WDATA = e5c6b2e5, WLAST = 0
[8555] WDATA = e88ef75f, WLAST = 0
[8565] WDATA = 45be48eb, WLAST = 0
[8575] WDATA = 8d3280fe, WLAST = 0
[8585] WDATA = f69236c3, WLAST = 0
[8595] WDATA = 0680392d, WLAST = 0
[8605] WDATA = fab720a8, WLAST = 0
[8615] WDATA = c03862ef, WLAST = 0
[8625] WDATA = 8123ec2a, WLAST = 1
[8635] BRESP = 10
[8655] ARADDR = ecdc, ARLEN = 11
[8675] RDATA = 00000000, RLAST = 0, RRESP = 10
[8695] RDATA = 00000000, RLAST = 0, RRESP = 10
[8715] RDATA = 00000000, RLAST = 0, RRESP = 10
[8735] RDATA = 00000000, RLAST = 0, RRESP = 10
[8755] RDATA = 00000000, RLAST = 0, RRESP = 10
[8775] RDATA = 00000000, RLAST = 0, RRESP = 10
[8795] RDATA = 00000000, RLAST = 0, RRESP = 10
[8815] RDATA = 00000000, RLAST = 0, RRESP = 10
[8835] RDATA = 00000000, RLAST = 0, RRESP = 10
[8855] RDATA = 00000000, RLAST = 0, RRESP = 10
[8875] RDATA = 00000000, RLAST = 0, RRESP = 10
[8895] RDATA = 00000000, RLAST = 1, RRESP = 10
[8915] ARADDR = 93f4, ARLEN = 14
[8935] RDATA = 00000000, RLAST = 0, RRESP = 10
[8955] RDATA = 00000000, RLAST = 0, RRESP = 10
[8975] RDATA = 00000000, RLAST = 0, RRESP = 10
[8995] RDATA = 00000000, RLAST = 0, RRESP = 10
[9015] RDATA = 00000000, RLAST = 0, RRESP = 10
[9035] RDATA = 00000000, RLAST = 0, RRESP = 10
[9055] RDATA = 00000000, RLAST = 0, RRESP = 10
[9075] RDATA = 00000000, RLAST = 0, RRESP = 10
[9095] RDATA = 00000000, RLAST = 0, RRESP = 10
[9115] RDATA = 00000000, RLAST = 0, RRESP = 10
[9135] RDATA = 00000000, RLAST = 0, RRESP = 10
[9155] RDATA = 00000000, RLAST = 0, RRESP = 10
[9175] RDATA = 00000000, RLAST = 0, RRESP = 10
[9195] RDATA = 00000000, RLAST = 0, RRESP = 10
[9215] RDATA = 00000000, RLAST = 1, RRESP = 10
[9235] ARADDR = 2278, ARLEN = 9
[9255] RDATA = 00000000, RLAST = 0, RRESP = 10
[9275] RDATA = 00000000, RLAST = 0, RRESP = 10
[9295] RDATA = 00000000, RLAST = 0, RRESP = 10
[9315] RDATA = 00000000, RLAST = 0, RRESP = 10
[9335] RDATA = 00000000, RLAST = 0, RRESP = 10
[9355] RDATA = 00000000, RLAST = 0, RRESP = 10
[9375] RDATA = 00000000, RLAST = 0, RRESP = 10
[9395] RDATA = 00000000, RLAST = 0, RRESP = 10
[9415] RDATA = 00000000, RLAST = 0, RRESP = 10
[9435] RDATA = 00000000, RLAST = 1, RRESP = 10
[9455] ARADDR = fe98, ARLEN = 4
[9475] RDATA = 00000000, RLAST = 0, RRESP = 10
[9495] RDATA = 00000000, RLAST = 0, RRESP = 10
[9515] RDATA = 00000000, RLAST = 0, RRESP = 10
[9535] RDATA = 00000000, RLAST = 0, RRESP = 10
[9555] RDATA = 00000000, RLAST = 1, RRESP = 10
[9575] ARADDR = 7e1c, ARLEN = 2
[9595] RDATA = 00000000, RLAST = 0, RRESP = 10
[9615] RDATA = 00000000, RLAST = 0, RRESP = 10
[9635] RDATA = 00000000, RLAST = 1, RRESP = 10
[9655] ARADDR = 75b4, ARLEN = 11
[9675] RDATA = 00000000, RLAST = 0, RRESP = 10
[9695] RDATA = 00000000, RLAST = 0, RRESP = 10
[9715] RDATA = 00000000, RLAST = 0, RRESP = 10
[9735] RDATA = 00000000, RLAST = 0, RRESP = 10
[9755] RDATA = 00000000, RLAST = 0, RRESP = 10
[9775] RDATA = 00000000, RLAST = 0, RRESP = 10
[9795] RDATA = 00000000, RLAST = 0, RRESP = 10
[9815] RDATA = 00000000, RLAST = 0, RRESP = 10
[9835] RDATA = 00000000, RLAST = 0, RRESP = 10
[9855] RDATA = 00000000, RLAST = 0, RRESP = 10
[9875] RDATA = 00000000, RLAST = 0, RRESP = 10
[9895] RDATA = 00000000, RLAST = 1, RRESP = 10
[9915] AWADDR = 22bc, AWLEN = 3
[9935] WDATA = 8204d846, WLAST = 0
[9945] WDATA = fa6527ce, WLAST = 0
[9955] WDATA = 274c6e86, WLAST = 0
[9965] WDATA = ef90874b, WLAST = 1
[9975] BRESP = 10
[9995] ARADDR = 22bc, ARLEN = 3
[10015] RDATA = 00000000, RLAST = 0, RRESP = 10
[10035] RDATA = 00000000, RLAST = 0, RRESP = 10
[10055] RDATA = 00000000, RLAST = 0, RRESP = 10
[10075] RDATA = 00000000, RLAST = 1, RRESP = 10
[10095] ARADDR = 5118, ARLEN = 1
[10115] RDATA = 00000000, RLAST = 0, RRESP = 10
[10135] RDATA = 00000000, RLAST = 1, RRESP = 10
[10155] ARADDR = cd64, ARLEN = 7
[10175] RDATA = 00000000, RLAST = 0, RRESP = 10
[10195] RDATA = 00000000, RLAST = 0, RRESP = 10
[10215] RDATA = 00000000, RLAST = 0, RRESP = 10
[10235] RDATA = 00000000, RLAST = 0, RRESP = 10
[10255] RDATA = 00000000, RLAST = 0, RRESP = 10
[10275] RDATA = 00000000, RLAST = 0, RRESP = 10
[10295] RDATA = 00000000, RLAST = 0, RRESP = 10
[10315] RDATA = 00000000, RLAST = 1, RRESP = 10
[10335] ARADDR = 29a4, ARLEN = 5
[10355] RDATA = 00000000, RLAST = 0, RRESP = 10
[10375] RDATA = 00000000, RLAST = 0, RRESP = 10
[10395] RDATA = 00000000, RLAST = 0, RRESP = 10
[10415] RDATA = 00000000, RLAST = 0, RRESP = 10
[10435] RDATA = 00000000, RLAST = 0, RRESP = 10
[10455] RDATA = 00000000, RLAST = 1, RRESP = 10
[10475] ARADDR = 8920, ARLEN = 15
[10495] RDATA = 00000000, RLAST = 0, RRESP = 10
[10515] RDATA = 00000000, RLAST = 0, RRESP = 10
[10535] RDATA = 00000000, RLAST = 0, RRESP = 10
[10555] RDATA = 00000000, RLAST = 0, RRESP = 10
[10575] RDATA = 00000000, RLAST = 0, RRESP = 10
[10595] RDATA = 00000000, RLAST = 0, RRESP = 10
[10615] RDATA = 00000000, RLAST = 0, RRESP = 10
[10635] RDATA = 00000000, RLAST = 0, RRESP = 10
[10655] RDATA = 00000000, RLAST = 0, RRESP = 10
[10675] RDATA = 00000000, RLAST = 0, RRESP = 10
[10695] RDATA = 00000000, RLAST = 0, RRESP = 10
[10715] RDATA = 00000000, RLAST = 0, RRESP = 10
[10735] RDATA = 00000000, RLAST = 0, RRESP = 10
[10755] RDATA = 00000000, RLAST = 0, RRESP = 10
[10775] RDATA = 00000000, RLAST = 0, RRESP = 10
[10795] RDATA = 00000000, RLAST = 1, RRESP = 10
[10815] AWADDR = 82c4, AWLEN = 4
[10835] WDATA = d85eedd3, WLAST = 0
[10845] WDATA = e8e79885, WLAST = 0
[10855] WDATA = 384e7051, WLAST = 0
[10865] WDATA = 0c9d297c, WLAST = 0
[10875] WDATA = ed7e5611, WLAST = 1
[10885] BRESP = 10
[10905] ARADDR = 82c4, ARLEN = 4
[10925] RDATA = 00000000, RLAST = 0, RRESP = 10
[10945] RDATA = 00000000, RLAST = 0, RRESP = 10
[10965] RDATA = 00000000, RLAST = 0, RRESP = 10
[10985] RDATA = 00000000, RLAST = 0, RRESP = 10
[11005] RDATA = 00000000, RLAST = 1, RRESP = 10
[11025] ARADDR = 8df4, ARLEN = 13
[11045] RDATA = 00000000, RLAST = 0, RRESP = 10
[11065] RDATA = 00000000, RLAST = 0, RRESP = 10
[11085] RDATA = 00000000, RLAST = 0, RRESP = 10
[11105] RDATA = 00000000, RLAST = 0, RRESP = 10
[11125] RDATA = 00000000, RLAST = 0, RRESP = 10
[11145] RDATA = 00000000, RLAST = 0, RRESP = 10
[11165] RDATA = 00000000, RLAST = 0, RRESP = 10
[11185] RDATA = 00000000, RLAST = 0, RRESP = 10
[11205] RDATA = 00000000, RLAST = 0, RRESP = 10
[11225] RDATA = 00000000, RLAST = 0, RRESP = 10
[11245] RDATA = 00000000, RLAST = 0, RRESP = 10
[11265] RDATA = 00000000, RLAST = 0, RRESP = 10
[11285] RDATA = 00000000, RLAST = 0, RRESP = 10
[11305] RDATA = 00000000, RLAST = 1, RRESP = 10
[11325] ARADDR = 7dd4, ARLEN = 15
[11345] RDATA = 00000000, RLAST = 0, RRESP = 10
[11365] RDATA = 00000000, RLAST = 0, RRESP = 10
[11385] RDATA = 00000000, RLAST = 0, RRESP = 10
[11405] RDATA = 00000000, RLAST = 0, RRESP = 10
[11425] RDATA = 00000000, RLAST = 0, RRESP = 10
[11445] RDATA = 00000000, RLAST = 0, RRESP = 10
[11465] RDATA = 00000000, RLAST = 0, RRESP = 10
[11485] RDATA = 00000000, RLAST = 0, RRESP = 10
[11505] RDATA = 00000000, RLAST = 0, RRESP = 10
[11525] RDATA = 00000000, RLAST = 0, RRESP = 10
[11545] RDATA = 00000000, RLAST = 0, RRESP = 10
[11565] RDATA = 00000000, RLAST = 0, RRESP = 10
[11585] RDATA = 00000000, RLAST = 0, RRESP = 10
[11605] RDATA = 00000000, RLAST = 0, RRESP = 10
[11625] RDATA = 00000000, RLAST = 0, RRESP = 10
[11645] RDATA = 00000000, RLAST = 1, RRESP = 10
[11665] AWADDR = 88a0, AWLEN = 3
[11685] WDATA = 227023d8, WLAST = 0
[11695] WDATA = 6d5ee208, WLAST = 0
[11705] WDATA = c20a7b2a, WLAST = 0
[11715] WDATA = f0ffbbb4, WLAST = 1
[11725] BRESP = 10
[11745] ARADDR = 88a0, ARLEN = 3
[11765] RDATA = 00000000, RLAST = 0, RRESP = 10
[11785] RDATA = 00000000, RLAST = 0, RRESP = 10
[11805] RDATA = 00000000, RLAST = 0, RRESP = 10
[11825] RDATA = 00000000, RLAST = 1, RRESP = 10
[11845] AWADDR = 4b08, AWLEN = 5
[11865] WDATA = b8a2d70b, WLAST = 0
[11875] WDATA = ee319151, WLAST = 0
[11885] WDATA = 0f7e63cb, WLAST = 0
[11895] WDATA = b8ef551c, WLAST = 0
[11905] WDATA = 79fbbc76, WLAST = 0
[11915] WDATA = a3656f5f, WLAST = 1
[11925] BRESP = 10
[11945] ARADDR = 4b08, ARLEN = 5
[11965] RDATA = 00000000, RLAST = 0, RRESP = 10
[11985] RDATA = 00000000, RLAST = 0, RRESP = 10
[12005] RDATA = 00000000, RLAST = 0, RRESP = 10
[12025] RDATA = 00000000, RLAST = 0, RRESP = 10
[12045] RDATA = 00000000, RLAST = 0, RRESP = 10
[12065] RDATA = 00000000, RLAST = 1, RRESP = 10
[12085] ARADDR = 2824, ARLEN = 6
[12105] RDATA = 00000000, RLAST = 0, RRESP = 10
[12125] RDATA = 00000000, RLAST = 0, RRESP = 10
[12145] RDATA = 00000000, RLAST = 0, RRESP = 10
[12165] RDATA = 00000000, RLAST = 0, RRESP = 10
[12185] RDATA = 00000000, RLAST = 0, RRESP = 10
[12205] RDATA = 00000000, RLAST = 0, RRESP = 10
[12225] RDATA = 00000000, RLAST = 1, RRESP = 10
[12245] AWADDR = 5470, AWLEN = 12
[12265] WDATA = 35f768dd, WLAST = 0
[12275] WDATA = 83a62116, WLAST = 0
[12285] WDATA = f08ffd5e, WLAST = 0
[12295] WDATA = 64e2cada, WLAST = 0
[12305] WDATA = e65dd804, WLAST = 0
[12315] WDATA = fb4aaf2a, WLAST = 0
[12325] WDATA = 83103f34, WLAST = 0
[12335] WDATA = c2aa0a6e, WLAST = 0
[12345] WDATA = 8775cb3f, WLAST = 0
[12355] WDATA = 8b8a4d98, WLAST = 0
[12365] WDATA = 9b2b9931, WLAST = 0
[12375] WDATA = a9c51bb6, WLAST = 0
[12385] WDATA = 209c673d, WLAST = 1
[12395] BRESP = 10
[12415] ARADDR = 5470, ARLEN = 12
[12435] RDATA = 00000000, RLAST = 0, RRESP = 10
[12455] RDATA = 00000000, RLAST = 0, RRESP = 10
[12475] RDATA = 00000000, RLAST = 0, RRESP = 10
[12495] RDATA = 00000000, RLAST = 0, RRESP = 10
[12515] RDATA = 00000000, RLAST = 0, RRESP = 10
[12535] RDATA = 00000000, RLAST = 0, RRESP = 10
[12555] RDATA = 00000000, RLAST = 0, RRESP = 10
[12575] RDATA = 00000000, RLAST = 0, RRESP = 10
[12595] RDATA = 00000000, RLAST = 0, RRESP = 10
[12615] RDATA = 00000000, RLAST = 0, RRESP = 10
[12635] RDATA = 00000000, RLAST = 0, RRESP = 10
[12655] RDATA = 00000000, RLAST = 0, RRESP = 10
[12675] RDATA = 00000000, RLAST = 1, RRESP = 10
[12695] ARADDR = 2084, ARLEN = 0
[12715] RDATA = 00000000, RLAST = 1, RRESP = 10
[12735] ARADDR = 7194, ARLEN = 14
[12755] RDATA = 00000000, RLAST = 0, RRESP = 10
[12775] RDATA = 00000000, RLAST = 0, RRESP = 10
[12795] RDATA = 00000000, RLAST = 0, RRESP = 10
[12815] RDATA = 00000000, RLAST = 0, RRESP = 10
[12835] RDATA = 00000000, RLAST = 0, RRESP = 10
[12855] RDATA = 00000000, RLAST = 0, RRESP = 10
[12875] RDATA = 00000000, RLAST = 0, RRESP = 10
[12895] RDATA = 00000000, RLAST = 0, RRESP = 10
[12915] RDATA = 00000000, RLAST = 0, RRESP = 10
[12935] RDATA = 00000000, RLAST = 0, RRESP = 10
[12955] RDATA = 00000000, RLAST = 0, RRESP = 10
[12975] RDATA = 00000000, RLAST = 0, RRESP = 10
[12995] RDATA = 00000000, RLAST = 0, RRESP = 10
[13015] RDATA = 00000000, RLAST = 0, RRESP = 10
[13035] RDATA = 00000000, RLAST = 1, RRESP = 10
[13055] ARADDR = 3570, ARLEN = 7
[13075] RDATA = 00000000, RLAST = 0, RRESP = 10
[13095] RDATA = 00000000, RLAST = 0, RRESP = 10
[13115] RDATA = 00000000, RLAST = 0, RRESP = 10
[13135] RDATA = 00000000, RLAST = 0, RRESP = 10
[13155] RDATA = 00000000, RLAST = 0, RRESP = 10
[13175] RDATA = 00000000, RLAST = 0, RRESP = 10
[13195] RDATA = 00000000, RLAST = 0, RRESP = 10
[13215] RDATA = 00000000, RLAST = 1, RRESP = 10
[13235] AWADDR = 9424, AWLEN = 1
[13255] WDATA = e8d26a17, WLAST = 0
[13265] WDATA = a2ac85e0, WLAST = 1
[13275] BRESP = 10
[13295] ARADDR = 9424, ARLEN = 1
[13315] RDATA = 00000000, RLAST = 0, RRESP = 10
[13335] RDATA = 00000000, RLAST = 1, RRESP = 10
[13355] ARADDR = f724, ARLEN = 14
[13375] RDATA = 00000000, RLAST = 0, RRESP = 10
[13395] RDATA = 00000000, RLAST = 0, RRESP = 10
[13415] RDATA = 00000000, RLAST = 0, RRESP = 10
[13435] RDATA = 00000000, RLAST = 0, RRESP = 10
[13455] RDATA = 00000000, RLAST = 0, RRESP = 10
[13475] RDATA = 00000000, RLAST = 0, RRESP = 10
[13495] RDATA = 00000000, RLAST = 0, RRESP = 10
[13515] RDATA = 00000000, RLAST = 0, RRESP = 10
[13535] RDATA = 00000000, RLAST = 0, RRESP = 10
[13555] RDATA = 00000000, RLAST = 0, RRESP = 10
[13575] RDATA = 00000000, RLAST = 0, RRESP = 10
[13595] RDATA = 00000000, RLAST = 0, RRESP = 10
[13615] RDATA = 00000000, RLAST = 0, RRESP = 10
[13635] RDATA = 00000000, RLAST = 0, RRESP = 10
[13655] RDATA = 00000000, RLAST = 1, RRESP = 10
[13675] ARADDR = cedc, ARLEN = 3
[13695] RDATA = 00000000, RLAST = 0, RRESP = 10
[13715] RDATA = 00000000, RLAST = 0, RRESP = 10
[13735] RDATA = 00000000, RLAST = 0, RRESP = 10
[13755] RDATA = 00000000, RLAST = 1, RRESP = 10
[13775] ARADDR = 8b4c, ARLEN = 0
[13795] RDATA = 00000000, RLAST = 1, RRESP = 10
[13815] ARADDR = 2aa4, ARLEN = 12
[13835] RDATA = 00000000, RLAST = 0, RRESP = 10
[13855] RDATA = 00000000, RLAST = 0, RRESP = 10
[13875] RDATA = 00000000, RLAST = 0, RRESP = 10
[13895] RDATA = 00000000, RLAST = 0, RRESP = 10
[13915] RDATA = 00000000, RLAST = 0, RRESP = 10
[13935] RDATA = 00000000, RLAST = 0, RRESP = 10
[13955] RDATA = 00000000, RLAST = 0, RRESP = 10
[13975] RDATA = 00000000, RLAST = 0, RRESP = 10
[13995] RDATA = 00000000, RLAST = 0, RRESP = 10
[14015] RDATA = 00000000, RLAST = 0, RRESP = 10
[14035] RDATA = 00000000, RLAST = 0, RRESP = 10
[14055] RDATA = 00000000, RLAST = 0, RRESP = 10
[14075] RDATA = 00000000, RLAST = 1, RRESP = 10
[14095] ARADDR = ef08, ARLEN = 14
[14115] RDATA = 00000000, RLAST = 0, RRESP = 10
[14135] RDATA = 00000000, RLAST = 0, RRESP = 10
[14155] RDATA = 00000000, RLAST = 0, RRESP = 10
[14175] RDATA = 00000000, RLAST = 0, RRESP = 10
[14195] RDATA = 00000000, RLAST = 0, RRESP = 10
[14215] RDATA = 00000000, RLAST = 0, RRESP = 10
[14235] RDATA = 00000000, RLAST = 0, RRESP = 10
[14255] RDATA = 00000000, RLAST = 0, RRESP = 10
[14275] RDATA = 00000000, RLAST = 0, RRESP = 10
[14295] RDATA = 00000000, RLAST = 0, RRESP = 10
[14315] RDATA = 00000000, RLAST = 0, RRESP = 10
[14335] RDATA = 00000000, RLAST = 0, RRESP = 10
[14355] RDATA = 00000000, RLAST = 0, RRESP = 10
[14375] RDATA = 00000000, RLAST = 0, RRESP = 10
[14395] RDATA = 00000000, RLAST = 1, RRESP = 10
[14415] AWADDR = 4824, AWLEN = 15
[14435] WDATA = be125e73, WLAST = 0
[14445] WDATA = da3fa9a7, WLAST = 0
[14455] WDATA = 307e39ba, WLAST = 0
[14465] WDATA = 0e5a7fc8, WLAST = 0
[14475] WDATA = f567411f, WLAST = 0
[14485] WDATA = b3dd84c7, WLAST = 0
[14495] WDATA = d0dd3546, WLAST = 0
[14505] WDATA = cde07057, WLAST = 0
[14515] WDATA = d80bcdf3, WLAST = 0
[14525] WDATA = f1eee7e3, WLAST = 0
[14535] WDATA = a66bf927, WLAST = 0
[14545] WDATA = eeff6533, WLAST = 0
[14555] WDATA = 8787c5df, WLAST = 0
[14565] WDATA = 67be84ca, WLAST = 0
[14575] WDATA = 589ab195, WLAST = 0
[14585] WDATA = dd7fa775, WLAST = 1
[14595] BRESP = 10
[14615] ARADDR = 4824, ARLEN = 15
[14635] RDATA = 00000000, RLAST = 0, RRESP = 10
[14655] RDATA = 00000000, RLAST = 0, RRESP = 10
[14675] RDATA = 00000000, RLAST = 0, RRESP = 10
[14695] RDATA = 00000000, RLAST = 0, RRESP = 10
[14715] RDATA = 00000000, RLAST = 0, RRESP = 10
[14735] RDATA = 00000000, RLAST = 0, RRESP = 10
[14755] RDATA = 00000000, RLAST = 0, RRESP = 10
[14775] RDATA = 00000000, RLAST = 0, RRESP = 10
[14795] RDATA = 00000000, RLAST = 0, RRESP = 10
[14815] RDATA = 00000000, RLAST = 0, RRESP = 10
[14835] RDATA = 00000000, RLAST = 0, RRESP = 10
[14855] RDATA = 00000000, RLAST = 0, RRESP = 10
[14875] RDATA = 00000000, RLAST = 0, RRESP = 10
[14895] RDATA = 00000000, RLAST = 0, RRESP = 10
[14915] RDATA = 00000000, RLAST = 0, RRESP = 10
[14935] RDATA = 00000000, RLAST = 1, RRESP = 10
[14955] AWADDR = db64, AWLEN = 8
[14975] WDATA = e2786c27, WLAST = 0
[14985] WDATA = d1e3794c, WLAST = 0
[14995] WDATA = 4e68ec8e, WLAST = 0
[15005] WDATA = 09cca40f, WLAST = 0
[15015] WDATA = 9e4d8dd7, WLAST = 0
[15025] WDATA = ebf73d02, WLAST = 0
[15035] WDATA = ae90dac5, WLAST = 0
[15045] WDATA = 64e4aea0, WLAST = 0
[15055] WDATA = c6d146ae, WLAST = 1
[15065] BRESP = 10
[15085] ARADDR = db64, ARLEN = 8
[15105] RDATA = 00000000, RLAST = 0, RRESP = 10
[15125] RDATA = 00000000, RLAST = 0, RRESP = 10
[15145] RDATA = 00000000, RLAST = 0, RRESP = 10
[15165] RDATA = 00000000, RLAST = 0, RRESP = 10
[15185] RDATA = 00000000, RLAST = 0, RRESP = 10
[15205] RDATA = 00000000, RLAST = 0, RRESP = 10
[15225] RDATA = 00000000, RLAST = 0, RRESP = 10
[15245] RDATA = 00000000, RLAST = 0, RRESP = 10
[15265] RDATA = 00000000, RLAST = 1, RRESP = 10
[15285] ARADDR = 1c6c, ARLEN = 1
[15305] RDATA = 00000000, RLAST = 0, RRESP = 10
[15325] RDATA = 00000000, RLAST = 1, RRESP = 10
[15345] AWADDR = 51c0, AWLEN = 13
[15365] WDATA = 9d1c048f, WLAST = 0
[15375] WDATA = 61df20c6, WLAST = 0
[15385] WDATA = ce477379, WLAST = 0
[15395] WDATA = a386b06c, WLAST = 0
[15405] WDATA = 0dde05d5, WLAST = 0
[15415] WDATA = 8843ee7a, WLAST = 0
[15425] WDATA = 6a681e77, WLAST = 0
[15435] WDATA = aec6e890, WLAST = 0
[15445] WDATA = 3a25761f, WLAST = 0
[15455] WDATA = d6415451, WLAST = 0
[15465] WDATA = 155b8d4f, WLAST = 0
[15475] WDATA = ae44d755, WLAST = 0
[15485] WDATA = 25538418, WLAST = 0
[15495] WDATA = 6ffab8bd, WLAST = 1
[15505] BRESP = 10
[15525] ARADDR = 51c0, ARLEN = 13
[15545] RDATA = 00000000, RLAST = 0, RRESP = 10
[15565] RDATA = 00000000, RLAST = 0, RRESP = 10
[15585] RDATA = 00000000, RLAST = 0, RRESP = 10
[15605] RDATA = 00000000, RLAST = 0, RRESP = 10
[15625] RDATA = 00000000, RLAST = 0, RRESP = 10
[15645] RDATA = 00000000, RLAST = 0, RRESP = 10
[15665] RDATA = 00000000, RLAST = 0, RRESP = 10
[15685] RDATA = 00000000, RLAST = 0, RRESP = 10
[15705] RDATA = 00000000, RLAST = 0, RRESP = 10
[15725] RDATA = 00000000, RLAST = 0, RRESP = 10
[15745] RDATA = 00000000, RLAST = 0, RRESP = 10
[15765] RDATA = 00000000, RLAST = 0, RRESP = 10
[15785] RDATA = 00000000, RLAST = 0, RRESP = 10
[15805] RDATA = 00000000, RLAST = 1, RRESP = 10
[15825] ARADDR = f40c, ARLEN = 15
[15845] RDATA = 00000000, RLAST = 0, RRESP = 10
[15865] RDATA = 00000000, RLAST = 0, RRESP = 10
[15885] RDATA = 00000000, RLAST = 0, RRESP = 10
[15905] RDATA = 00000000, RLAST = 0, RRESP = 10
[15925] RDATA = 00000000, RLAST = 0, RRESP = 10
[15945] RDATA = 00000000, RLAST = 0, RRESP = 10
[15965] RDATA = 00000000, RLAST = 0, RRESP = 10
[15985] RDATA = 00000000, RLAST = 0, RRESP = 10
[16005] RDATA = 00000000, RLAST = 0, RRESP = 10
[16025] RDATA = 00000000, RLAST = 0, RRESP = 10
[16045] RDATA = 00000000, RLAST = 0, RRESP = 10
[16065] RDATA = 00000000, RLAST = 0, RRESP = 10
[16085] RDATA = 00000000, RLAST = 0, RRESP = 10
[16105] RDATA = 00000000, RLAST = 0, RRESP = 10
[16125] RDATA = 00000000, RLAST = 0, RRESP = 10
[16145] RDATA = 00000000, RLAST = 1, RRESP = 10
[16165] AWADDR = e5f0, AWLEN = 15
[16185] WDATA = 9fe4983c, WLAST = 0
[16195] WDATA = bd44a4fd, WLAST = 0
[16205] WDATA = ee9c2aac, WLAST = 0
[16215] WDATA = cb590d1b, WLAST = 0
[16225] WDATA = 081b1823, WLAST = 0
[16235] WDATA = f69f6504, WLAST = 0
[16245] WDATA = 2281d348, WLAST = 0
[16255] WDATA = 24666adc, WLAST = 0
[16265] WDATA = adba70db, WLAST = 0
[16275] WDATA = 2ca6ee78, WLAST = 0
[16285] WDATA = fa983055, WLAST = 0
[16295] WDATA = ea8dfa2a, WLAST = 0
[16305] WDATA = 35cac584, WLAST = 0
[16315] WDATA = 1f319dd8, WLAST = 0
[16325] WDATA = d2c6d6c0, WLAST = 0
[16335] WDATA = f9923d89, WLAST = 1
[16345] BRESP = 10
[16365] ARADDR = e5f0, ARLEN = 15
[16385] RDATA = 00000000, RLAST = 0, RRESP = 10
[16405] RDATA = 00000000, RLAST = 0, RRESP = 10
[16425] RDATA = 00000000, RLAST = 0, RRESP = 10
[16445] RDATA = 00000000, RLAST = 0, RRESP = 10
[16465] RDATA = 00000000, RLAST = 0, RRESP = 10
[16485] RDATA = 00000000, RLAST = 0, RRESP = 10
[16505] RDATA = 00000000, RLAST = 0, RRESP = 10
[16525] RDATA = 00000000, RLAST = 0, RRESP = 10
[16545] RDATA = 00000000, RLAST = 0, RRESP = 10
[16565] RDATA = 00000000, RLAST = 0, RRESP = 10
[16585] RDATA = 00000000, RLAST = 0, RRESP = 10
[16605] RDATA = 00000000, RLAST = 0, RRESP = 10
[16625] RDATA = 00000000, RLAST = 0, RRESP = 10
[16645] RDATA = 00000000, RLAST = 0, RRESP = 10
[16665] RDATA = 00000000, RLAST = 0, RRESP = 10
[16685] RDATA = 00000000, RLAST = 1, RRESP = 10
[16705] ARADDR = 84f8, ARLEN = 1
[16725] RDATA = 00000000, RLAST = 0, RRESP = 10
[16745] RDATA = 00000000, RLAST = 1, RRESP = 10
[16765] ARADDR = 3ea4, ARLEN = 9
[16785] RDATA = 00000000, RLAST = 0, RRESP = 10
[16805] RDATA = 00000000, RLAST = 0, RRESP = 10
[16825] RDATA = 00000000, RLAST = 0, RRESP = 10
[16845] RDATA = 00000000, RLAST = 0, RRESP = 10
[16865] RDATA = 00000000, RLAST = 0, RRESP = 10
[16885] RDATA = 00000000, RLAST = 0, RRESP = 10
[16905] RDATA = 00000000, RLAST = 0, RRESP = 10
[16925] RDATA = 00000000, RLAST = 0, RRESP = 10
[16945] RDATA = 00000000, RLAST = 0, RRESP = 10
[16965] RDATA = 00000000, RLAST = 1, RRESP = 10
[16985] AWADDR = b0d0, AWLEN = 3
[17005] WDATA = d39da2c8, WLAST = 0
[17015] WDATA = 40e9af8f, WLAST = 0
[17025] WDATA = f5cd454f, WLAST = 0
[17035] WDATA = 22628fd9, WLAST = 1
[17045] BRESP = 10
[17065] ARADDR = b0d0, ARLEN = 3
[17085] RDATA = 00000000, RLAST = 0, RRESP = 10
[17105] RDATA = 00000000, RLAST = 0, RRESP = 10
[17125] RDATA = 00000000, RLAST = 0, RRESP = 10
[17145] RDATA = 00000000, RLAST = 1, RRESP = 10
[17165] AWADDR = d938, AWLEN = 14
[17185] WDATA = dbe80b9b, WLAST = 0
[17195] WDATA = 16f2428b, WLAST = 0
[17205] WDATA = 12878f90, WLAST = 0
[17215] WDATA = 3c3d16bd, WLAST = 0
[17225] WDATA = 3fd14b42, WLAST = 0
[17235] WDATA = fe52361c, WLAST = 0
[17245] WDATA = bea43e24, WLAST = 0
[17255] WDATA = 2b16ceb4, WLAST = 0
[17265] WDATA = 597e1b4a, WLAST = 0
[17275] WDATA = b4ca1786, WLAST = 0
[17285] WDATA = 4bae4762, WLAST = 0
[17295] WDATA = 84fc8c74, WLAST = 0
[17305] WDATA = 82ae6014, WLAST = 0
[17315] WDATA = bf427cd9, WLAST = 0
[17325] WDATA = de1abaa8, WLAST = 1
[17335] BRESP = 10
[17355] ARADDR = d938, ARLEN = 14
[17375] RDATA = 00000000, RLAST = 0, RRESP = 10
[17395] RDATA = 00000000, RLAST = 0, RRESP = 10
[17415] RDATA = 00000000, RLAST = 0, RRESP = 10
[17435] RDATA = 00000000, RLAST = 0, RRESP = 10
[17455] RDATA = 00000000, RLAST = 0, RRESP = 10
[17475] RDATA = 00000000, RLAST = 0, RRESP = 10
[17495] RDATA = 00000000, RLAST = 0, RRESP = 10
[17515] RDATA = 00000000, RLAST = 0, RRESP = 10
[17535] RDATA = 00000000, RLAST = 0, RRESP = 10
[17555] RDATA = 00000000, RLAST = 0, RRESP = 10
[17575] RDATA = 00000000, RLAST = 0, RRESP = 10
[17595] RDATA = 00000000, RLAST = 0, RRESP = 10
[17615] RDATA = 00000000, RLAST = 0, RRESP = 10
[17635] RDATA = 00000000, RLAST = 0, RRESP = 10
[17655] RDATA = 00000000, RLAST = 1, RRESP = 10
[17675] AWADDR = 2c80, AWLEN = 6
[17695] WDATA = 33fe11d7, WLAST = 0
[17705] WDATA = 8c39203a, WLAST = 0
[17715] WDATA = e5000c03, WLAST = 0
[17725] WDATA = 496dd9a3, WLAST = 0
[17735] WDATA = 338e9759, WLAST = 0
[17745] WDATA = 06caaedf, WLAST = 0
[17755] WDATA = 465ef4be, WLAST = 1
[17765] BRESP = 10
[17785] ARADDR = 2c80, ARLEN = 6
[17805] RDATA = 00000000, RLAST = 0, RRESP = 10
[17825] RDATA = 00000000, RLAST = 0, RRESP = 10
[17845] RDATA = 00000000, RLAST = 0, RRESP = 10
[17865] RDATA = 00000000, RLAST = 0, RRESP = 10
[17885] RDATA = 00000000, RLAST = 0, RRESP = 10
[17905] RDATA = 00000000, RLAST = 0, RRESP = 10
[17925] RDATA = 00000000, RLAST = 1, RRESP = 10
[17945] AWADDR = cd44, AWLEN = 2
[17965] WDATA = 2024d505, WLAST = 0
[17975] WDATA = 71d71c2b, WLAST = 0
[17985] WDATA = b0c7e36a, WLAST = 1
[17995] BRESP = 10
[18015] ARADDR = cd44, ARLEN = 2
[18035] RDATA = 00000000, RLAST = 0, RRESP = 10
[18055] RDATA = 00000000, RLAST = 0, RRESP = 10
[18075] RDATA = 00000000, RLAST = 1, RRESP = 10
[18095] ARADDR = 05f8, ARLEN = 1
[18115] RDATA = 00000000, RLAST = 0, RRESP = 00
[18135] RDATA = 00000000, RLAST = 1, RRESP = 00
[18155] ARADDR = 1ab8, ARLEN = 12
[18175] RDATA = 00000000, RLAST = 0, RRESP = 10
[18195] RDATA = 00000000, RLAST = 0, RRESP = 10
[18215] RDATA = 00000000, RLAST = 0, RRESP = 10
[18235] RDATA = 00000000, RLAST = 0, RRESP = 10
[18255] RDATA = 00000000, RLAST = 0, RRESP = 10
[18275] RDATA = 00000000, RLAST = 0, RRESP = 10
[18295] RDATA = 00000000, RLAST = 0, RRESP = 10
[18315] RDATA = 00000000, RLAST = 0, RRESP = 10
[18335] RDATA = 00000000, RLAST = 0, RRESP = 10
[18355] RDATA = 00000000, RLAST = 0, RRESP = 10
[18375] RDATA = 00000000, RLAST = 0, RRESP = 10
[18395] RDATA = 00000000, RLAST = 0, RRESP = 10
[18415] RDATA = 00000000, RLAST = 1, RRESP = 10
[18435] ARADDR = c214, ARLEN = 14
[18455] RDATA = 00000000, RLAST = 0, RRESP = 10
[18475] RDATA = 00000000, RLAST = 0, RRESP = 10
[18495] RDATA = 00000000, RLAST = 0, RRESP = 10
[18515] RDATA = 00000000, RLAST = 0, RRESP = 10
[18535] RDATA = 00000000, RLAST = 0, RRESP = 10
[18555] RDATA = 00000000, RLAST = 0, RRESP = 10
[18575] RDATA = 00000000, RLAST = 0, RRESP = 10
[18595] RDATA = 00000000, RLAST = 0, RRESP = 10
[18615] RDATA = 00000000, RLAST = 0, RRESP = 10
[18635] RDATA = 00000000, RLAST = 0, RRESP = 10
[18655] RDATA = 00000000, RLAST = 0, RRESP = 10
[18675] RDATA = 00000000, RLAST = 0, RRESP = 10
[18695] RDATA = 00000000, RLAST = 0, RRESP = 10
[18715] RDATA = 00000000, RLAST = 0, RRESP = 10
[18735] RDATA = 00000000, RLAST = 1, RRESP = 10
[18755] AWADDR = d244, AWLEN = 1
[18775] WDATA = b287be45, WLAST = 0
[18785] WDATA = 08853c32, WLAST = 1
[18795] BRESP = 10
[18815] ARADDR = d244, ARLEN = 1
[18835] RDATA = 00000000, RLAST = 0, RRESP = 10
[18855] RDATA = 00000000, RLAST = 1, RRESP = 10
[18875] AWADDR = e768, AWLEN = 5
[18895] WDATA = 9bc8d326, WLAST = 0
[18905] WDATA = e34d7c27, WLAST = 0
[18915] WDATA = b8454443, WLAST = 0
[18925] WDATA = 97f1e2b2, WLAST = 0
[18935] WDATA = cf982b1b, WLAST = 0
[18945] WDATA = f1ea79d0, WLAST = 1
[18955] BRESP = 10
[18975] ARADDR = e768, ARLEN = 5
[18995] RDATA = 00000000, RLAST = 0, RRESP = 10
[19015] RDATA = 00000000, RLAST = 0, RRESP = 10
[19035] RDATA = 00000000, RLAST = 0, RRESP = 10
[19055] RDATA = 00000000, RLAST = 0, RRESP = 10
[19075] RDATA = 00000000, RLAST = 0, RRESP = 10
[19095] RDATA = 00000000, RLAST = 1, RRESP = 10
[19115] ARADDR = 3a44, ARLEN = 12
[19135] RDATA = 00000000, RLAST = 0, RRESP = 10
[19155] RDATA = 00000000, RLAST = 0, RRESP = 10
[19175] RDATA = 00000000, RLAST = 0, RRESP = 10
[19195] RDATA = 00000000, RLAST = 0, RRESP = 10
[19215] RDATA = 00000000, RLAST = 0, RRESP = 10
[19235] RDATA = 00000000, RLAST = 0, RRESP = 10
[19255] RDATA = 00000000, RLAST = 0, RRESP = 10
[19275] RDATA = 00000000, RLAST = 0, RRESP = 10
[19295] RDATA = 00000000, RLAST = 0, RRESP = 10
[19315] RDATA = 00000000, RLAST = 0, RRESP = 10
[19335] RDATA = 00000000, RLAST = 0, RRESP = 10
[19355] RDATA = 00000000, RLAST = 0, RRESP = 10
[19375] RDATA = 00000000, RLAST = 1, RRESP = 10
[19395] AWADDR = 04a8, AWLEN = 7
[19415] WDATA = 52d1f1ae, WLAST = 0
[19425] WDATA = f1c513d4, WLAST = 0
[19435] WDATA = 7d6c655b, WLAST = 0
[19445] WDATA = 748bbfa7, WLAST = 0
[19455] WDATA = 8947d87e, WLAST = 0
[19465] WDATA = f29f95fa, WLAST = 0
[19475] WDATA = e89cb48b, WLAST = 0
[19485] WDATA = 3fdff6d5, WLAST = 1
[19495] BRESP = 00
[19515] ARADDR = 04a8, ARLEN = 7
[19535] RDATA = 00000000, RLAST = 0, RRESP = 00
[19555] RDATA = 00000000, RLAST = 0, RRESP = 00
[19575] RDATA = f1c513d4, RLAST = 0, RRESP = 00
[19595] RDATA = 7d6c655b, RLAST = 0, RRESP = 00
[19615] RDATA = 748bbfa7, RLAST = 0, RRESP = 00
[19635] RDATA = 8947d87e, RLAST = 0, RRESP = 00
[19655] RDATA = f29f95fa, RLAST = 0, RRESP = 00
[19675] RDATA = e89cb48b, RLAST = 1, RRESP = 00
[19695] ARADDR = ccf4, ARLEN = 12
[19715] RDATA = e89cb48b, RLAST = 0, RRESP = 10
[19735] RDATA = e89cb48b, RLAST = 0, RRESP = 10
[19755] RDATA = e89cb48b, RLAST = 0, RRESP = 10
[19775] RDATA = e89cb48b, RLAST = 0, RRESP = 10
[19795] RDATA = e89cb48b, RLAST = 0, RRESP = 10
[19815] RDATA = e89cb48b, RLAST = 0, RRESP = 10
[19835] RDATA = e89cb48b, RLAST = 0, RRESP = 10
[19855] RDATA = e89cb48b, RLAST = 0, RRESP = 10
[19875] RDATA = e89cb48b, RLAST = 0, RRESP = 10
[19895] RDATA = e89cb48b, RLAST = 0, RRESP = 10
[19915] RDATA = e89cb48b, RLAST = 0, RRESP = 10
[19935] RDATA = e89cb48b, RLAST = 0, RRESP = 10
[19955] RDATA = e89cb48b, RLAST = 1, RRESP = 10
[19975] AWADDR = c3e8, AWLEN = 4
[19995] WDATA = beaae8d9, WLAST = 0
[20005] WDATA = 08cd07e0, WLAST = 0
[20015] WDATA = 70807a3e, WLAST = 0
[20025] WDATA = 88800ae0, WLAST = 0
[20035] WDATA = 6aa23499, WLAST = 1
[20045] BRESP = 10
[20065] ARADDR = c3e8, ARLEN = 4
[20085] RDATA = e89cb48b, RLAST = 0, RRESP = 10
[20105] RDATA = e89cb48b, RLAST = 0, RRESP = 10
[20125] RDATA = e89cb48b, RLAST = 0, RRESP = 10
[20145] RDATA = e89cb48b, RLAST = 0, RRESP = 10
[20165] RDATA = e89cb48b, RLAST = 1, RRESP = 10
[20185] ARADDR = 34fc, ARLEN = 15
[20205] RDATA = e89cb48b, RLAST = 0, RRESP = 10
[20225] RDATA = e89cb48b, RLAST = 0, RRESP = 10
[20245] RDATA = e89cb48b, RLAST = 0, RRESP = 10
[20265] RDATA = e89cb48b, RLAST = 0, RRESP = 10
[20285] RDATA = e89cb48b, RLAST = 0, RRESP = 10
[20305] RDATA = e89cb48b, RLAST = 0, RRESP = 10
[20325] RDATA = e89cb48b, RLAST = 0, RRESP = 10
[20345] RDATA = e89cb48b, RLAST = 0, RRESP = 10
[20365] RDATA = e89cb48b, RLAST = 0, RRESP = 10
[20385] RDATA = e89cb48b, RLAST = 0, RRESP = 10
[20405] RDATA = e89cb48b, RLAST = 0, RRESP = 10
[20425] RDATA = e89cb48b, RLAST = 0, RRESP = 10
[20445] RDATA = e89cb48b, RLAST = 0, RRESP = 10
[20465] RDATA = e89cb48b, RLAST = 0, RRESP = 10
[20485] RDATA = e89cb48b, RLAST = 0, RRESP = 10
[20505] RDATA = e89cb48b, RLAST = 1, RRESP = 10
[20525] ARADDR = b8a4, ARLEN = 0
[20545] RDATA = e89cb48b, RLAST = 1, RRESP = 10
[20565] AWADDR = 5914, AWLEN = 11
[20585] WDATA = 886d2341, WLAST = 0
[20595] WDATA = ec56669b, WLAST = 0
[20605] WDATA = e53e9e66, WLAST = 0
[20615] WDATA = 4fbbce0a, WLAST = 0
[20625] WDATA = a25e8bdb, WLAST = 0
[20635] WDATA = 478a97f9, WLAST = 0
[20645] WDATA = 3841f1c1, WLAST = 0
[20655] WDATA = a028ba68, WLAST = 0
[20665] WDATA = 34a0cf5f, WLAST = 0
[20675] WDATA = 26314cbd, WLAST = 0
[20685] WDATA = 56e21530, WLAST = 0
[20695] WDATA = ec0cd97a, WLAST = 1
[20705] BRESP = 10
[20725] ARADDR = 5914, ARLEN = 11
[20745] RDATA = e89cb48b, RLAST = 0, RRESP = 10
[20765] RDATA = e89cb48b, RLAST = 0, RRESP = 10
[20785] RDATA = e89cb48b, RLAST = 0, RRESP = 10
[20805] RDATA = e89cb48b, RLAST = 0, RRESP = 10
[20825] RDATA = e89cb48b, RLAST = 0, RRESP = 10
[20845] RDATA = e89cb48b, RLAST = 0, RRESP = 10
[20865] RDATA = e89cb48b, RLAST = 0, RRESP = 10
[20885] RDATA = e89cb48b, RLAST = 0, RRESP = 10
[20905] RDATA = e89cb48b, RLAST = 0, RRESP = 10
[20925] RDATA = e89cb48b, RLAST = 0, RRESP = 10
[20945] RDATA = e89cb48b, RLAST = 0, RRESP = 10
[20965] RDATA = e89cb48b, RLAST = 1, RRESP = 10
[20985] AWADDR = e994, AWLEN = 14
[21005] WDATA = de555afd, WLAST = 0
[21015] WDATA = 6b8db3a0, WLAST = 0
[21025] WDATA = 2374ba56, WLAST = 0
[21035] WDATA = b70795ff, WLAST = 0
[21045] WDATA = 086a013c, WLAST = 0
[21055] WDATA = c96694c5, WLAST = 0
[21065] WDATA = 3b5d1365, WLAST = 0
[21075] WDATA = 1f1d7c34, WLAST = 0
[21085] WDATA = a0ba03a9, WLAST = 0
[21095] WDATA = c9e09c67, WLAST = 0
[21105] WDATA = 9e0e3694, WLAST = 0
[21115] WDATA = 3bf4fbda, WLAST = 0
[21125] WDATA = 0568152c, WLAST = 0
[21135] WDATA = ea89f6a1, WLAST = 0
[21145] WDATA = 22166e38, WLAST = 1
[21155] BRESP = 10
[21175] ARADDR = e994, ARLEN = 14
[21195] RDATA = e89cb48b, RLAST = 0, RRESP = 10
[21215] RDATA = e89cb48b, RLAST = 0, RRESP = 10
[21235] RDATA = e89cb48b, RLAST = 0, RRESP = 10
[21255] RDATA = e89cb48b, RLAST = 0, RRESP = 10
[21275] RDATA = e89cb48b, RLAST = 0, RRESP = 10
[21295] RDATA = e89cb48b, RLAST = 0, RRESP = 10
[21315] RDATA = e89cb48b, RLAST = 0, RRESP = 10
[21335] RDATA = e89cb48b, RLAST = 0, RRESP = 10
[21355] RDATA = e89cb48b, RLAST = 0, RRESP = 10
[21375] RDATA = e89cb48b, RLAST = 0, RRESP = 10
[21395] RDATA = e89cb48b, RLAST = 0, RRESP = 10
[21415] RDATA = e89cb48b, RLAST = 0, RRESP = 10
[21435] RDATA = e89cb48b, RLAST = 0, RRESP = 10
[21455] RDATA = e89cb48b, RLAST = 0, RRESP = 10
[21475] RDATA = e89cb48b, RLAST = 1, RRESP = 10
[21495] AWADDR = 8830, AWLEN = 4
[21515] WDATA = f0bc0747, WLAST = 0
[21525] WDATA = 4f328add, WLAST = 0
[21535] WDATA = 7579f899, WLAST = 0
[21545] WDATA = 9bd65f1b, WLAST = 0
[21555] WDATA = 2261111c, WLAST = 1
[21565] BRESP = 10
[21585] ARADDR = 8830, ARLEN = 4
[21605] RDATA = e89cb48b, RLAST = 0, RRESP = 10
[21625] RDATA = e89cb48b, RLAST = 0, RRESP = 10
[21645] RDATA = e89cb48b, RLAST = 0, RRESP = 10
[21665] RDATA = e89cb48b, RLAST = 0, RRESP = 10
[21685] RDATA = e89cb48b, RLAST = 1, RRESP = 10
[21705] AWADDR = 58c0, AWLEN = 15
[21725] WDATA = c120d41a, WLAST = 0
[21735] WDATA = aeca4c7e, WLAST = 0
[21745] WDATA = f47d90ca, WLAST = 0
[21755] WDATA = 91c26659, WLAST = 0
[21765] WDATA = af959b7f, WLAST = 0
[21775] WDATA = 16fee2b6, WLAST = 0
[21785] WDATA = 96409ff5, WLAST = 0
[21795] WDATA = 6272f740, WLAST = 0
[21805] WDATA = 0087ee7f, WLAST = 0
[21815] WDATA = c12dc1a8, WLAST = 0
[21825] WDATA = 8eefedeb, WLAST = 0
[21835] WDATA = b28901d3, WLAST = 0
[21845] WDATA = 31cf9eeb, WLAST = 0
[21855] WDATA = 45c6c44a, WLAST = 0
[21865] WDATA = f1d482c2, WLAST = 0
[21875] WDATA = 5b77d96c, WLAST = 1
[21885] BRESP = 10
[21905] ARADDR = 58c0, ARLEN = 15
[21925] RDATA = e89cb48b, RLAST = 0, RRESP = 10
[21945] RDATA = e89cb48b, RLAST = 0, RRESP = 10
[21965] RDATA = e89cb48b, RLAST = 0, RRESP = 10
[21985] RDATA = e89cb48b, RLAST = 0, RRESP = 10
[22005] RDATA = e89cb48b, RLAST = 0, RRESP = 10
[22025] RDATA = e89cb48b, RLAST = 0, RRESP = 10
[22045] RDATA = e89cb48b, RLAST = 0, RRESP = 10
[22065] RDATA = e89cb48b, RLAST = 0, RRESP = 10
[22085] RDATA = e89cb48b, RLAST = 0, RRESP = 10
[22105] RDATA = e89cb48b, RLAST = 0, RRESP = 10
[22125] RDATA = e89cb48b, RLAST = 0, RRESP = 10
[22145] RDATA = e89cb48b, RLAST = 0, RRESP = 10
[22165] RDATA = e89cb48b, RLAST = 0, RRESP = 10
[22185] RDATA = e89cb48b, RLAST = 0, RRESP = 10
[22205] RDATA = e89cb48b, RLAST = 0, RRESP = 10
[22225] RDATA = e89cb48b, RLAST = 1, RRESP = 10
[22245] ARADDR = 4cac, ARLEN = 10
[22265] RDATA = e89cb48b, RLAST = 0, RRESP = 10
[22285] RDATA = e89cb48b, RLAST = 0, RRESP = 10
[22305] RDATA = e89cb48b, RLAST = 0, RRESP = 10
[22325] RDATA = e89cb48b, RLAST = 0, RRESP = 10
[22345] RDATA = e89cb48b, RLAST = 0, RRESP = 10
[22365] RDATA = e89cb48b, RLAST = 0, RRESP = 10
[22385] RDATA = e89cb48b, RLAST = 0, RRESP = 10
[22405] RDATA = e89cb48b, RLAST = 0, RRESP = 10
[22425] RDATA = e89cb48b, RLAST = 0, RRESP = 10
[22445] RDATA = e89cb48b, RLAST = 0, RRESP = 10
[22465] RDATA = e89cb48b, RLAST = 1, RRESP = 10
[22485] ARADDR = 8760, ARLEN = 8
[22505] RDATA = e89cb48b, RLAST = 0, RRESP = 10
[22525] RDATA = e89cb48b, RLAST = 0, RRESP = 10
[22545] RDATA = e89cb48b, RLAST = 0, RRESP = 10
[22565] RDATA = e89cb48b, RLAST = 0, RRESP = 10
[22585] RDATA = e89cb48b, RLAST = 0, RRESP = 10
[22605] RDATA = e89cb48b, RLAST = 0, RRESP = 10
[22625] RDATA = e89cb48b, RLAST = 0, RRESP = 10
[22645] RDATA = e89cb48b, RLAST = 0, RRESP = 10
[22665] RDATA = e89cb48b, RLAST = 1, RRESP = 10
[22685] AWADDR = 4504, AWLEN = 6
[22705] WDATA = 84ae56b1, WLAST = 0
[22715] WDATA = 9ef428f2, WLAST = 0
[22725] WDATA = 2f25d723, WLAST = 0
[22735] WDATA = 4729627c, WLAST = 0
[22745] WDATA = 31d06bb9, WLAST = 0
[22755] WDATA = 6b557d7f, WLAST = 0
[22765] WDATA = 0657d815, WLAST = 1
[22775] BRESP = 10
[22795] ARADDR = 4504, ARLEN = 6
[22815] RDATA = e89cb48b, RLAST = 0, RRESP = 10
[22835] RDATA = e89cb48b, RLAST = 0, RRESP = 10
[22855] RDATA = e89cb48b, RLAST = 0, RRESP = 10
[22875] RDATA = e89cb48b, RLAST = 0, RRESP = 10
[22895] RDATA = e89cb48b, RLAST = 0, RRESP = 10
[22915] RDATA = e89cb48b, RLAST = 0, RRESP = 10
[22935] RDATA = e89cb48b, RLAST = 1, RRESP = 10
[22955] AWADDR = d950, AWLEN = 9
[22975] WDATA = 74f09af2, WLAST = 0
[22985] WDATA = 2b9b141f, WLAST = 0
[22995] WDATA = 35d918b1, WLAST = 0
[23005] WDATA = 2294a3a1, WLAST = 0
[23015] WDATA = 846726fa, WLAST = 0
[23025] WDATA = 057a919a, WLAST = 0
[23035] WDATA = cb1e8a2b, WLAST = 0
[23045] WDATA = 20ac95ba, WLAST = 0
[23055] WDATA = b666309f, WLAST = 0
[23065] WDATA = b1589202, WLAST = 1
[23075] BRESP = 10
[23095] ARADDR = d950, ARLEN = 9
[23115] RDATA = e89cb48b, RLAST = 0, RRESP = 10
[23135] RDATA = e89cb48b, RLAST = 0, RRESP = 10
[23155] RDATA = e89cb48b, RLAST = 0, RRESP = 10
[23175] RDATA = e89cb48b, RLAST = 0, RRESP = 10
[23195] RDATA = e89cb48b, RLAST = 0, RRESP = 10
[23215] RDATA = e89cb48b, RLAST = 0, RRESP = 10
[23235] RDATA = e89cb48b, RLAST = 0, RRESP = 10
[23255] RDATA = e89cb48b, RLAST = 0, RRESP = 10
[23275] RDATA = e89cb48b, RLAST = 0, RRESP = 10
[23295] RDATA = e89cb48b, RLAST = 1, RRESP = 10
[23315] ARADDR = ce28, ARLEN = 9
[23335] RDATA = e89cb48b, RLAST = 0, RRESP = 10
[23355] RDATA = e89cb48b, RLAST = 0, RRESP = 10
[23375] RDATA = e89cb48b, RLAST = 0, RRESP = 10
[23395] RDATA = e89cb48b, RLAST = 0, RRESP = 10
[23415] RDATA = e89cb48b, RLAST = 0, RRESP = 10
[23435] RDATA = e89cb48b, RLAST = 0, RRESP = 10
[23455] RDATA = e89cb48b, RLAST = 0, RRESP = 10
[23475] RDATA = e89cb48b, RLAST = 0, RRESP = 10
[23495] RDATA = e89cb48b, RLAST = 0, RRESP = 10
[23515] RDATA = e89cb48b, RLAST = 1, RRESP = 10
[23535] AWADDR = e17c, AWLEN = 11
[23555] WDATA = 45724d1f, WLAST = 0
[23565] WDATA = c1ba3cbb, WLAST = 0
[23575] WDATA = d06e8eb3, WLAST = 0
[23585] WDATA = 77fd7586, WLAST = 0
[23595] WDATA = 2cce3d42, WLAST = 0
[23605] WDATA = f12b6413, WLAST = 0
[23615] WDATA = 9388c225, WLAST = 0
[23625] WDATA = 9f6e5592, WLAST = 0
[23635] WDATA = 5fae6668, WLAST = 0
[23645] WDATA = dc212a7c, WLAST = 0
[23655] WDATA = fe1adfd4, WLAST = 0
[23665] WDATA = e6a5bbb8, WLAST = 1
[23675] BRESP = 10
[23695] ARADDR = e17c, ARLEN = 11
[23715] RDATA = e89cb48b, RLAST = 0, RRESP = 10
[23735] RDATA = e89cb48b, RLAST = 0, RRESP = 10
[23755] RDATA = e89cb48b, RLAST = 0, RRESP = 10
[23775] RDATA = e89cb48b, RLAST = 0, RRESP = 10
[23795] RDATA = e89cb48b, RLAST = 0, RRESP = 10
[23815] RDATA = e89cb48b, RLAST = 0, RRESP = 10
[23835] RDATA = e89cb48b, RLAST = 0, RRESP = 10
[23855] RDATA = e89cb48b, RLAST = 0, RRESP = 10
[23875] RDATA = e89cb48b, RLAST = 0, RRESP = 10
[23895] RDATA = e89cb48b, RLAST = 0, RRESP = 10
[23915] RDATA = e89cb48b, RLAST = 0, RRESP = 10
[23935] RDATA = e89cb48b, RLAST = 1, RRESP = 10
[23955] AWADDR = 74b4, AWLEN = 0
[23975] WDATA = eb1da22b, WLAST = 1
[23985] BRESP = 10
[24005] ARADDR = 74b4, ARLEN = 0
[24025] RDATA = e89cb48b, RLAST = 1, RRESP = 10
[24045] ARADDR = a520, ARLEN = 5
[24065] RDATA = e89cb48b, RLAST = 0, RRESP = 10
[24085] RDATA = e89cb48b, RLAST = 0, RRESP = 10
[24105] RDATA = e89cb48b, RLAST = 0, RRESP = 10
[24125] RDATA = e89cb48b, RLAST = 0, RRESP = 10
[24145] RDATA = e89cb48b, RLAST = 0, RRESP = 10
[24165] RDATA = e89cb48b, RLAST = 1, RRESP = 10
[24185] AWADDR = 6d98, AWLEN = 14
[24205] WDATA = d89ddebc, WLAST = 0
[24215] WDATA = d75827ee, WLAST = 0
[24225] WDATA = 6ef8bc8b, WLAST = 0
[24235] WDATA = 55ce7f6a, WLAST = 0
[24245] WDATA = 0068c731, WLAST = 0
[24255] WDATA = 53960dde, WLAST = 0
[24265] WDATA = 32cb4e35, WLAST = 0
[24275] WDATA = d8c40357, WLAST = 0
[24285] WDATA = cfc8334d, WLAST = 0
[24295] WDATA = 516bbd63, WLAST = 0
[24305] WDATA = b92e2a57, WLAST = 0
[24315] WDATA = f82872ef, WLAST = 0
[24325] WDATA = 3f300583, WLAST = 0
[24335] WDATA = 9bc576bd, WLAST = 0
[24345] WDATA = 984900df, WLAST = 1
[24355] BRESP = 10
[24375] ARADDR = 6d98, ARLEN = 14
[24395] RDATA = e89cb48b, RLAST = 0, RRESP = 10
[24415] RDATA = e89cb48b, RLAST = 0, RRESP = 10
[24435] RDATA = e89cb48b, RLAST = 0, RRESP = 10
[24455] RDATA = e89cb48b, RLAST = 0, RRESP = 10
[24475] RDATA = e89cb48b, RLAST = 0, RRESP = 10
[24495] RDATA = e89cb48b, RLAST = 0, RRESP = 10
[24515] RDATA = e89cb48b, RLAST = 0, RRESP = 10
[24535] RDATA = e89cb48b, RLAST = 0, RRESP = 10
[24555] RDATA = e89cb48b, RLAST = 0, RRESP = 10
[24575] RDATA = e89cb48b, RLAST = 0, RRESP = 10
[24595] RDATA = e89cb48b, RLAST = 0, RRESP = 10
[24615] RDATA = e89cb48b, RLAST = 0, RRESP = 10
[24635] RDATA = e89cb48b, RLAST = 0, RRESP = 10
[24655] RDATA = e89cb48b, RLAST = 0, RRESP = 10
[24675] RDATA = e89cb48b, RLAST = 1, RRESP = 10
[24695] ARADDR = 3468, ARLEN = 15
[24715] RDATA = e89cb48b, RLAST = 0, RRESP = 10
[24735] RDATA = e89cb48b, RLAST = 0, RRESP = 10
[24755] RDATA = e89cb48b, RLAST = 0, RRESP = 10
[24775] RDATA = e89cb48b, RLAST = 0, RRESP = 10
[24795] RDATA = e89cb48b, RLAST = 0, RRESP = 10
[24815] RDATA = e89cb48b, RLAST = 0, RRESP = 10
[24835] RDATA = e89cb48b, RLAST = 0, RRESP = 10
[24855] RDATA = e89cb48b, RLAST = 0, RRESP = 10
[24875] RDATA = e89cb48b, RLAST = 0, RRESP = 10
[24895] RDATA = e89cb48b, RLAST = 0, RRESP = 10
[24915] RDATA = e89cb48b, RLAST = 0, RRESP = 10
[24935] RDATA = e89cb48b, RLAST = 0, RRESP = 10
[24955] RDATA = e89cb48b, RLAST = 0, RRESP = 10
[24975] RDATA = e89cb48b, RLAST = 0, RRESP = 10
[24995] RDATA = e89cb48b, RLAST = 0, RRESP = 10
[25015] RDATA = e89cb48b, RLAST = 1, RRESP = 10
[25035] ARADDR = aaec, ARLEN = 9
[25055] RDATA = e89cb48b, RLAST = 0, RRESP = 10
[25075] RDATA = e89cb48b, RLAST = 0, RRESP = 10
[25095] RDATA = e89cb48b, RLAST = 0, RRESP = 10
[25115] RDATA = e89cb48b, RLAST = 0, RRESP = 10
[25135] RDATA = e89cb48b, RLAST = 0, RRESP = 10
[25155] RDATA = e89cb48b, RLAST = 0, RRESP = 10
[25175] RDATA = e89cb48b, RLAST = 0, RRESP = 10
[25195] RDATA = e89cb48b, RLAST = 0, RRESP = 10
[25215] RDATA = e89cb48b, RLAST = 0, RRESP = 10
[25235] RDATA = e89cb48b, RLAST = 1, RRESP = 10
[25255] ARADDR = d2c0, ARLEN = 11
[25275] RDATA = e89cb48b, RLAST = 0, RRESP = 10
[25295] RDATA = e89cb48b, RLAST = 0, RRESP = 10
[25315] RDATA = e89cb48b, RLAST = 0, RRESP = 10
[25335] RDATA = e89cb48b, RLAST = 0, RRESP = 10
[25355] RDATA = e89cb48b, RLAST = 0, RRESP = 10
[25375] RDATA = e89cb48b, RLAST = 0, RRESP = 10
[25395] RDATA = e89cb48b, RLAST = 0, RRESP = 10
[25415] RDATA = e89cb48b, RLAST = 0, RRESP = 10
[25435] RDATA = e89cb48b, RLAST = 0, RRESP = 10
[25455] RDATA = e89cb48b, RLAST = 0, RRESP = 10
[25475] RDATA = e89cb48b, RLAST = 0, RRESP = 10
[25495] RDATA = e89cb48b, RLAST = 1, RRESP = 10
[25515] AWADDR = 4b00, AWLEN = 8
[25535] WDATA = 4754453a, WLAST = 0
[25545] WDATA = 9020462f, WLAST = 0
[25555] WDATA = fbcd3d66, WLAST = 0
[25565] WDATA = 1e21b542, WLAST = 0
[25575] WDATA = 060d3fe5, WLAST = 0
[25585] WDATA = 8f68d964, WLAST = 0
[25595] WDATA = 8c386742, WLAST = 0
[25605] WDATA = 15bbf997, WLAST = 0
[25615] WDATA = 939acb6b, WLAST = 1
[25625] BRESP = 10
[25645] ARADDR = 4b00, ARLEN = 8
[25665] RDATA = e89cb48b, RLAST = 0, RRESP = 10
[25685] RDATA = e89cb48b, RLAST = 0, RRESP = 10
[25705] RDATA = e89cb48b, RLAST = 0, RRESP = 10
[25725] RDATA = e89cb48b, RLAST = 0, RRESP = 10
[25745] RDATA = e89cb48b, RLAST = 0, RRESP = 10
[25765] RDATA = e89cb48b, RLAST = 0, RRESP = 10
[25785] RDATA = e89cb48b, RLAST = 0, RRESP = 10
[25805] RDATA = e89cb48b, RLAST = 0, RRESP = 10
[25825] RDATA = e89cb48b, RLAST = 1, RRESP = 10
[25845] AWADDR = 12ec, AWLEN = 2
[25865] WDATA = cb7346d0, WLAST = 0
[25875] WDATA = d13b3d42, WLAST = 0
[25885] WDATA = 67becacc, WLAST = 1
[25895] BRESP = 10
[25915] ARADDR = 12ec, ARLEN = 2
[25935] RDATA = e89cb48b, RLAST = 0, RRESP = 10
[25955] RDATA = e89cb48b, RLAST = 0, RRESP = 10
[25975] RDATA = e89cb48b, RLAST = 1, RRESP = 10
[25995] AWADDR = 9fa8, AWLEN = 15
[26015] WDATA = 4822ecb9, WLAST = 0
[26025] WDATA = 0ba77441, WLAST = 0
[26035] WDATA = 8675072d, WLAST = 0
[26045] WDATA = 0d0f4401, WLAST = 0
[26055] WDATA = b14eb15f, WLAST = 0
[26065] WDATA = b42b555d, WLAST = 0
[26075] WDATA = c6b27e9a, WLAST = 0
[26085] WDATA = 0d9feda8, WLAST = 0
[26095] WDATA = 624c050c, WLAST = 0
[26105] WDATA = 502bf64a, WLAST = 0
[26115] WDATA = 2aeb70f4, WLAST = 0
[26125] WDATA = a2a15a79, WLAST = 0
[26135] WDATA = 9c4a5365, WLAST = 0
[26145] WDATA = e0f558c6, WLAST = 0
[26155] WDATA = d017f397, WLAST = 0
[26165] WDATA = efeaaae9, WLAST = 1
[26175] BRESP = 10
[26195] ARADDR = 9fa8, ARLEN = 15
[26215] RDATA = e89cb48b, RLAST = 0, RRESP = 10
[26235] RDATA = e89cb48b, RLAST = 0, RRESP = 10
[26255] RDATA = e89cb48b, RLAST = 0, RRESP = 10
[26275] RDATA = e89cb48b, RLAST = 0, RRESP = 10
[26295] RDATA = e89cb48b, RLAST = 0, RRESP = 10
[26315] RDATA = e89cb48b, RLAST = 0, RRESP = 10
[26335] RDATA = e89cb48b, RLAST = 0, RRESP = 10
[26355] RDATA = e89cb48b, RLAST = 0, RRESP = 10
[26375] RDATA = e89cb48b, RLAST = 0, RRESP = 10
[26395] RDATA = e89cb48b, RLAST = 0, RRESP = 10
[26415] RDATA = e89cb48b, RLAST = 0, RRESP = 10
[26435] RDATA = e89cb48b, RLAST = 0, RRESP = 10
[26455] RDATA = e89cb48b, RLAST = 0, RRESP = 10
[26475] RDATA = e89cb48b, RLAST = 0, RRESP = 10
[26495] RDATA = e89cb48b, RLAST = 0, RRESP = 10
[26515] RDATA = e89cb48b, RLAST = 1, RRESP = 10
[26535] ARADDR = 5e48, ARLEN = 13
[26555] RDATA = e89cb48b, RLAST = 0, RRESP = 10
[26575] RDATA = e89cb48b, RLAST = 0, RRESP = 10
[26595] RDATA = e89cb48b, RLAST = 0, RRESP = 10
[26615] RDATA = e89cb48b, RLAST = 0, RRESP = 10
[26635] RDATA = e89cb48b, RLAST = 0, RRESP = 10
[26655] RDATA = e89cb48b, RLAST = 0, RRESP = 10
[26675] RDATA = e89cb48b, RLAST = 0, RRESP = 10
[26695] RDATA = e89cb48b, RLAST = 0, RRESP = 10
[26715] RDATA = e89cb48b, RLAST = 0, RRESP = 10
[26735] RDATA = e89cb48b, RLAST = 0, RRESP = 10
[26755] RDATA = e89cb48b, RLAST = 0, RRESP = 10
[26775] RDATA = e89cb48b, RLAST = 0, RRESP = 10
[26795] RDATA = e89cb48b, RLAST = 0, RRESP = 10
[26815] RDATA = e89cb48b, RLAST = 1, RRESP = 10
[26835] ARADDR = 7ec8, ARLEN = 6
[26855] RDATA = e89cb48b, RLAST = 0, RRESP = 10
[26875] RDATA = e89cb48b, RLAST = 0, RRESP = 10
[26895] RDATA = e89cb48b, RLAST = 0, RRESP = 10
[26915] RDATA = e89cb48b, RLAST = 0, RRESP = 10
[26935] RDATA = e89cb48b, RLAST = 0, RRESP = 10
[26955] RDATA = e89cb48b, RLAST = 0, RRESP = 10
[26975] RDATA = e89cb48b, RLAST = 1, RRESP = 10
[26995] AWADDR = 1390, AWLEN = 3
[27015] WDATA = 9509fd0c, WLAST = 0
[27025] WDATA = 2a49eca1, WLAST = 0
[27035] WDATA = 4a2af793, WLAST = 0
[27045] WDATA = 8b44eb7a, WLAST = 1
[27055] BRESP = 10
[27075] ARADDR = 1390, ARLEN = 3
[27095] RDATA = e89cb48b, RLAST = 0, RRESP = 10
[27115] RDATA = e89cb48b, RLAST = 0, RRESP = 10
[27135] RDATA = e89cb48b, RLAST = 0, RRESP = 10
[27155] RDATA = e89cb48b, RLAST = 1, RRESP = 10
[27175] ARADDR = 6e50, ARLEN = 4
[27195] RDATA = e89cb48b, RLAST = 0, RRESP = 10
[27215] RDATA = e89cb48b, RLAST = 0, RRESP = 10
[27235] RDATA = e89cb48b, RLAST = 0, RRESP = 10
[27255] RDATA = e89cb48b, RLAST = 0, RRESP = 10
[27275] RDATA = e89cb48b, RLAST = 1, RRESP = 10
[27295] ARADDR = 66a4, ARLEN = 14
[27315] RDATA = e89cb48b, RLAST = 0, RRESP = 10
[27335] RDATA = e89cb48b, RLAST = 0, RRESP = 10
[27355] RDATA = e89cb48b, RLAST = 0, RRESP = 10
[27375] RDATA = e89cb48b, RLAST = 0, RRESP = 10
[27395] RDATA = e89cb48b, RLAST = 0, RRESP = 10
[27415] RDATA = e89cb48b, RLAST = 0, RRESP = 10
[27435] RDATA = e89cb48b, RLAST = 0, RRESP = 10
[27455] RDATA = e89cb48b, RLAST = 0, RRESP = 10
[27475] RDATA = e89cb48b, RLAST = 0, RRESP = 10
[27495] RDATA = e89cb48b, RLAST = 0, RRESP = 10
[27515] RDATA = e89cb48b, RLAST = 0, RRESP = 10
[27535] RDATA = e89cb48b, RLAST = 0, RRESP = 10
[27555] RDATA = e89cb48b, RLAST = 0, RRESP = 10
[27575] RDATA = e89cb48b, RLAST = 0, RRESP = 10
[27595] RDATA = e89cb48b, RLAST = 1, RRESP = 10
[27615] AWADDR = 81a4, AWLEN = 8
[27635] WDATA = dee817f9, WLAST = 0
[27645] WDATA = 22211028, WLAST = 0
[27655] WDATA = 2cdb3515, WLAST = 0
[27665] WDATA = 7a4c0442, WLAST = 0
[27675] WDATA = 3b676cf7, WLAST = 0
[27685] WDATA = 186e5604, WLAST = 0
[27695] WDATA = 3633557a, WLAST = 0
[27705] WDATA = 84f4c0f6, WLAST = 0
[27715] WDATA = 3b047766, WLAST = 1
[27725] BRESP = 10
[27745] ARADDR = 81a4, ARLEN = 8
[27765] RDATA = e89cb48b, RLAST = 0, RRESP = 10
[27785] RDATA = e89cb48b, RLAST = 0, RRESP = 10
[27805] RDATA = e89cb48b, RLAST = 0, RRESP = 10
[27825] RDATA = e89cb48b, RLAST = 0, RRESP = 10
[27845] RDATA = e89cb48b, RLAST = 0, RRESP = 10
[27865] RDATA = e89cb48b, RLAST = 0, RRESP = 10
[27885] RDATA = e89cb48b, RLAST = 0, RRESP = 10
[27905] RDATA = e89cb48b, RLAST = 0, RRESP = 10
[27925] RDATA = e89cb48b, RLAST = 1, RRESP = 10
[27945] ARADDR = e6c0, ARLEN = 12
[27965] RDATA = e89cb48b, RLAST = 0, RRESP = 10
[27985] RDATA = e89cb48b, RLAST = 0, RRESP = 10
[28005] RDATA = e89cb48b, RLAST = 0, RRESP = 10
[28025] RDATA = e89cb48b, RLAST = 0, RRESP = 10
[28045] RDATA = e89cb48b, RLAST = 0, RRESP = 10
[28065] RDATA = e89cb48b, RLAST = 0, RRESP = 10
[28085] RDATA = e89cb48b, RLAST = 0, RRESP = 10
[28105] RDATA = e89cb48b, RLAST = 0, RRESP = 10
[28125] RDATA = e89cb48b, RLAST = 0, RRESP = 10
[28145] RDATA = e89cb48b, RLAST = 0, RRESP = 10
[28165] RDATA = e89cb48b, RLAST = 0, RRESP = 10
[28185] RDATA = e89cb48b, RLAST = 0, RRESP = 10
[28205] RDATA = e89cb48b, RLAST = 1, RRESP = 10
[28225] ARADDR = 0348, ARLEN = 0
[28245] RDATA = e89cb48b, RLAST = 1, RRESP = 00
[28265] ARADDR = 0450, ARLEN = 14
[28285] RDATA = e89cb48b, RLAST = 0, RRESP = 00
[28305] RDATA = 3fdff6d5, RLAST = 0, RRESP = 00
[28325] RDATA = 00000000, RLAST = 0, RRESP = 00
[28345] RDATA = 00000000, RLAST = 0, RRESP = 00
[28365] RDATA = 00000000, RLAST = 0, RRESP = 00
[28385] RDATA = 00000000, RLAST = 0, RRESP = 00
[28405] RDATA = 00000000, RLAST = 0, RRESP = 00
[28425] RDATA = 00000000, RLAST = 0, RRESP = 00
[28445] RDATA = 00000000, RLAST = 0, RRESP = 00
[28465] RDATA = 00000000, RLAST = 0, RRESP = 00
[28485] RDATA = 00000000, RLAST = 0, RRESP = 00
[28505] RDATA = 00000000, RLAST = 0, RRESP = 00
[28525] RDATA = 00000000, RLAST = 0, RRESP = 00
[28545] RDATA = 00000000, RLAST = 0, RRESP = 00
[28565] RDATA = 00000000, RLAST = 1, RRESP = 00
[28585] ARADDR = 7f60, ARLEN = 10
[28605] RDATA = 00000000, RLAST = 0, RRESP = 10
[28625] RDATA = 00000000, RLAST = 0, RRESP = 10
[28645] RDATA = 00000000, RLAST = 0, RRESP = 10
[28665] RDATA = 00000000, RLAST = 0, RRESP = 10
[28685] RDATA = 00000000, RLAST = 0, RRESP = 10
[28705] RDATA = 00000000, RLAST = 0, RRESP = 10
[28725] RDATA = 00000000, RLAST = 0, RRESP = 10
[28745] RDATA = 00000000, RLAST = 0, RRESP = 10
[28765] RDATA = 00000000, RLAST = 0, RRESP = 10
[28785] RDATA = 00000000, RLAST = 0, RRESP = 10
[28805] RDATA = 00000000, RLAST = 1, RRESP = 10
[28825] ARADDR = 5190, ARLEN = 13
[28845] RDATA = 00000000, RLAST = 0, RRESP = 10
[28865] RDATA = 00000000, RLAST = 0, RRESP = 10
[28885] RDATA = 00000000, RLAST = 0, RRESP = 10
[28905] RDATA = 00000000, RLAST = 0, RRESP = 10
[28925] RDATA = 00000000, RLAST = 0, RRESP = 10
[28945] RDATA = 00000000, RLAST = 0, RRESP = 10
[28965] RDATA = 00000000, RLAST = 0, RRESP = 10
[28985] RDATA = 00000000, RLAST = 0, RRESP = 10
[29005] RDATA = 00000000, RLAST = 0, RRESP = 10
[29025] RDATA = 00000000, RLAST = 0, RRESP = 10
[29045] RDATA = 00000000, RLAST = 0, RRESP = 10
[29065] RDATA = 00000000, RLAST = 0, RRESP = 10
[29085] RDATA = 00000000, RLAST = 0, RRESP = 10
[29105] RDATA = 00000000, RLAST = 1, RRESP = 10
[29125] ARADDR = 4aa8, ARLEN = 3
[29145] RDATA = 00000000, RLAST = 0, RRESP = 10
[29165] RDATA = 00000000, RLAST = 0, RRESP = 10
[29185] RDATA = 00000000, RLAST = 0, RRESP = 10
[29205] RDATA = 00000000, RLAST = 1, RRESP = 10
[29225] ARADDR = a578, ARLEN = 10
[29245] RDATA = 00000000, RLAST = 0, RRESP = 10
[29265] RDATA = 00000000, RLAST = 0, RRESP = 10
[29285] RDATA = 00000000, RLAST = 0, RRESP = 10
[29305] RDATA = 00000000, RLAST = 0, RRESP = 10
[29325] RDATA = 00000000, RLAST = 0, RRESP = 10
[29345] RDATA = 00000000, RLAST = 0, RRESP = 10
[29365] RDATA = 00000000, RLAST = 0, RRESP = 10
[29385] RDATA = 00000000, RLAST = 0, RRESP = 10
[29405] RDATA = 00000000, RLAST = 0, RRESP = 10
[29425] RDATA = 00000000, RLAST = 0, RRESP = 10
[29445] RDATA = 00000000, RLAST = 1, RRESP = 10
[29465] AWADDR = 4d24, AWLEN = 7
[29485] WDATA = efc2307a, WLAST = 0
[29495] WDATA = a3437ad5, WLAST = 0
[29505] WDATA = 1091d633, WLAST = 0
[29515] WDATA = 826c37ff, WLAST = 0
[29525] WDATA = f30f781c, WLAST = 0
[29535] WDATA = 3a909286, WLAST = 0
[29545] WDATA = 25903c41, WLAST = 0
[29555] WDATA = 7b09db19, WLAST = 1
[29565] BRESP = 10
[29585] ARADDR = 4d24, ARLEN = 7
[29605] RDATA = 00000000, RLAST = 0, RRESP = 10
[29625] RDATA = 00000000, RLAST = 0, RRESP = 10
[29645] RDATA = 00000000, RLAST = 0, RRESP = 10
[29665] RDATA = 00000000, RLAST = 0, RRESP = 10
[29685] RDATA = 00000000, RLAST = 0, RRESP = 10
[29705] RDATA = 00000000, RLAST = 0, RRESP = 10
[29725] RDATA = 00000000, RLAST = 0, RRESP = 10
[29745] RDATA = 00000000, RLAST = 1, RRESP = 10
[29765] AWADDR = 6d4c, AWLEN = 9
[29785] WDATA = 61a9c3b7, WLAST = 0
[29795] WDATA = 1875e7e8, WLAST = 0
[29805] WDATA = 343a76ef, WLAST = 0
[29815] WDATA = a41e92b8, WLAST = 0
[29825] WDATA = 14f8c7a2, WLAST = 0
[29835] WDATA = 7b637631, WLAST = 0
[29845] WDATA = df7d624e, WLAST = 0
[29855] WDATA = 5af864fd, WLAST = 0
[29865] WDATA = 0b68546a, WLAST = 0
[29875] WDATA = 065091f7, WLAST = 1
[29885] BRESP = 10
[29905] ARADDR = 6d4c, ARLEN = 9
[29925] RDATA = 00000000, RLAST = 0, RRESP = 10
[29945] RDATA = 00000000, RLAST = 0, RRESP = 10
[29965] RDATA = 00000000, RLAST = 0, RRESP = 10
[29985] RDATA = 00000000, RLAST = 0, RRESP = 10
[30005] RDATA = 00000000, RLAST = 0, RRESP = 10
[30025] RDATA = 00000000, RLAST = 0, RRESP = 10
[30045] RDATA = 00000000, RLAST = 0, RRESP = 10
[30065] RDATA = 00000000, RLAST = 0, RRESP = 10
[30085] RDATA = 00000000, RLAST = 0, RRESP = 10
[30105] RDATA = 00000000, RLAST = 1, RRESP = 10
[30125] ARADDR = cfc0, ARLEN = 14
[30145] RDATA = 00000000, RLAST = 0, RRESP = 10
[30165] RDATA = 00000000, RLAST = 0, RRESP = 10
[30185] RDATA = 00000000, RLAST = 0, RRESP = 10
[30205] RDATA = 00000000, RLAST = 0, RRESP = 10
[30225] RDATA = 00000000, RLAST = 0, RRESP = 10
[30245] RDATA = 00000000, RLAST = 0, RRESP = 10
[30265] RDATA = 00000000, RLAST = 0, RRESP = 10
[30285] RDATA = 00000000, RLAST = 0, RRESP = 10
[30305] RDATA = 00000000, RLAST = 0, RRESP = 10
[30325] RDATA = 00000000, RLAST = 0, RRESP = 10
[30345] RDATA = 00000000, RLAST = 0, RRESP = 10
[30365] RDATA = 00000000, RLAST = 0, RRESP = 10
[30385] RDATA = 00000000, RLAST = 0, RRESP = 10
[30405] RDATA = 00000000, RLAST = 0, RRESP = 10
[30425] RDATA = 00000000, RLAST = 1, RRESP = 10
[30445] ARADDR = e6ac, ARLEN = 11
[30465] RDATA = 00000000, RLAST = 0, RRESP = 10
[30485] RDATA = 00000000, RLAST = 0, RRESP = 10
[30505] RDATA = 00000000, RLAST = 0, RRESP = 10
[30525] RDATA = 00000000, RLAST = 0, RRESP = 10
[30545] RDATA = 00000000, RLAST = 0, RRESP = 10
[30565] RDATA = 00000000, RLAST = 0, RRESP = 10
[30585] RDATA = 00000000, RLAST = 0, RRESP = 10
[30605] RDATA = 00000000, RLAST = 0, RRESP = 10
[30625] RDATA = 00000000, RLAST = 0, RRESP = 10
[30645] RDATA = 00000000, RLAST = 0, RRESP = 10
[30665] RDATA = 00000000, RLAST = 0, RRESP = 10
[30685] RDATA = 00000000, RLAST = 1, RRESP = 10
[30705] ARADDR = 8bd4, ARLEN = 13
[30725] RDATA = 00000000, RLAST = 0, RRESP = 10
[30745] RDATA = 00000000, RLAST = 0, RRESP = 10
[30765] RDATA = 00000000, RLAST = 0, RRESP = 10
[30785] RDATA = 00000000, RLAST = 0, RRESP = 10
[30805] RDATA = 00000000, RLAST = 0, RRESP = 10
[30825] RDATA = 00000000, RLAST = 0, RRESP = 10
[30845] RDATA = 00000000, RLAST = 0, RRESP = 10
[30865] RDATA = 00000000, RLAST = 0, RRESP = 10
[30885] RDATA = 00000000, RLAST = 0, RRESP = 10
[30905] RDATA = 00000000, RLAST = 0, RRESP = 10
[30925] RDATA = 00000000, RLAST = 0, RRESP = 10
[30945] RDATA = 00000000, RLAST = 0, RRESP = 10
[30965] RDATA = 00000000, RLAST = 0, RRESP = 10
[30985] RDATA = 00000000, RLAST = 1, RRESP = 10
[31005] AWADDR = 5a6c, AWLEN = 1
[31025] WDATA = 95a9e517, WLAST = 0
[31035] WDATA = 594c247c, WLAST = 1
[31045] BRESP = 10
[31065] ARADDR = 5a6c, ARLEN = 1
[31085] RDATA = 00000000, RLAST = 0, RRESP = 10
[31105] RDATA = 00000000, RLAST = 1, RRESP = 10
[31125] AWADDR = 4520, AWLEN = 6
[31145] WDATA = 74d347d1, WLAST = 0
[31155] WDATA = 467e02de, WLAST = 0
[31165] WDATA = 9fa5ba4f, WLAST = 0
[31175] WDATA = 891eef13, WLAST = 0
[31185] WDATA = e1a6829e, WLAST = 0
[31195] WDATA = 497b3771, WLAST = 0
[31205] WDATA = 0a1d9a70, WLAST = 1
[31215] BRESP = 10
[31235] ARADDR = 4520, ARLEN = 6
[31255] RDATA = 00000000, RLAST = 0, RRESP = 10
[31275] RDATA = 00000000, RLAST = 0, RRESP = 10
[31295] RDATA = 00000000, RLAST = 0, RRESP = 10
[31315] RDATA = 00000000, RLAST = 0, RRESP = 10
[31335] RDATA = 00000000, RLAST = 0, RRESP = 10
[31355] RDATA = 00000000, RLAST = 0, RRESP = 10
[31375] RDATA = 00000000, RLAST = 1, RRESP = 10
[31395] ARADDR = 3858, ARLEN = 3
[31415] RDATA = 00000000, RLAST = 0, RRESP = 10
[31435] RDATA = 00000000, RLAST = 0, RRESP = 10
[31455] RDATA = 00000000, RLAST = 0, RRESP = 10
[31475] RDATA = 00000000, RLAST = 1, RRESP = 10
[31495] ARADDR = 5d7c, ARLEN = 4
[31515] RDATA = 00000000, RLAST = 0, RRESP = 10
[31535] RDATA = 00000000, RLAST = 0, RRESP = 10
[31555] RDATA = 00000000, RLAST = 0, RRESP = 10
[31575] RDATA = 00000000, RLAST = 0, RRESP = 10
[31595] RDATA = 00000000, RLAST = 1, RRESP = 10
[31615] ARADDR = 0178, ARLEN = 10
[31635] RDATA = 00000000, RLAST = 0, RRESP = 00
[31655] RDATA = 00000000, RLAST = 0, RRESP = 00
[31675] RDATA = 00000000, RLAST = 0, RRESP = 00
[31695] RDATA = 00000000, RLAST = 0, RRESP = 00
[31715] RDATA = 00000000, RLAST = 0, RRESP = 00
[31735] RDATA = 00000000, RLAST = 0, RRESP = 00
[31755] RDATA = 00000000, RLAST = 0, RRESP = 00
[31775] RDATA = 00000000, RLAST = 0, RRESP = 00
[31795] RDATA = 00000000, RLAST = 0, RRESP = 00
[31815] RDATA = 00000000, RLAST = 0, RRESP = 00
[31835] RDATA = 00000000, RLAST = 1, RRESP = 00
[31855] ARADDR = 1d50, ARLEN = 0
[31875] RDATA = 00000000, RLAST = 1, RRESP = 10
[31895] AWADDR = bcb8, AWLEN = 14
[31915] WDATA = 25ac8004, WLAST = 0
[31925] WDATA = 554508a0, WLAST = 0
[31935] WDATA = 1e90694e, WLAST = 0
[31945] WDATA = 0466ac54, WLAST = 0
[31955] WDATA = 811352df, WLAST = 0
[31965] WDATA = f373f776, WLAST = 0
[31975] WDATA = be5db140, WLAST = 0
[31985] WDATA = 1927215a, WLAST = 0
[31995] WDATA = 04efb4fc, WLAST = 0
[32005] WDATA = 02febe1f, WLAST = 0
[32015] WDATA = 4983dbca, WLAST = 0
[32025] WDATA = 2757e50f, WLAST = 0
[32035] WDATA = fc270199, WLAST = 0
[32045] WDATA = 604058f0, WLAST = 0
[32055] WDATA = f2acbb0c, WLAST = 1
[32065] BRESP = 10
[32085] ARADDR = bcb8, ARLEN = 14
[32105] RDATA = 00000000, RLAST = 0, RRESP = 10
[32125] RDATA = 00000000, RLAST = 0, RRESP = 10
[32145] RDATA = 00000000, RLAST = 0, RRESP = 10
[32165] RDATA = 00000000, RLAST = 0, RRESP = 10
[32185] RDATA = 00000000, RLAST = 0, RRESP = 10
[32205] RDATA = 00000000, RLAST = 0, RRESP = 10
[32225] RDATA = 00000000, RLAST = 0, RRESP = 10
[32245] RDATA = 00000000, RLAST = 0, RRESP = 10
[32265] RDATA = 00000000, RLAST = 0, RRESP = 10
[32285] RDATA = 00000000, RLAST = 0, RRESP = 10
[32305] RDATA = 00000000, RLAST = 0, RRESP = 10
[32325] RDATA = 00000000, RLAST = 0, RRESP = 10
[32345] RDATA = 00000000, RLAST = 0, RRESP = 10
[32365] RDATA = 00000000, RLAST = 0, RRESP = 10
[32385] RDATA = 00000000, RLAST = 1, RRESP = 10
[32405] AWADDR = 535c, AWLEN = 5
[32425] WDATA = 073db5da, WLAST = 0
[32435] WDATA = a2b29089, WLAST = 0
[32445] WDATA = c9ca9561, WLAST = 0
[32455] WDATA = 3e1ac547, WLAST = 0
[32465] WDATA = 9db54c40, WLAST = 0
[32475] WDATA = d5252cfb, WLAST = 1
[32485] BRESP = 10
[32505] ARADDR = 535c, ARLEN = 5
[32525] RDATA = 00000000, RLAST = 0, RRESP = 10
[32545] RDATA = 00000000, RLAST = 0, RRESP = 10
[32565] RDATA = 00000000, RLAST = 0, RRESP = 10
[32585] RDATA = 00000000, RLAST = 0, RRESP = 10
[32605] RDATA = 00000000, RLAST = 0, RRESP = 10
[32625] RDATA = 00000000, RLAST = 1, RRESP = 10
[32645] AWADDR = a918, AWLEN = 12
[32665] WDATA = 4d4b187b, WLAST = 0
[32675] WDATA = 47f658c4, WLAST = 0
[32685] WDATA = 0391debc, WLAST = 0
[32695] WDATA = 10365df3, WLAST = 0
[32705] WDATA = 965652f2, WLAST = 0
[32715] WDATA = c1447327, WLAST = 0
[32725] WDATA = 93a50eee, WLAST = 0
[32735] WDATA = bd1936d7, WLAST = 0
[32745] WDATA = 481c4c17, WLAST = 0
[32755] WDATA = 9cd6a3d4, WLAST = 0
[32765] WDATA = dea85dc4, WLAST = 0
[32775] WDATA = b705c884, WLAST = 0
[32785] WDATA = dc1fe76f, WLAST = 1
[32795] BRESP = 10
[32815] ARADDR = a918, ARLEN = 12
[32835] RDATA = 00000000, RLAST = 0, RRESP = 10
[32855] RDATA = 00000000, RLAST = 0, RRESP = 10
[32875] RDATA = 00000000, RLAST = 0, RRESP = 10
[32895] RDATA = 00000000, RLAST = 0, RRESP = 10
[32915] RDATA = 00000000, RLAST = 0, RRESP = 10
[32935] RDATA = 00000000, RLAST = 0, RRESP = 10
[32955] RDATA = 00000000, RLAST = 0, RRESP = 10
[32975] RDATA = 00000000, RLAST = 0, RRESP = 10
[32995] RDATA = 00000000, RLAST = 0, RRESP = 10
[33015] RDATA = 00000000, RLAST = 0, RRESP = 10
[33035] RDATA = 00000000, RLAST = 0, RRESP = 10
[33055] RDATA = 00000000, RLAST = 0, RRESP = 10
[33075] RDATA = 00000000, RLAST = 1, RRESP = 10
[33095] AWADDR = 3ad8, AWLEN = 13
[33115] WDATA = 9c666577, WLAST = 0
[33125] WDATA = 1b27b08f, WLAST = 0
[33135] WDATA = 1fddf5c5, WLAST = 0
[33145] WDATA = 0117b1ad, WLAST = 0
[33155] WDATA = d7ee1abd, WLAST = 0
[33165] WDATA = 1afb042b, WLAST = 0
[33175] WDATA = 433d72da, WLAST = 0
[33185] WDATA = 8fea6f00, WLAST = 0
[33195] WDATA = a143fa0a, WLAST = 0
[33205] WDATA = 7570c761, WLAST = 0
[33215] WDATA = 16550b97, WLAST = 0
[33225] WDATA = ccecc3d0, WLAST = 0
[33235] WDATA = fcb347be, WLAST = 0
[33245] WDATA = 2b07c9d8, WLAST = 1
[33255] BRESP = 10
[33275] ARADDR = 3ad8, ARLEN = 13
[33295] RDATA = 00000000, RLAST = 0, RRESP = 10
[33315] RDATA = 00000000, RLAST = 0, RRESP = 10
[33335] RDATA = 00000000, RLAST = 0, RRESP = 10
[33355] RDATA = 00000000, RLAST = 0, RRESP = 10
[33375] RDATA = 00000000, RLAST = 0, RRESP = 10
[33395] RDATA = 00000000, RLAST = 0, RRESP = 10
[33415] RDATA = 00000000, RLAST = 0, RRESP = 10
[33435] RDATA = 00000000, RLAST = 0, RRESP = 10
[33455] RDATA = 00000000, RLAST = 0, RRESP = 10
[33475] RDATA = 00000000, RLAST = 0, RRESP = 10
[33495] RDATA = 00000000, RLAST = 0, RRESP = 10
[33515] RDATA = 00000000, RLAST = 0, RRESP = 10
[33535] RDATA = 00000000, RLAST = 0, RRESP = 10
[33555] RDATA = 00000000, RLAST = 1, RRESP = 10
[33575] ARADDR = 2ec0, ARLEN = 6
[33595] RDATA = 00000000, RLAST = 0, RRESP = 10
[33615] RDATA = 00000000, RLAST = 0, RRESP = 10
[33635] RDATA = 00000000, RLAST = 0, RRESP = 10
[33655] RDATA = 00000000, RLAST = 0, RRESP = 10
[33675] RDATA = 00000000, RLAST = 0, RRESP = 10
[33695] RDATA = 00000000, RLAST = 0, RRESP = 10
[33715] RDATA = 00000000, RLAST = 1, RRESP = 10
[33735] AWADDR = 65a8, AWLEN = 6
[33755] WDATA = f5af0d7f, WLAST = 0
[33765] WDATA = 8b7522f4, WLAST = 0
[33775] WDATA = ba653f53, WLAST = 0
[33785] WDATA = c4452053, WLAST = 0
[33795] WDATA = ed8ed46f, WLAST = 0
[33805] WDATA = 791accd9, WLAST = 0
[33815] WDATA = fee26805, WLAST = 1
[33825] BRESP = 10
[33845] ARADDR = 65a8, ARLEN = 6
[33865] RDATA = 00000000, RLAST = 0, RRESP = 10
[33885] RDATA = 00000000, RLAST = 0, RRESP = 10
[33905] RDATA = 00000000, RLAST = 0, RRESP = 10
[33925] RDATA = 00000000, RLAST = 0, RRESP = 10
[33945] RDATA = 00000000, RLAST = 0, RRESP = 10
[33965] RDATA = 00000000, RLAST = 0, RRESP = 10
[33985] RDATA = 00000000, RLAST = 1, RRESP = 10
[34005] ARADDR = 3d10, ARLEN = 10
[34025] RDATA = 00000000, RLAST = 0, RRESP = 10
[34045] RDATA = 00000000, RLAST = 0, RRESP = 10
[34065] RDATA = 00000000, RLAST = 0, RRESP = 10
[34085] RDATA = 00000000, RLAST = 0, RRESP = 10
[34105] RDATA = 00000000, RLAST = 0, RRESP = 10
[34125] RDATA = 00000000, RLAST = 0, RRESP = 10
[34145] RDATA = 00000000, RLAST = 0, RRESP = 10
[34165] RDATA = 00000000, RLAST = 0, RRESP = 10
[34185] RDATA = 00000000, RLAST = 0, RRESP = 10
[34205] RDATA = 00000000, RLAST = 0, RRESP = 10
[34225] RDATA = 00000000, RLAST = 1, RRESP = 10
[34245] ARADDR = c980, ARLEN = 11
[34265] RDATA = 00000000, RLAST = 0, RRESP = 10
[34285] RDATA = 00000000, RLAST = 0, RRESP = 10
[34305] RDATA = 00000000, RLAST = 0, RRESP = 10
[34325] RDATA = 00000000, RLAST = 0, RRESP = 10
[34345] RDATA = 00000000, RLAST = 0, RRESP = 10
[34365] RDATA = 00000000, RLAST = 0, RRESP = 10
[34385] RDATA = 00000000, RLAST = 0, RRESP = 10
[34405] RDATA = 00000000, RLAST = 0, RRESP = 10
[34425] RDATA = 00000000, RLAST = 0, RRESP = 10
[34445] RDATA = 00000000, RLAST = 0, RRESP = 10
[34465] RDATA = 00000000, RLAST = 0, RRESP = 10
[34485] RDATA = 00000000, RLAST = 1, RRESP = 10
[34505] AWADDR = 23a4, AWLEN = 4
[34525] WDATA = 7d6d7794, WLAST = 0
[34535] WDATA = 610054bc, WLAST = 0
[34545] WDATA = 816551a7, WLAST = 0
[34555] WDATA = 8318b354, WLAST = 0
[34565] WDATA = 89bf7268, WLAST = 1
[34575] BRESP = 10
[34595] ARADDR = 23a4, ARLEN = 4
[34615] RDATA = 00000000, RLAST = 0, RRESP = 10
[34635] RDATA = 00000000, RLAST = 0, RRESP = 10
[34655] RDATA = 00000000, RLAST = 0, RRESP = 10
[34675] RDATA = 00000000, RLAST = 0, RRESP = 10
[34695] RDATA = 00000000, RLAST = 1, RRESP = 10
[34715] ARADDR = ccb8, ARLEN = 15
[34735] RDATA = 00000000, RLAST = 0, RRESP = 10
[34755] RDATA = 00000000, RLAST = 0, RRESP = 10
[34775] RDATA = 00000000, RLAST = 0, RRESP = 10
[34795] RDATA = 00000000, RLAST = 0, RRESP = 10
[34815] RDATA = 00000000, RLAST = 0, RRESP = 10
[34835] RDATA = 00000000, RLAST = 0, RRESP = 10
[34855] RDATA = 00000000, RLAST = 0, RRESP = 10
[34875] RDATA = 00000000, RLAST = 0, RRESP = 10
[34895] RDATA = 00000000, RLAST = 0, RRESP = 10
[34915] RDATA = 00000000, RLAST = 0, RRESP = 10
[34935] RDATA = 00000000, RLAST = 0, RRESP = 10
[34955] RDATA = 00000000, RLAST = 0, RRESP = 10
[34975] RDATA = 00000000, RLAST = 0, RRESP = 10
[34995] RDATA = 00000000, RLAST = 0, RRESP = 10
[35015] RDATA = 00000000, RLAST = 0, RRESP = 10
[35035] RDATA = 00000000, RLAST = 1, RRESP = 10
[35055] ARADDR = d5d0, ARLEN = 4
[35075] RDATA = 00000000, RLAST = 0, RRESP = 10
[35095] RDATA = 00000000, RLAST = 0, RRESP = 10
[35115] RDATA = 00000000, RLAST = 0, RRESP = 10
[35135] RDATA = 00000000, RLAST = 0, RRESP = 10
[35155] RDATA = 00000000, RLAST = 1, RRESP = 10
[35175] ARADDR = 110c, ARLEN = 6
[35195] RDATA = 00000000, RLAST = 0, RRESP = 10
[35215] RDATA = 00000000, RLAST = 0, RRESP = 10
[35235] RDATA = 00000000, RLAST = 0, RRESP = 10
[35255] RDATA = 00000000, RLAST = 0, RRESP = 10
[35275] RDATA = 00000000, RLAST = 0, RRESP = 10
[35295] RDATA = 00000000, RLAST = 0, RRESP = 10
[35315] RDATA = 00000000, RLAST = 1, RRESP = 10
[35335] AWADDR = 4974, AWLEN = 7
[35355] WDATA = f138e01e, WLAST = 0
[35365] WDATA = 7015cdaa, WLAST = 0
[35375] WDATA = a2b869da, WLAST = 0
[35385] WDATA = 2d61a050, WLAST = 0
[35395] WDATA = 2d63237f, WLAST = 0
[35405] WDATA = 6f2d36b9, WLAST = 0
[35415] WDATA = 15da7fc6, WLAST = 0
[35425] WDATA = ab07eff1, WLAST = 1
[35435] BRESP = 10
[35455] ARADDR = 4974, ARLEN = 7
[35475] RDATA = 00000000, RLAST = 0, RRESP = 10
[35495] RDATA = 00000000, RLAST = 0, RRESP = 10
[35515] RDATA = 00000000, RLAST = 0, RRESP = 10
[35535] RDATA = 00000000, RLAST = 0, RRESP = 10
[35555] RDATA = 00000000, RLAST = 0, RRESP = 10
[35575] RDATA = 00000000, RLAST = 0, RRESP = 10
[35595] RDATA = 00000000, RLAST = 0, RRESP = 10
[35615] RDATA = 00000000, RLAST = 1, RRESP = 10
[35635] ARADDR = 3f0c, ARLEN = 10
[35655] RDATA = 00000000, RLAST = 0, RRESP = 10
[35675] RDATA = 00000000, RLAST = 0, RRESP = 10
[35695] RDATA = 00000000, RLAST = 0, RRESP = 10
[35715] RDATA = 00000000, RLAST = 0, RRESP = 10
[35735] RDATA = 00000000, RLAST = 0, RRESP = 10
[35755] RDATA = 00000000, RLAST = 0, RRESP = 10
[35775] RDATA = 00000000, RLAST = 0, RRESP = 10
[35795] RDATA = 00000000, RLAST = 0, RRESP = 10
[35815] RDATA = 00000000, RLAST = 0, RRESP = 10
[35835] RDATA = 00000000, RLAST = 0, RRESP = 10
[35855] RDATA = 00000000, RLAST = 1, RRESP = 10
[35875] ARADDR = b198, ARLEN = 13
[35895] RDATA = 00000000, RLAST = 0, RRESP = 10
[35915] RDATA = 00000000, RLAST = 0, RRESP = 10
[35935] RDATA = 00000000, RLAST = 0, RRESP = 10
[35955] RDATA = 00000000, RLAST = 0, RRESP = 10
[35975] RDATA = 00000000, RLAST = 0, RRESP = 10
[35995] RDATA = 00000000, RLAST = 0, RRESP = 10
[36015] RDATA = 00000000, RLAST = 0, RRESP = 10
[36035] RDATA = 00000000, RLAST = 0, RRESP = 10
[36055] RDATA = 00000000, RLAST = 0, RRESP = 10
[36075] RDATA = 00000000, RLAST = 0, RRESP = 10
[36095] RDATA = 00000000, RLAST = 0, RRESP = 10
[36115] RDATA = 00000000, RLAST = 0, RRESP = 10
[36135] RDATA = 00000000, RLAST = 0, RRESP = 10
[36155] RDATA = 00000000, RLAST = 1, RRESP = 10
[36175] AWADDR = 27ac, AWLEN = 4
[36195] WDATA = 7a032ac1, WLAST = 0
[36205] WDATA = 415122d3, WLAST = 0
[36215] WDATA = 8cd036cf, WLAST = 0
[36225] WDATA = cfa3befd, WLAST = 0
[36235] WDATA = a9339be0, WLAST = 1
[36245] BRESP = 10
[36265] ARADDR = 27ac, ARLEN = 4
[36285] RDATA = 00000000, RLAST = 0, RRESP = 10
[36305] RDATA = 00000000, RLAST = 0, RRESP = 10
[36325] RDATA = 00000000, RLAST = 0, RRESP = 10
[36345] RDATA = 00000000, RLAST = 0, RRESP = 10
[36365] RDATA = 00000000, RLAST = 1, RRESP = 10
[36385] ARADDR = d8d4, ARLEN = 9
[36405] RDATA = 00000000, RLAST = 0, RRESP = 10
[36425] RDATA = 00000000, RLAST = 0, RRESP = 10
[36445] RDATA = 00000000, RLAST = 0, RRESP = 10
[36465] RDATA = 00000000, RLAST = 0, RRESP = 10
[36485] RDATA = 00000000, RLAST = 0, RRESP = 10
[36505] RDATA = 00000000, RLAST = 0, RRESP = 10
[36525] RDATA = 00000000, RLAST = 0, RRESP = 10
[36545] RDATA = 00000000, RLAST = 0, RRESP = 10
[36565] RDATA = 00000000, RLAST = 0, RRESP = 10
[36585] RDATA = 00000000, RLAST = 1, RRESP = 10
[36605] AWADDR = 8598, AWLEN = 11
[36625] WDATA = f7bc3525, WLAST = 0
[36635] WDATA = 90513212, WLAST = 0
[36645] WDATA = 2be9cae2, WLAST = 0
[36655] WDATA = 5bf2c1b9, WLAST = 0
[36665] WDATA = 93401be3, WLAST = 0
[36675] WDATA = 5499b897, WLAST = 0
[36685] WDATA = 83a58d0f, WLAST = 0
[36695] WDATA = d1d457a6, WLAST = 0
[36705] WDATA = 9e6f4536, WLAST = 0
[36715] WDATA = bf8f5140, WLAST = 0
[36725] WDATA = d34fae0f, WLAST = 0
[36735] WDATA = 2bae7b49, WLAST = 1
[36745] BRESP = 10
[36765] ARADDR = 8598, ARLEN = 11
[36785] RDATA = 00000000, RLAST = 0, RRESP = 10
[36805] RDATA = 00000000, RLAST = 0, RRESP = 10
[36825] RDATA = 00000000, RLAST = 0, RRESP = 10
[36845] RDATA = 00000000, RLAST = 0, RRESP = 10
[36865] RDATA = 00000000, RLAST = 0, RRESP = 10
[36885] RDATA = 00000000, RLAST = 0, RRESP = 10
[36905] RDATA = 00000000, RLAST = 0, RRESP = 10
[36925] RDATA = 00000000, RLAST = 0, RRESP = 10
[36945] RDATA = 00000000, RLAST = 0, RRESP = 10
[36965] RDATA = 00000000, RLAST = 0, RRESP = 10
[36985] RDATA = 00000000, RLAST = 0, RRESP = 10
[37005] RDATA = 00000000, RLAST = 1, RRESP = 10
[37025] AWADDR = 8530, AWLEN = 15
[37045] WDATA = 8b74ce52, WLAST = 0
[37055] WDATA = 39cff99b, WLAST = 0
[37065] WDATA = f3b2fb80, WLAST = 0
[37075] WDATA = b4e2a02b, WLAST = 0
[37085] WDATA = 0f770d5f, WLAST = 0
[37095] WDATA = cf8ba129, WLAST = 0
[37105] WDATA = 9e6996ac, WLAST = 0
[37115] WDATA = a124d6fb, WLAST = 0
[37125] WDATA = 301b2a4e, WLAST = 0
[37135] WDATA = 38efcc4c, WLAST = 0
[37145] WDATA = 6b8fd6b2, WLAST = 0
[37155] WDATA = 13e1ecac, WLAST = 0
[37165] WDATA = 664e50a8, WLAST = 0
[37175] WDATA = 7fb6ced5, WLAST = 0
[37185] WDATA = ef32347b, WLAST = 0
[37195] WDATA = e9ced7fe, WLAST = 1
[37205] BRESP = 10
[37225] ARADDR = 8530, ARLEN = 15
[37245] RDATA = 00000000, RLAST = 0, RRESP = 10
[37265] RDATA = 00000000, RLAST = 0, RRESP = 10
[37285] RDATA = 00000000, RLAST = 0, RRESP = 10
[37305] RDATA = 00000000, RLAST = 0, RRESP = 10
[37325] RDATA = 00000000, RLAST = 0, RRESP = 10
[37345] RDATA = 00000000, RLAST = 0, RRESP = 10
[37365] RDATA = 00000000, RLAST = 0, RRESP = 10
[37385] RDATA = 00000000, RLAST = 0, RRESP = 10
[37405] RDATA = 00000000, RLAST = 0, RRESP = 10
[37425] RDATA = 00000000, RLAST = 0, RRESP = 10
[37445] RDATA = 00000000, RLAST = 0, RRESP = 10
[37465] RDATA = 00000000, RLAST = 0, RRESP = 10
[37485] RDATA = 00000000, RLAST = 0, RRESP = 10
[37505] RDATA = 00000000, RLAST = 0, RRESP = 10
[37525] RDATA = 00000000, RLAST = 0, RRESP = 10
[37545] RDATA = 00000000, RLAST = 1, RRESP = 10
[37565] AWADDR = 97b8, AWLEN = 0
[37585] WDATA = c2633603, WLAST = 1
[37595] BRESP = 10
[37615] ARADDR = 97b8, ARLEN = 0
[37635] RDATA = 00000000, RLAST = 1, RRESP = 10
[37655] AWADDR = 2b6c, AWLEN = 12
[37675] WDATA = 1caa4933, WLAST = 0
[37685] WDATA = a7dc9c71, WLAST = 0
[37695] WDATA = 9e7365fa, WLAST = 0
[37705] WDATA = 22013ec9, WLAST = 0
[37715] WDATA = 9895dee2, WLAST = 0
[37725] WDATA = 53ea53fc, WLAST = 0
[37735] WDATA = 1e30e266, WLAST = 0
[37745] WDATA = 23a2184e, WLAST = 0
[37755] WDATA = 806e0222, WLAST = 0
[37765] WDATA = f9136579, WLAST = 0
[37775] WDATA = 533c0531, WLAST = 0
[37785] WDATA = 079e8038, WLAST = 0
[37795] WDATA = 586acd26, WLAST = 1
[37805] BRESP = 10
[37825] ARADDR = 2b6c, ARLEN = 12
[37845] RDATA = 00000000, RLAST = 0, RRESP = 10
[37865] RDATA = 00000000, RLAST = 0, RRESP = 10
[37885] RDATA = 00000000, RLAST = 0, RRESP = 10
[37905] RDATA = 00000000, RLAST = 0, RRESP = 10
[37925] RDATA = 00000000, RLAST = 0, RRESP = 10
[37945] RDATA = 00000000, RLAST = 0, RRESP = 10
[37965] RDATA = 00000000, RLAST = 0, RRESP = 10
[37985] RDATA = 00000000, RLAST = 0, RRESP = 10
[38005] RDATA = 00000000, RLAST = 0, RRESP = 10
[38025] RDATA = 00000000, RLAST = 0, RRESP = 10
[38045] RDATA = 00000000, RLAST = 0, RRESP = 10
[38065] RDATA = 00000000, RLAST = 0, RRESP = 10
[38085] RDATA = 00000000, RLAST = 1, RRESP = 10
[38105] AWADDR = d860, AWLEN = 2
[38125] WDATA = d45e0abc, WLAST = 0
[38135] WDATA = 3bea4200, WLAST = 0
[38145] WDATA = 92d8522f, WLAST = 1
[38155] BRESP = 10
[38175] ARADDR = d860, ARLEN = 2
[38195] RDATA = 00000000, RLAST = 0, RRESP = 10
[38215] RDATA = 00000000, RLAST = 0, RRESP = 10
[38235] RDATA = 00000000, RLAST = 1, RRESP = 10
[38255] ARADDR = 9d20, ARLEN = 10
[38275] RDATA = 00000000, RLAST = 0, RRESP = 10
[38295] RDATA = 00000000, RLAST = 0, RRESP = 10
[38315] RDATA = 00000000, RLAST = 0, RRESP = 10
[38335] RDATA = 00000000, RLAST = 0, RRESP = 10
[38355] RDATA = 00000000, RLAST = 0, RRESP = 10
[38375] RDATA = 00000000, RLAST = 0, RRESP = 10
[38395] RDATA = 00000000, RLAST = 0, RRESP = 10
[38415] RDATA = 00000000, RLAST = 0, RRESP = 10
[38435] RDATA = 00000000, RLAST = 0, RRESP = 10
[38455] RDATA = 00000000, RLAST = 0, RRESP = 10
[38475] RDATA = 00000000, RLAST = 1, RRESP = 10
[38495] AWADDR = a928, AWLEN = 7
[38515] WDATA = 9edc0b15, WLAST = 0
[38525] WDATA = 9144048b, WLAST = 0
[38535] WDATA = c33d76a9, WLAST = 0
[38545] WDATA = b2df20e6, WLAST = 0
[38555] WDATA = 2e1fbecb, WLAST = 0
[38565] WDATA = d4fcef09, WLAST = 0
[38575] WDATA = 47c34ecd, WLAST = 0
[38585] WDATA = a791251e, WLAST = 1
[38595] BRESP = 10
[38615] ARADDR = a928, ARLEN = 7
[38635] RDATA = 00000000, RLAST = 0, RRESP = 10
[38655] RDATA = 00000000, RLAST = 0, RRESP = 10
[38675] RDATA = 00000000, RLAST = 0, RRESP = 10
[38695] RDATA = 00000000, RLAST = 0, RRESP = 10
[38715] RDATA = 00000000, RLAST = 0, RRESP = 10
[38735] RDATA = 00000000, RLAST = 0, RRESP = 10
[38755] RDATA = 00000000, RLAST = 0, RRESP = 10
[38775] RDATA = 00000000, RLAST = 1, RRESP = 10
[38795] AWADDR = 7d80, AWLEN = 9
[38815] WDATA = 23a76cbc, WLAST = 0
[38825] WDATA = 2f22c860, WLAST = 0
[38835] WDATA = 8d272f71, WLAST = 0
[38845] WDATA = aa1cc5f1, WLAST = 0
[38855] WDATA = b2172008, WLAST = 0
[38865] WDATA = 266a2892, WLAST = 0
[38875] WDATA = 57d99569, WLAST = 0
[38885] WDATA = 0cb04357, WLAST = 0
[38895] WDATA = 260fa10c, WLAST = 0
[38905] WDATA = f5b9efb8, WLAST = 1
[38915] BRESP = 10
[38935] ARADDR = 7d80, ARLEN = 9
[38955] RDATA = 00000000, RLAST = 0, RRESP = 10
[38975] RDATA = 00000000, RLAST = 0, RRESP = 10
[38995] RDATA = 00000000, RLAST = 0, RRESP = 10
[39015] RDATA = 00000000, RLAST = 0, RRESP = 10
[39035] RDATA = 00000000, RLAST = 0, RRESP = 10
[39055] RDATA = 00000000, RLAST = 0, RRESP = 10
[39075] RDATA = 00000000, RLAST = 0, RRESP = 10
[39095] RDATA = 00000000, RLAST = 0, RRESP = 10
[39115] RDATA = 00000000, RLAST = 0, RRESP = 10
[39135] RDATA = 00000000, RLAST = 1, RRESP = 10
[39155] ARADDR = cac8, ARLEN = 12
[39175] RDATA = 00000000, RLAST = 0, RRESP = 10
[39195] RDATA = 00000000, RLAST = 0, RRESP = 10
[39215] RDATA = 00000000, RLAST = 0, RRESP = 10
[39235] RDATA = 00000000, RLAST = 0, RRESP = 10
[39255] RDATA = 00000000, RLAST = 0, RRESP = 10
[39275] RDATA = 00000000, RLAST = 0, RRESP = 10
[39295] RDATA = 00000000, RLAST = 0, RRESP = 10
[39315] RDATA = 00000000, RLAST = 0, RRESP = 10
[39335] RDATA = 00000000, RLAST = 0, RRESP = 10
[39355] RDATA = 00000000, RLAST = 0, RRESP = 10
[39375] RDATA = 00000000, RLAST = 0, RRESP = 10
[39395] RDATA = 00000000, RLAST = 0, RRESP = 10
[39415] RDATA = 00000000, RLAST = 1, RRESP = 10
[39435] ARADDR = cd0c, ARLEN = 9
[39455] RDATA = 00000000, RLAST = 0, RRESP = 10
[39475] RDATA = 00000000, RLAST = 0, RRESP = 10
[39495] RDATA = 00000000, RLAST = 0, RRESP = 10
[39515] RDATA = 00000000, RLAST = 0, RRESP = 10
[39535] RDATA = 00000000, RLAST = 0, RRESP = 10
[39555] RDATA = 00000000, RLAST = 0, RRESP = 10
[39575] RDATA = 00000000, RLAST = 0, RRESP = 10
[39595] RDATA = 00000000, RLAST = 0, RRESP = 10
[39615] RDATA = 00000000, RLAST = 0, RRESP = 10
[39635] RDATA = 00000000, RLAST = 1, RRESP = 10
[39655] AWADDR = 561c, AWLEN = 14
[39675] WDATA = 1d004ab7, WLAST = 0
[39685] WDATA = a4df076e, WLAST = 0
[39695] WDATA = 98cce71b, WLAST = 0
[39705] WDATA = 05904f89, WLAST = 0
[39715] WDATA = 527fe751, WLAST = 0
[39725] WDATA = e80d3122, WLAST = 0
[39735] WDATA = 0b9bdcbb, WLAST = 0
[39745] WDATA = 8dfa2189, WLAST = 0
[39755] WDATA = b1b0b335, WLAST = 0
[39765] WDATA = 130d0515, WLAST = 0
[39775] WDATA = 5677b280, WLAST = 0
[39785] WDATA = 09ea0c2e, WLAST = 0
[39795] WDATA = 1c27a1de, WLAST = 0
[39805] WDATA = 198b7e66, WLAST = 0
[39815] WDATA = a76009c1, WLAST = 1
[39825] BRESP = 10
[39845] ARADDR = 561c, ARLEN = 14
[39865] RDATA = 00000000, RLAST = 0, RRESP = 10
[39885] RDATA = 00000000, RLAST = 0, RRESP = 10
[39905] RDATA = 00000000, RLAST = 0, RRESP = 10
[39925] RDATA = 00000000, RLAST = 0, RRESP = 10
[39945] RDATA = 00000000, RLAST = 0, RRESP = 10
[39965] RDATA = 00000000, RLAST = 0, RRESP = 10
[39985] RDATA = 00000000, RLAST = 0, RRESP = 10
[40005] RDATA = 00000000, RLAST = 0, RRESP = 10
[40025] RDATA = 00000000, RLAST = 0, RRESP = 10
[40045] RDATA = 00000000, RLAST = 0, RRESP = 10
[40065] RDATA = 00000000, RLAST = 0, RRESP = 10
[40085] RDATA = 00000000, RLAST = 0, RRESP = 10
[40105] RDATA = 00000000, RLAST = 0, RRESP = 10
[40125] RDATA = 00000000, RLAST = 0, RRESP = 10
[40145] RDATA = 00000000, RLAST = 1, RRESP = 10
[40165] ARADDR = 4a54, ARLEN = 0
[40185] RDATA = 00000000, RLAST = 1, RRESP = 10
[40205] AWADDR = 7fa8, AWLEN = 6
[40225] WDATA = 09b2d6de, WLAST = 0
[40235] WDATA = df55113b, WLAST = 0
[40245] WDATA = 37b07b3a, WLAST = 0
[40255] WDATA = 42954919, WLAST = 0
[40265] WDATA = 52b8cc68, WLAST = 0
[40275] WDATA = 2fb44845, WLAST = 0
[40285] WDATA = 71f8af4b, WLAST = 1
[40295] BRESP = 10
[40315] ARADDR = 7fa8, ARLEN = 6
[40335] RDATA = 00000000, RLAST = 0, RRESP = 10
[40355] RDATA = 00000000, RLAST = 0, RRESP = 10
[40375] RDATA = 00000000, RLAST = 0, RRESP = 10
[40395] RDATA = 00000000, RLAST = 0, RRESP = 10
[40415] RDATA = 00000000, RLAST = 0, RRESP = 10
[40435] RDATA = 00000000, RLAST = 0, RRESP = 10
[40455] RDATA = 00000000, RLAST = 1, RRESP = 10
[40475] AWADDR = f50c, AWLEN = 2
[40495] WDATA = a5573abf, WLAST = 0
[40505] WDATA = 1fc5b38d, WLAST = 0
[40515] WDATA = bb01a9b0, WLAST = 1
[40525] BRESP = 10
[40545] ARADDR = f50c, ARLEN = 2
[40565] RDATA = 00000000, RLAST = 0, RRESP = 10
[40585] RDATA = 00000000, RLAST = 0, RRESP = 10
[40605] RDATA = 00000000, RLAST = 1, RRESP = 10
[40625] ARADDR = ece0, ARLEN = 6
[40645] RDATA = 00000000, RLAST = 0, RRESP = 10
[40665] RDATA = 00000000, RLAST = 0, RRESP = 10
[40685] RDATA = 00000000, RLAST = 0, RRESP = 10
[40705] RDATA = 00000000, RLAST = 0, RRESP = 10
[40725] RDATA = 00000000, RLAST = 0, RRESP = 10
[40745] RDATA = 00000000, RLAST = 0, RRESP = 10
[40765] RDATA = 00000000, RLAST = 1, RRESP = 10
[40785] ARADDR = b860, ARLEN = 15
[40805] RDATA = 00000000, RLAST = 0, RRESP = 10
[40825] RDATA = 00000000, RLAST = 0, RRESP = 10
[40845] RDATA = 00000000, RLAST = 0, RRESP = 10
[40865] RDATA = 00000000, RLAST = 0, RRESP = 10
[40885] RDATA = 00000000, RLAST = 0, RRESP = 10
[40905] RDATA = 00000000, RLAST = 0, RRESP = 10
[40925] RDATA = 00000000, RLAST = 0, RRESP = 10
[40945] RDATA = 00000000, RLAST = 0, RRESP = 10
[40965] RDATA = 00000000, RLAST = 0, RRESP = 10
[40985] RDATA = 00000000, RLAST = 0, RRESP = 10
[41005] RDATA = 00000000, RLAST = 0, RRESP = 10
[41025] RDATA = 00000000, RLAST = 0, RRESP = 10
[41045] RDATA = 00000000, RLAST = 0, RRESP = 10
[41065] RDATA = 00000000, RLAST = 0, RRESP = 10
