[25] ARADDR = 0e08, ARLEN = 5
[45] RDATA = 00000382, RLAST = 0, RRESP = 00
[65] RDATA = 00000383, RLAST = 0, RRESP = 00
[85] RDATA = 00000384, RLAST = 0, RRESP = 00
[105] RDATA = 00000385, RLAST = 0, RRESP = 00
[125] RDATA = 00000386, RLAST = 0, RRESP = 00
[145] RDATA = 00000387, RLAST = 1, RRESP = 00
[165] AWADDR = 05a0, AWLEN = 4
[185] WDATA = 913a7932, WLAST = 0
[195] WDATA = 17e9241c, WLAST = 0
[205] WDATA = a3ea30be, WLAST = 0
[215] WDATA = 12f806fd, WLAST = 0
[225] WDATA = 3fb8d2d8, WLAST = 1
[235] BRESP = 00
[255] ARADDR = 05a0, ARLEN = 4
[275] RDATA = 00000168, RLAST = 0, RRESP = 00
[295] RDATA = 00000169, RLAST = 0, RRESP = 00
[315] RDATA = 0000016a, RLAST = 0, RRESP = 00
[335] RDATA = 0000016b, RLAST = 0, RRESP = 00
[355] RDATA = 0000016c, RLAST = 1, RRESP = 00
[375] AWADDR = 0348, AWLEN = 0
[395] WDATA = 536cdb51, WLAST = 1
[405] BRESP = 00
[425] ARADDR = 0348, ARLEN = 0
[445] RDATA = 000000d2, RLAST = 1, RRESP = 00
[465] AWADDR = 0d58, AWLEN = 1
[485] WDATA = 61968fd2, WLAST = 0
[495] WDATA = 536bf2a0, WLAST = 1
[505] BRESP = 00
[525] ARADDR = 0d58, ARLEN = 1
[545] RDATA = 00000356, RLAST = 0, RRESP = 00
[565] RDATA = 00000357, RLAST = 1, RRESP = 00
[585] AWADDR = 0efc, AWLEN = 0
[605] WDATA = f731fc33, WLAST = 1
[615] BRESP = 00
[635] ARADDR = 0efc, ARLEN = 0
[655] RDATA = 000003bf, RLAST = 1, RRESP = 00
[675] AWADDR = 0018, AWLEN = 8
[695] WDATA = caf5baf4, WLAST = 0
[705] WDATA = caa56f5e, WLAST = 0
[715] WDATA = 5fa3b47f, WLAST = 0
[725] WDATA = 3e0f89da, WLAST = 0
[735] WDATA = f3cd9f14, WLAST = 0
[745] WDATA = 9c3b23a2, WLAST = 0
[755] WDATA = 60370af1, WLAST = 0
[765] WDATA = 158f2193, WLAST = 0
[775] WDATA = b7c69af8, WLAST = 1
[785] BRESP = 00
[805] ARADDR = 0018, ARLEN = 8
[825] RDATA = 00000006, RLAST = 0, RRESP = 00
[845] RDATA = 00000007, RLAST = 0, RRESP = 00
[865] RDATA = 00000008, RLAST = 0, RRESP = 00
[885] RDATA = 00000009, RLAST = 0, RRESP = 00
[905] RDATA = 0000000a, RLAST = 0, RRESP = 00
[925] RDATA = 0000000b, RLAST = 0, RRESP = 00
[945] RDATA = 0000000c, RLAST = 0, RRESP = 00
[965] RDATA = 0000000d, RLAST = 0, RRESP = 00
[985] RDATA = 0000000e, RLAST = 1, RRESP = 00
[1005] ARADDR = 04b0, ARLEN = 13
[1025] RDATA = 0000012c, RLAST = 0, RRESP = 00
[1045] RDATA = 0000012d, RLAST = 0, RRESP = 00
[1065] RDATA = 0000012e, RLAST = 0, RRESP = 00
[1085] RDATA = 0000012f, RLAST = 0, RRESP = 00
[1105] RDATA = 00000130, RLAST = 0, RRESP = 00
[1125] RDATA = 00000131, RLAST = 0, RRESP = 00
[1145] RDATA = 00000132, RLAST = 0, RRESP = 00
[1165] RDATA = 00000133, RLAST = 0, RRESP = 00
[1185] RDATA = 00000134, RLAST = 0, RRESP = 00
[1205] RDATA = 00000135, RLAST = 0, RRESP = 00
[1225] RDATA = 00000136, RLAST = 0, RRESP = 00
[1245] RDATA = 00000137, RLAST = 0, RRESP = 00
[1265] RDATA = 00000138, RLAST = 0, RRESP = 00
[1285] RDATA = 00000139, RLAST = 1, RRESP = 00
[1305] AWADDR = 0bac, AWLEN = 1
[1325] WDATA = 858bc4aa, WLAST = 0
[1335] WDATA = 0761ff90, WLAST = 1
[1345] BRESP = 00
[1365] ARADDR = 0bac, ARLEN = 1
[1385] RDATA = 000002eb, RLAST = 0, RRESP = 00
[1405] RDATA = 000002ec, RLAST = 1, RRESP = 00
[1425] AWADDR = 0710, AWLEN = 13
[1445] WDATA = a3d604fd, WLAST = 0
[1455] WDATA = 628101e5, WLAST = 0
[1465] WDATA = 27746d80, WLAST = 0
[1475] WDATA = 834d4a9a, WLAST = 0
[1485] WDATA = 6feeba1e, WLAST = 0
[1495] WDATA = 6bb58161, WLAST = 0
[1505] WDATA = 1922f3e6, WLAST = 0
[1515] WDATA = da0749bb, WLAST = 0
[1525] WDATA = 607a5854, WLAST = 0
[1535] WDATA = 59da0bef, WLAST = 0
[1545] WDATA = 7a518c92, WLAST = 0
[1555] WDATA = d21db6ba, WLAST = 0
[1565] WDATA = 9ee54f3a, WLAST = 0
[1575] WDATA = 0a7d8661, WLAST = 1
[1585] BRESP = 00
[1605] ARADDR = 0710, ARLEN = 13
[1625] RDATA = 000001c4, RLAST = 0, RRESP = 00
[1645] RDATA = 000001c5, RLAST = 0, RRESP = 00
[1665] RDATA = 000001c6, RLAST = 0, RRESP = 00
[1685] RDATA = 000001c7, RLAST = 0, RRESP = 00
[1705] RDATA = 000001c8, RLAST = 0, RRESP = 00
[1725] RDATA = 000001c9, RLAST = 0, RRESP = 00
[1745] RDATA = 000001ca, RLAST = 0, RRESP = 00
[1765] RDATA = 000001cb, RLAST = 0, RRESP = 00
[1785] RDATA = 000001cc, RLAST = 0, RRESP = 00
[1805] RDATA = 000001cd, RLAST = 0, RRESP = 00
[1825] RDATA = 000001ce, RLAST = 0, RRESP = 00
[1845] RDATA = 000001cf, RLAST = 0, RRESP = 00
[1865] RDATA = 000001d0, RLAST = 0, RRESP = 00
[1885] RDATA = 000001d1, RLAST = 1, RRESP = 00
[1905] AWADDR = 0e7c, AWLEN = 6
[1925] WDATA = f37ab271, WLAST = 0
[1935] WDATA = 7676c92f, WLAST = 0
[1945] WDATA = 8fc41d5f, WLAST = 0
[1955] WDATA = 74f90a92, WLAST = 0
[1965] WDATA = 0abc4c48, WLAST = 0
[1975] WDATA = cf24e577, WLAST = 0
[1985] WDATA = 2737228a, WLAST = 1
[1995] BRESP = 00
[2015] ARADDR = 0e7c, ARLEN = 6
[2035] RDATA = f37ab271, RLAST = 0, RRESP = 00
[2055] RDATA = 7676c92f, RLAST = 0, RRESP = 00
[2075] RDATA = 8fc41d5f, RLAST = 0, RRESP = 00
[2095] RDATA = 74f90a92, RLAST = 0, RRESP = 00
[2115] RDATA = 0abc4c48, RLAST = 0, RRESP = 00
[2135] RDATA = cf24e577, RLAST = 0, RRESP = 00
[2155] RDATA = 2737228a, RLAST = 1, RRESP = 00
[2175] ARADDR = 06d8, ARLEN = 2
[2195] RDATA = 000001b6, RLAST = 0, RRESP = 00
[2215] RDATA = 000001b7, RLAST = 0, RRESP = 00
[2235] RDATA = 000001b8, RLAST = 1, RRESP = 00
[2255] ARADDR = 0dd4, ARLEN = 3
[2275] RDATA = 00000375, RLAST = 0, RRESP = 00
[2295] RDATA = 00000376, RLAST = 0, RRESP = 00
[2315] RDATA = 00000377, RLAST = 0, RRESP = 00
[2335] RDATA = 00000378, RLAST = 1, RRESP = 00
[2355] AWADDR = 0690, AWLEN = 10
[2375] WDATA = 2b01ca24, WLAST = 0
[2385] WDATA = 4d1e08f9, WLAST = 0
[2395] WDATA = ebf76165, WLAST = 0
[2405] WDATA = 3b9eb302, WLAST = 0
[2415] WDATA = fca63be8, WLAST = 0
[2425] WDATA = 538923c5, WLAST = 0
[2435] WDATA = 684d2b2a, WLAST = 0
[2445] WDATA = a4711012, WLAST = 0
[2455] WDATA = e50d3680, WLAST = 0
[2465] WDATA = 3314559f, WLAST = 0
[2475] WDATA = cf38bc2d, WLAST = 1
[2485] BRESP = 00
[2505] ARADDR = 0690, ARLEN = 10
[2525] RDATA = 000001a4, RLAST = 0, RRESP = 00
[2545] RDATA = 000001a5, RLAST = 0, RRESP = 00
[2565] RDATA = 000001a6, RLAST = 0, RRESP = 00
[2585] RDATA = 000001a7, RLAST = 0, RRESP = 00
[2605] RDATA = 000001a8, RLAST = 0, RRESP = 00
[2625] RDATA = 000001a9, RLAST = 0, RRESP = 00
[2645] RDATA = 000001aa, RLAST = 0, RRESP = 00
[2665] RDATA = 000001ab, RLAST = 0, RRESP = 00
[2685] RDATA = 000001ac, RLAST = 0, RRESP = 00
[2705] RDATA = 000001ad, RLAST = 0, RRESP = 00
[2725] RDATA = 000001ae, RLAST = 1, RRESP = 00
[2745] AWADDR = 04d4, AWLEN = 2
[2765] WDATA = 58bb427b, WLAST = 0
[2775] WDATA = d376589f, WLAST = 0
[2785] WDATA = d7ac6f0e, WLAST = 1
[2795] BRESP = 00
[2815] ARADDR = 04d4, ARLEN = 2
[2835] RDATA = 00000135, RLAST = 0, RRESP = 00
[2855] RDATA = 00000136, RLAST = 0, RRESP = 00
[2875] RDATA = 00000137, RLAST = 1, RRESP = 00
[2895] ARADDR = 0dd8, ARLEN = 13
[2915] RDATA = 00000376, RLAST = 0, RRESP = 00
[2935] RDATA = 00000377, RLAST = 0, RRESP = 00
[2955] RDATA = 00000378, RLAST = 0, RRESP = 00
[2975] RDATA = 00000379, RLAST = 0, RRESP = 00
[2995] RDATA = 0000037a, RLAST = 0, RRESP = 00
[3015] RDATA = 0000037b, RLAST = 0, RRESP = 00
[3035] RDATA = 0000037c, RLAST = 0, RRESP = 00
[3055] RDATA = 0000037d, RLAST = 0, RRESP = 00
[3075] RDATA = 0000037e, RLAST = 0, RRESP = 00
[3095] RDATA = 0000037f, RLAST = 0, RRESP = 00
[3115] RDATA = 00000380, RLAST = 0, RRESP = 00
[3135] RDATA = 00000381, RLAST = 0, RRESP = 00
[3155] RDATA = 00000382, RLAST = 0, RRESP = 00
[3175] RDATA = 00000383, RLAST = 1, RRESP = 00
[3195] ARADDR = 0858, ARLEN = 7
[3215] RDATA = 00000216, RLAST = 0, RRESP = 00
[3235] RDATA = 00000217, RLAST = 0, RRESP = 00
[3255] RDATA = 00000218, RLAST = 0, RRESP = 00
[3275] RDATA = 00000219, RLAST = 0, RRESP = 00
[3295] RDATA = 0000021a, RLAST = 0, RRESP = 00
[3315] RDATA = 0000021b, RLAST = 0, RRESP = 00
[3335] RDATA = 0000021c, RLAST = 0, RRESP = 00
[3355] RDATA = 0000021d, RLAST = 1, RRESP = 00
[3375] AWADDR = 0614, AWLEN = 5
[3395] WDATA = 87339d6d, WLAST = 0
[3405] WDATA = ea455fac, WLAST = 0
[3415] WDATA = ea108187, WLAST = 0
[3425] WDATA = 64688849, WLAST = 0
[3435] WDATA = 7da76e9a, WLAST = 0
[3445] WDATA = cdaec229, WLAST = 1
[3455] BRESP = 00
[3475] ARADDR = 0614, ARLEN = 5
[3495] RDATA = 00000185, RLAST = 0, RRESP = 00
[3515] RDATA = 00000186, RLAST = 0, RRESP = 00
[3535] RDATA = 00000187, RLAST = 0, RRESP = 00
[3555] RDATA = 00000188, RLAST = 0, RRESP = 00
[3575] RDATA = 00000189, RLAST = 0, RRESP = 00
[3595] RDATA = 0000018a, RLAST = 1, RRESP = 00
[3615] ARADDR = 036c, ARLEN = 10
[3635] RDATA = 000000db, RLAST = 0, RRESP = 00
[3655] RDATA = 000000dc, RLAST = 0, RRESP = 00
[3675] RDATA = 000000dd, RLAST = 0, RRESP = 00
[3695] RDATA = 000000de, RLAST = 0, RRESP = 00
[3715] RDATA = 000000df, RLAST = 0, RRESP = 00
[3735] RDATA = 000000e0, RLAST = 0, RRESP = 00
[3755] RDATA = 000000e1, RLAST = 0, RRESP = 00
[3775] RDATA = 000000e2, RLAST = 0, RRESP = 00
[3795] RDATA = 000000e3, RLAST = 0, RRESP = 00
[3815] RDATA = 000000e4, RLAST = 0, RRESP = 00
[3835] RDATA = 000000e5, RLAST = 1, RRESP = 00
[3855] AWADDR = 0a7c, AWLEN = 1
[3875] WDATA = d1a0e9c7, WLAST = 0
[3885] WDATA = 5eaa6316, WLAST = 1
[3895] BRESP = 00
[3915] ARADDR = 0a7c, ARLEN = 1
[3935] RDATA = d1a0e9c7, RLAST = 0, RRESP = 00
[3955] RDATA = 5eaa6316, RLAST = 1, RRESP = 00
[3975] ARADDR = 0330, ARLEN = 4
[3995] RDATA = 000000cc, RLAST = 0, RRESP = 00
[4015] RDATA = 000000cd, RLAST = 0, RRESP = 00
[4035] RDATA = 000000ce, RLAST = 0, RRESP = 00
[4055] RDATA = 000000cf, RLAST = 0, RRESP = 00
[4075] RDATA = 000000d0, RLAST = 1, RRESP = 00
[4095] ARADDR = 0220, ARLEN = 3
[4115] RDATA = 00000088, RLAST = 0, RRESP = 00
[4135] RDATA = 00000089, RLAST = 0, RRESP = 00
[4155] RDATA = 0000008a, RLAST = 0, RRESP = 00
[4175] RDATA = 0000008b, RLAST = 1, RRESP = 00
[4195] ARADDR = 06a4, ARLEN = 0
[4215] RDATA = 000001a9, RLAST = 1, RRESP = 00
[4235] AWADDR = 0f40, AWLEN = 13
[4255] WDATA = db2968b2, WLAST = 0
[4265] WDATA = 4a56bb57, WLAST = 0
[4275] WDATA = 9fbbf4a8, WLAST = 0
[4285] WDATA = 24226c7f, WLAST = 0
[4295] WDATA = 761dbcb9, WLAST = 0
[4305] WDATA = 55768587, WLAST = 0
[4315] WDATA = 6f56b344, WLAST = 0
[4325] WDATA = 6996a1ba, WLAST = 0
[4335] WDATA = f4c3cd25, WLAST = 0
[4345] WDATA = 18b08f47, WLAST = 0
[4355] WDATA = 7406ff8b, WLAST = 0
[4365] WDATA = 8817a112, WLAST = 0
[4375] WDATA = fa4e2af2, WLAST = 0
[4385] WDATA = fa89ed27, WLAST = 1
[4395] BRESP = 00
[4415] ARADDR = 0f40, ARLEN = 13
[4435] RDATA = db2968b2, RLAST = 0, RRESP = 00
[4455] RDATA = 4a56bb57, RLAST = 0, RRESP = 00
[4475] RDATA = 9fbbf4a8, RLAST = 0, RRESP = 00
[4495] RDATA = 24226c7f, RLAST = 0, RRESP = 00
[4515] RDATA = 761dbcb9, RLAST = 0, RRESP = 00
[4535] RDATA = 55768587, RLAST = 0, RRESP = 00
[4555] RDATA = 6f56b344, RLAST = 0, RRESP = 00
[4575] RDATA = 6996a1ba, RLAST = 0, RRESP = 00
[4595] RDATA = f4c3cd25, RLAST = 0, RRESP = 00
[4615] RDATA = 18b08f47, RLAST = 0, RRESP = 00
[4635] RDATA = 7406ff8b, RLAST = 0, RRESP = 00
[4655] RDATA = 8817a112, RLAST = 0, RRESP = 00
[4675] RDATA = fa4e2af2, RLAST = 0, RRESP = 00
[4695] RDATA = fa89ed27, RLAST = 1, RRESP = 00
[4715] AWADDR = 0ad0, AWLEN = 2
[4735] WDATA = 00bdfc87, WLAST = 0
[4745] WDATA = c8dec84d, WLAST = 0
[4755] WDATA = 73685ab6, WLAST = 1
[4765] BRESP = 00
[4785] ARADDR = 0ad0, ARLEN = 2
[4805] RDATA = 000002b4, RLAST = 0, RRESP = 00
[4825] RDATA = 000002b5, RLAST = 0, RRESP = 00
[4845] RDATA = 000002b6, RLAST = 1, RRESP = 00
[4865] ARADDR = 0348, ARLEN = 9
[4885] RDATA = 000000d2, RLAST = 0, RRESP = 00
[4905] RDATA = 000000d3, RLAST = 0, RRESP = 00
[4925] RDATA = 000000d4, RLAST = 0, RRESP = 00
[4945] RDATA = 000000d5, RLAST = 0, RRESP = 00
[4965] RDATA = 000000d6, RLAST = 0, RRESP = 00
[4985] RDATA = 000000d7, RLAST = 0, RRESP = 00
[5005] RDATA = 000000d8, RLAST = 0, RRESP = 00
[5025] RDATA = 000000d9, RLAST = 0, RRESP = 00
[5045] RDATA = 000000da, RLAST = 0, RRESP = 00
[5065] RDATA = 000000db, RLAST = 1, RRESP = 00
[5085] ARADDR = 09a8, ARLEN = 15
[5105] RDATA = 0000026a, RLAST = 0, RRESP = 00
[5125] RDATA = 0000026b, RLAST = 0, RRESP = 00
[5145] RDATA = 0000026c, RLAST = 0, RRESP = 00
[5165] RDATA = 0000026d, RLAST = 0, RRESP = 00
[5185] RDATA = 0000026e, RLAST = 0, RRESP = 00
[5205] RDATA = 0000026f, RLAST = 0, RRESP = 00
[5225] RDATA = 00000270, RLAST = 0, RRESP = 00
[5245] RDATA = 00000271, RLAST = 0, RRESP = 00
[5265] RDATA = 00000272, RLAST = 0, RRESP = 00
[5285] RDATA = 00000273, RLAST = 0, RRESP = 00
[5305] RDATA = 00000274, RLAST = 0, RRESP = 00
[5325] RDATA = 00000275, RLAST = 0, RRESP = 00
[5345] RDATA = 00000276, RLAST = 0, RRESP = 00
[5365] RDATA = 00000277, RLAST = 0, RRESP = 00
[5385] RDATA = 00000278, RLAST = 0, RRESP = 00
[5405] RDATA = 00000279, RLAST = 1, RRESP = 00
[5425] ARADDR = 07b8, ARLEN = 5
[5445] RDATA = 000001ee, RLAST = 0, RRESP = 00
[5465] RDATA = 000001ef, RLAST = 0, RRESP = 00
[5485] RDATA = 000001f0, RLAST = 0, RRESP = 00
[5505] RDATA = 000001f1, RLAST = 0, RRESP = 00
[5525] RDATA = 000001f2, RLAST = 0, RRESP = 00
[5545] RDATA = 000001f3, RLAST = 1, RRESP = 00
[5565] ARADDR = 06e8, ARLEN = 9
[5585] RDATA = 000001ba, RLAST = 0, RRESP = 00
[5605] RDATA = 000001bb, RLAST = 0, RRESP = 00
[5625] RDATA = 000001bc, RLAST = 0, RRESP = 00
[5645] RDATA = 000001bd, RLAST = 0, RRESP = 00
[5665] RDATA = 000001be, RLAST = 0, RRESP = 00
[5685] RDATA = 000001bf, RLAST = 0, RRESP = 00
[5705] RDATA = 000001c0, RLAST = 0, RRESP = 00
[5725] RDATA = 000001c1, RLAST = 0, RRESP = 00
[5745] RDATA = 000001c2, RLAST = 0, RRESP = 00
[5765] RDATA = 000001c3, RLAST = 1, RRESP = 00
[5785] AWADDR = 07e8, AWLEN = 4
[5805] WDATA = 23890aa1, WLAST = 0
[5815] WDATA = efec1c1d, WLAST = 0
[5825] WDATA = f57d8ca5, WLAST = 0
[5835] WDATA = 10316194, WLAST = 0
[5845] WDATA = 78773374, WLAST = 1
[5855] BRESP = 00
[5875] ARADDR = 07e8, ARLEN = 4
[5895] RDATA = 000001fa, RLAST = 0, RRESP = 00
[5915] RDATA = 000001fb, RLAST = 0, RRESP = 00
[5935] RDATA = 000001fc, RLAST = 0, RRESP = 00
[5955] RDATA = 000001fd, RLAST = 0, RRESP = 00
[5975] RDATA = 000001fe, RLAST = 1, RRESP = 00
[5995] ARADDR = 0b3c, ARLEN = 5
[6015] RDATA = 000002cf, RLAST = 0, RRESP = 00
[6035] RDATA = 000002d0, RLAST = 0, RRESP = 00
[6055] RDATA = 000002d1, RLAST = 0, RRESP = 00
[6075] RDATA = 000002d2, RLAST = 0, RRESP = 00
[6095] RDATA = 000002d3, RLAST = 0, RRESP = 00
[6115] RDATA = 000002d4, RLAST = 1, RRESP = 00
[6135] ARADDR = 0538, ARLEN = 11
[6155] RDATA = 0000014e, RLAST = 0, RRESP = 00
[6175] RDATA = 0000014f, RLAST = 0, RRESP = 00
[6195] RDATA = 00000150, RLAST = 0, RRESP = 00
[6215] RDATA = 00000151, RLAST = 0, RRESP = 00
[6235] RDATA = 00000152, RLAST = 0, RRESP = 00
[6255] RDATA = 00000153, RLAST = 0, RRESP = 00
[6275] RDATA = 00000154, RLAST = 0, RRESP = 00
[6295] RDATA = 00000155, RLAST = 0, RRESP = 00
[6315] RDATA = 00000156, RLAST = 0, RRESP = 00
[6335] RDATA = 00000157, RLAST = 0, RRESP = 00
[6355] RDATA = 00000158, RLAST = 0, RRESP = 00
[6375] RDATA = 00000159, RLAST = 1, RRESP = 00
[6395] AWADDR = 0bf8, AWLEN = 6
[6415] WDATA = 80125c44, WLAST = 0
[6425] WDATA = a9d5e67b, WLAST = 0
[6435] WDATA = f9868d2d, WLAST = 0
[6445] WDATA = 45ac0489, WLAST = 0
[6455] WDATA = 6a9574e8, WLAST = 0
[6465] WDATA = eeb876fa, WLAST = 0
[6475] WDATA = d79bc853, WLAST = 1
[6485] BRESP = 00
[6505] ARADDR = 0bf8, ARLEN = 6
[6525] RDATA = 000002fe, RLAST = 0, RRESP = 00
[6545] RDATA = 000002ff, RLAST = 0, RRESP = 00
[6565] RDATA = 00000300, RLAST = 0, RRESP = 00
[6585] RDATA = 00000301, RLAST = 0, RRESP = 00
[6605] RDATA = 00000302, RLAST = 0, RRESP = 00
[6625] RDATA = 00000303, RLAST = 0, RRESP = 00
[6645] RDATA = 00000304, RLAST = 1, RRESP = 00
[6665] AWADDR = 04a0, AWLEN = 11
[6685] WDATA = c0322177, WLAST = 0
[6695] WDATA = 9bc85e7c, WLAST = 0
[6705] WDATA = 2eb72eea, WLAST = 0
[6715] WDATA = c5c898b6, WLAST = 0
[6725] WDATA = 60290185, WLAST = 0
[6735] WDATA = 12fba654, WLAST = 0
[6745] WDATA = 40fb70b8, WLAST = 0
[6755] WDATA = bc982005, WLAST = 0
[6765] WDATA = 7633f4e7, WLAST = 0
[6775] WDATA = c8a96c0a, WLAST = 0
[6785] WDATA = a3a90074, WLAST = 0
[6795] WDATA = 6aaa258f, WLAST = 1
[6805] BRESP = 00
[6825] ARADDR = 04a0, ARLEN = 11
[6845] RDATA = 00000128, RLAST = 0, RRESP = 00
[6865] RDATA = 00000129, RLAST = 0, RRESP = 00
[6885] RDATA = 0000012a, RLAST = 0, RRESP = 00
[6905] RDATA = 0000012b, RLAST = 0, RRESP = 00
[6925] RDATA = 0000012c, RLAST = 0, RRESP = 00
[6945] RDATA = 0000012d, RLAST = 0, RRESP = 00
[6965] RDATA = 0000012e, RLAST = 0, RRESP = 00
[6985] RDATA = 0000012f, RLAST = 0, RRESP = 00
[7005] RDATA = 00000130, RLAST = 0, RRESP = 00
[7025] RDATA = 00000131, RLAST = 0, RRESP = 00
[7045] RDATA = 00000132, RLAST = 0, RRESP = 00
[7065] RDATA = 00000133, RLAST = 1, RRESP = 00
[7085] AWADDR = 0560, AWLEN = 12
[7105] WDATA = ba69190f, WLAST = 0
[7115] WDATA = 9b22ac42, WLAST = 0
[7125] WDATA = 483c9445, WLAST = 0
[7135] WDATA = 8074159c, WLAST = 0
[7145] WDATA = 00111143, WLAST = 0
[7155] WDATA = b7b08c56, WLAST = 0
[7165] WDATA = 97b6d892, WLAST = 0
[7175] WDATA = cf897bba, WLAST = 0
[7185] WDATA = feeed971, WLAST = 0
[7195] WDATA = 454a6765, WLAST = 0
[7205] WDATA = 5a69588c, WLAST = 0
[7215] WDATA = e3ee2f01, WLAST = 0
[7225] WDATA = 152a72e3, WLAST = 1
[7235] BRESP = 00
[7255] ARADDR = 0560, ARLEN = 12
[7275] RDATA = ba69190f, RLAST = 0, RRESP = 00
[7295] RDATA = 9b22ac42, RLAST = 0, RRESP = 00
[7315] RDATA = 483c9445, RLAST = 0, RRESP = 00
[7335] RDATA = 8074159c, RLAST = 0, RRESP = 00
[7355] RDATA = 00111143, RLAST = 0, RRESP = 00
[7375] RDATA = b7b08c56, RLAST = 0, RRESP = 00
[7395] RDATA = 97b6d892, RLAST = 0, RRESP = 00
[7415] RDATA = cf897bba, RLAST = 0, RRESP = 00
[7435] RDATA = feeed971, RLAST = 0, RRESP = 00
[7455] RDATA = 454a6765, RLAST = 0, RRESP = 00
[7475] RDATA = 5a69588c, RLAST = 0, RRESP = 00
[7495] RDATA = e3ee2f01, RLAST = 0, RRESP = 00
[7515] RDATA = 152a72e3, RLAST = 1, RRESP = 00
[7535] AWADDR = 0804, AWLEN = 15
[7555] WDATA = 0447c912, WLAST = 0
[7565] WDATA = 83b6a3dc, WLAST = 0
[7575] WDATA = 651c1dc4, WLAST = 0
[7585] WDATA = 6cabc795, WLAST = 0
[7595] WDATA = bd2316b9, WLAST = 0
[7605] WDATA = 932ca5dd, WLAST = 0
[7615] WDATA = 44a7249b, WLAST = 0
[7625] WDATA = ef4ef672, WLAST = 0
[7635] WDATA = 574a6e3b, WLAST = 0
[7645] WDATA = e7284f80, WLAST = 0
[7655] WDATA = b01d00a8, WLAST = 0
[7665] WDATA = c07d87cd, WLAST = 0
[7675] WDATA = 5a7ae703, WLAST = 0
[7685] WDATA = 4490105d, WLAST = 0
[7695] WDATA = 2ee0bd10, WLAST = 0
[7705] WDATA = 88f44baf, WLAST = 1
[7715] BRESP = 00
[7735] ARADDR = 0804, ARLEN = 15
[7755] RDATA = 00000201, RLAST = 0, RRESP = 00
[7775] RDATA = 00000202, RLAST = 0, RRESP = 00
[7795] RDATA = 00000203, RLAST = 0, RRESP = 00
[7815] RDATA = 00000204, RLAST = 0, RRESP = 00
[7835] RDATA = 00000205, RLAST = 0, RRESP = 00
[7855] RDATA = 00000206, RLAST = 0, RRESP = 00
[7875] RDATA = 00000207, RLAST = 0, RRESP = 00
[7895] RDATA = 00000208, RLAST = 0, RRESP = 00
[7915] RDATA = 00000209, RLAST = 0, RRESP = 00
[7935] RDATA = 0000020a, RLAST = 0, RRESP = 00
[7955] RDATA = 0000020b, RLAST = 0, RRESP = 00
[7975] RDATA = 0000020c, RLAST = 0, RRESP = 00
[7995] RDATA = 0000020d, RLAST = 0, RRESP = 00
[8015] RDATA = 0000020e, RLAST = 0, RRESP = 00
[8035] RDATA = 0000020f, RLAST = 0, RRESP = 00
[8055] RDATA = 00000210, RLAST = 1, RRESP = 00
[8075] ARADDR = 054c, ARLEN = 1
[8095] RDATA = 00000153, RLAST = 0, RRESP = 00
[8115] RDATA = 00000154, RLAST = 1, RRESP = 00
[8135] AWADDR = 0948, AWLEN = 2
[8155] WDATA = c0a6f7b4, WLAST = 0
[8165] WDATA = d832bde8, WLAST = 0
[8175] WDATA = c19605c4, WLAST = 1
[8185] BRESP = 00
[8205] ARADDR = 0948, ARLEN = 2
[8225] RDATA = 00000252, RLAST = 0, RRESP = 00
[8245] RDATA = 00000253, RLAST = 0, RRESP = 00
[8265] RDATA = 00000254, RLAST = 1, RRESP = 00
[8285] AWADDR = 0aec, AWLEN = 15
[8305] WDATA = 0468e815, WLAST = 0
[8315] WDATA = 983a50f5, WLAST = 0
[8325] WDATA = 8cee4d18, WLAST = 0
[8335] WDATA = 87c563fb, WLAST = 0
[8345] WDATA = 0cc4c578, WLAST = 0
[8355] WDATA = cd54c6d4, WLAST = 0
[8365] WDATA = 799c32b6, WLAST = 0
[8375] WDATA = 54ade280, WLAST = 0
[8385] WDATA = 72be29c9, WLAST = 0
[8395] WDATA = 0429fd5d, WLAST = 0
[8405] WDATA = 9798cb86, WLAST = 0
[8415] WDATA = 47c2b4d1, WLAST = 0
[8425] WDATA = a0d84a0b, WLAST = 0
[8435] WDATA = 0a4f5965, WLAST = 0
[8445] WDATA = 5113b866, WLAST = 0
[8455] WDATA = 23c77dd8, WLAST = 1
[8465] BRESP = 00
[8485] ARADDR = 0aec, ARLEN = 15
[8505] RDATA = 0468e815, RLAST = 0, RRESP = 00
[8525] RDATA = 983a50f5, RLAST = 0, RRESP = 00
[8545] RDATA = 8cee4d18, RLAST = 0, RRESP = 00
[8565] RDATA = 87c563fb, RLAST = 0, RRESP = 00
[8585] RDATA = 0cc4c578, RLAST = 0, RRESP = 00
[8605] RDATA = cd54c6d4, RLAST = 0, RRESP = 00
[8625] RDATA = 799c32b6, RLAST = 0, RRESP = 00
[8645] RDATA = 54ade280, RLAST = 0, RRESP = 00
[8665] RDATA = 72be29c9, RLAST = 0, RRESP = 00
[8685] RDATA = 0429fd5d, RLAST = 0, RRESP = 00
[8705] RDATA = 9798cb86, RLAST = 0, RRESP = 00
[8725] RDATA = 47c2b4d1, RLAST = 0, RRESP = 00
[8745] RDATA = a0d84a0b, RLAST = 0, RRESP = 00
[8765] RDATA = 0a4f5965, RLAST = 0, RRESP = 00
[8785] RDATA = 5113b866, RLAST = 0, RRESP = 00
[8805] RDATA = 23c77dd8, RLAST = 1, RRESP = 00
[8825] ARADDR = 0274, ARLEN = 13
[8845] RDATA = 0000009d, RLAST = 0, RRESP = 00
[8865] RDATA = 0000009e, RLAST = 0, RRESP = 00
[8885] RDATA = 0000009f, RLAST = 0, RRESP = 00
[8905] RDATA = 000000a0, RLAST = 0, RRESP = 00
[8925] RDATA = 000000a1, RLAST = 0, RRESP = 00
[8945] RDATA = 000000a2, RLAST = 0, RRESP = 00
[8965] RDATA = 000000a3, RLAST = 0, RRESP = 00
[8985] RDATA = 000000a4, RLAST = 0, RRESP = 00
[9005] RDATA = 000000a5, RLAST = 0, RRESP = 00
[9025] RDATA = 000000a6, RLAST = 0, RRESP = 00
[9045] RDATA = 000000a7, RLAST = 0, RRESP = 00
[9065] RDATA = 000000a8, RLAST = 0, RRESP = 00
[9085] RDATA = 000000a9, RLAST = 0, RRESP = 00
[9105] RDATA = 000000aa, RLAST = 1, RRESP = 00
[9125] ARADDR = 0df4, ARLEN = 12
[9145] RDATA = 0000037d, RLAST = 0, RRESP = 00
[9165] RDATA = 0000037e, RLAST = 0, RRESP = 00
[9185] RDATA = 0000037f, RLAST = 0, RRESP = 00
[9205] RDATA = 00000380, RLAST = 0, RRESP = 00
[9225] RDATA = 00000381, RLAST = 0, RRESP = 00
[9245] RDATA = 00000382, RLAST = 0, RRESP = 00
[9265] RDATA = 00000383, RLAST = 0, RRESP = 00
[9285] RDATA = 00000384, RLAST = 0, RRESP = 00
[9305] RDATA = 00000385, RLAST = 0, RRESP = 00
[9325] RDATA = 00000386, RLAST = 0, RRESP = 00
[9345] RDATA = 00000387, RLAST = 0, RRESP = 00
[9365] RDATA = 00000388, RLAST = 0, RRESP = 00
[9385] RDATA = 00000389, RLAST = 1, RRESP = 00
[9405] AWADDR = 0ef8, AWLEN = 9
[9425] WDATA = 8ea0e5a7, WLAST = 0
[9435] WDATA = c78eca0f, WLAST = 0
[9445] WDATA = 3c443625, WLAST = 0
[9455] WDATA = 4c96521d, WLAST = 0
[9465] WDATA = 656cb0fa, WLAST = 0
[9475] WDATA = 49564399, WLAST = 0
[9485] WDATA = 84708703, WLAST = 0
[9495] WDATA = 7b34026f, WLAST = 0
[9505] WDATA = a6226536, WLAST = 0
[9515] WDATA = de9e97d3, WLAST = 1
[9525] BRESP = 00
[9545] ARADDR = 0ef8, ARLEN = 9
[9565] RDATA = 000003be, RLAST = 0, RRESP = 00
[9585] RDATA = 000003bf, RLAST = 0, RRESP = 00
[9605] RDATA = 000003c0, RLAST = 0, RRESP = 00
[9625] RDATA = 000003c1, RLAST = 0, RRESP = 00
[9645] RDATA = 000003c2, RLAST = 0, RRESP = 00
[9665] RDATA = 000003c3, RLAST = 0, RRESP = 00
[9685] RDATA = 000003c4, RLAST = 0, RRESP = 00
[9705] RDATA = 000003c5, RLAST = 0, RRESP = 00
[9725] RDATA = 000003c6, RLAST = 0, RRESP = 00
[9745] RDATA = 000003c7, RLAST = 1, RRESP = 00
[9765] ARADDR = 09d8, ARLEN = 0
[9785] RDATA = 00000276, RLAST = 1, RRESP = 00
[9805] ARADDR = 0668, ARLEN = 7
[9825] RDATA = 0000019a, RLAST = 0, RRESP = 00
[9845] RDATA = 0000019b, RLAST = 0, RRESP = 00
[9865] RDATA = 0000019c, RLAST = 0, RRESP = 00
[9885] RDATA = 0000019d, RLAST = 0, RRESP = 00
[9905] RDATA = 0000019e, RLAST = 0, RRESP = 00
[9925] RDATA = 0000019f, RLAST = 0, RRESP = 00
[9945] RDATA = 000001a0, RLAST = 0, RRESP = 00
[9965] RDATA = 000001a1, RLAST = 1, RRESP = 00
[9985] AWADDR = 09b4, AWLEN = 12
[10005] WDATA = 15728188, WLAST = 0
[10015] WDATA = 7a262173, WLAST = 0
[10025] WDATA = 08aca270, WLAST = 0
[10035] WDATA = 4c5ab4c7, WLAST = 0
[10045] WDATA = 64ae5d63, WLAST = 0
[10055] WDATA = 31a52bb2, WLAST = 0
[10065] WDATA = 0f118671, WLAST = 0
[10075] WDATA = 675f86c9, WLAST = 0
[10085] WDATA = 5743ffb8, WLAST = 0
[10095] WDATA = c6066556, WLAST = 0
[10105] WDATA = 8204d846, WLAST = 0
[10115] WDATA = fa6527ce, WLAST = 0
[10125] WDATA = 274c6e86, WLAST = 1
[10135] BRESP = 00
[10155] ARADDR = 09b4, ARLEN = 12
[10175] RDATA = 0000026d, RLAST = 0, RRESP = 00
[10195] RDATA = 0000026e, RLAST = 0, RRESP = 00
[10215] RDATA = 0000026f, RLAST = 0, RRESP = 00
[10235] RDATA = 00000270, RLAST = 0, RRESP = 00
[10255] RDATA = 00000271, RLAST = 0, RRESP = 00
[10275] RDATA = 00000272, RLAST = 0, RRESP = 00
[10295] RDATA = 00000273, RLAST = 0, RRESP = 00
[10315] RDATA = 00000274, RLAST = 0, RRESP = 00
[10335] RDATA = 00000275, RLAST = 0, RRESP = 00
[10355] RDATA = 00000276, RLAST = 0, RRESP = 00
[10375] RDATA = 00000277, RLAST = 0, RRESP = 00
[10395] RDATA = 00000278, RLAST = 0, RRESP = 00
[10415] RDATA = 00000279, RLAST = 1, RRESP = 00
[10435] AWADDR = 0194, AWLEN = 6
[10455] WDATA = afe88111, WLAST = 0
[10465] WDATA = 14956642, WLAST = 0
[10475] WDATA = ee71b249, WLAST = 0
[10485] WDATA = 88469b56, WLAST = 0
[10495] WDATA = a4b6376a, WLAST = 0
[10505] WDATA = c31a68d3, WLAST = 0
[10515] WDATA = 2c369fcb, WLAST = 1
[10525] BRESP = 00
[10545] ARADDR = 0194, ARLEN = 6
[10565] RDATA = afe88111, RLAST = 0, RRESP = 00
[10585] RDATA = 14956642, RLAST = 0, RRESP = 00
[10605] RDATA = ee71b249, RLAST = 0, RRESP = 00
[10625] RDATA = 88469b56, RLAST = 0, RRESP = 00
[10645] RDATA = a4b6376a, RLAST = 0, RRESP = 00
[10665] RDATA = c31a68d3, RLAST = 0, RRESP = 00
[10685] RDATA = 2c369fcb, RLAST = 1, RRESP = 00
[10705] ARADDR = 0854, ARLEN = 14
[10725] RDATA = 00000215, RLAST = 0, RRESP = 00
[10745] RDATA = 00000216, RLAST = 0, RRESP = 00
[10765] RDATA = 00000217, RLAST = 0, RRESP = 00
[10785] RDATA = 00000218, RLAST = 0, RRESP = 00
[10805] RDATA = 00000219, RLAST = 0, RRESP = 00
[10825] RDATA = 0000021a, RLAST = 0, RRESP = 00
[10845] RDATA = 0000021b, RLAST = 0, RRESP = 00
[10865] RDATA = 0000021c, RLAST = 0, RRESP = 00
[10885] RDATA = 0000021d, RLAST = 0, RRESP = 00
[10905] RDATA = 0000021e, RLAST = 0, RRESP = 00
[10925] RDATA = 0000021f, RLAST = 0, RRESP = 00
[10945] RDATA = 00000220, RLAST = 0, RRESP = 00
[10965] RDATA = 00000221, RLAST = 0, RRESP = 00
[10985] RDATA = 00000222, RLAST = 0, RRESP = 00
[11005] RDATA = 00000223, RLAST = 1, RRESP = 00
[11025] AWADDR = 0590, AWLEN = 14
[11045] WDATA = 1f3d4e4f, WLAST = 0
[11055] WDATA = 307ea1cf, WLAST = 0
[11065] WDATA = c23513c4, WLAST = 0
[11075] WDATA = 8504e802, WLAST = 0
[11085] WDATA = 0f700abd, WLAST = 0
[11095] WDATA = 1fab1a52, WLAST = 0
[11105] WDATA = 7ca83b13, WLAST = 0
[11115] WDATA = 117bd915, WLAST = 0
[11125] WDATA = dc718200, WLAST = 0
[11135] WDATA = acb0fc48, WLAST = 0
[11145] WDATA = 212e0892, WLAST = 0
[11155] WDATA = 70311704, WLAST = 0
[11165] WDATA = df20163f, WLAST = 0
[11175] WDATA = d85eedd3, WLAST = 0
[11185] WDATA = e8e79885, WLAST = 1
[11195] BRESP = 00
[11215] ARADDR = 0590, ARLEN = 14
[11235] RDATA = 152a72e3, RLAST = 0, RRESP = 00
[11255] RDATA = 00000165, RLAST = 0, RRESP = 00
[11275] RDATA = 00000166, RLAST = 0, RRESP = 00
[11295] RDATA = 00000167, RLAST = 0, RRESP = 00
[11315] RDATA = 00000168, RLAST = 0, RRESP = 00
[11335] RDATA = 00000169, RLAST = 0, RRESP = 00
[11355] RDATA = 0000016a, RLAST = 0, RRESP = 00
[11375] RDATA = 0000016b, RLAST = 0, RRESP = 00
[11395] RDATA = 0000016c, RLAST = 0, RRESP = 00
[11415] RDATA = 0000016d, RLAST = 0, RRESP = 00
[11435] RDATA = 0000016e, RLAST = 0, RRESP = 00
[11455] RDATA = 0000016f, RLAST = 0, RRESP = 00
[11475] RDATA = 00000170, RLAST = 0, RRESP = 00
[11495] RDATA = 00000171, RLAST = 0, RRESP = 00
[11515] RDATA = 00000172, RLAST = 1, RRESP = 00
[11535] ARADDR = 0c30, ARLEN = 1
[11555] RDATA = 0000030c, RLAST = 0, RRESP = 00
[11575] RDATA = 0000030d, RLAST = 1, RRESP = 00
[11595] ARADDR = 0478, ARLEN = 15
[11615] RDATA = 0000011e, RLAST = 0, RRESP = 00
[11635] RDATA = 0000011f, RLAST = 0, RRESP = 00
[11655] RDATA = 00000120, RLAST = 0, RRESP = 00
[11675] RDATA = 00000121, RLAST = 0, RRESP = 00
[11695] RDATA = 00000122, RLAST = 0, RRESP = 00
[11715] RDATA = 00000123, RLAST = 0, RRESP = 00
[11735] RDATA = 00000124, RLAST = 0, RRESP = 00
[11755] RDATA = 00000125, RLAST = 0, RRESP = 00
[11775] RDATA = 00000126, RLAST = 0, RRESP = 00
[11795] RDATA = 00000127, RLAST = 0, RRESP = 00
[11815] RDATA = 00000128, RLAST = 0, RRESP = 00
[11835] RDATA = 00000129, RLAST = 0, RRESP = 00
[11855] RDATA = 0000012a, RLAST = 0, RRESP = 00
[11875] RDATA = 0000012b, RLAST = 0, RRESP = 00
[11895] RDATA = 0000012c, RLAST = 0, RRESP = 00
[11915] RDATA = 0000012d, RLAST = 1, RRESP = 00
[11935] AWADDR = 07f8, AWLEN = 12
[11955] WDATA = 3af17213, WLAST = 0
[11965] WDATA = 5c61bbf0, WLAST = 0
[11975] WDATA = 785dad93, WLAST = 0
[11985] WDATA = 7390615a, WLAST = 0
[11995] WDATA = 3135dde7, WLAST = 0
[12005] WDATA = 375c8194, WLAST = 0
[12015] WDATA = df07ac8f, WLAST = 0
[12025] WDATA = eb6a07e8, WLAST = 0
[12035] WDATA = dd4def0c, WLAST = 0
[12045] WDATA = e8bc7fca, WLAST = 0
[12055] WDATA = b3ed8bd4, WLAST = 0
[12065] WDATA = 15765e19, WLAST = 0
[12075] WDATA = 854b31fb, WLAST = 1
[12085] BRESP = 00
[12105] ARADDR = 07f8, ARLEN = 12
[12125] RDATA = 3af17213, RLAST = 0, RRESP = 00
[12145] RDATA = 5c61bbf0, RLAST = 0, RRESP = 00
[12165] RDATA = 785dad93, RLAST = 0, RRESP = 00
[12185] RDATA = 7390615a, RLAST = 0, RRESP = 00
[12205] RDATA = 3135dde7, RLAST = 0, RRESP = 00
[12225] RDATA = 375c8194, RLAST = 0, RRESP = 00
[12245] RDATA = df07ac8f, RLAST = 0, RRESP = 00
[12265] RDATA = eb6a07e8, RLAST = 0, RRESP = 00
[12285] RDATA = dd4def0c, RLAST = 0, RRESP = 00
[12305] RDATA = e8bc7fca, RLAST = 0, RRESP = 00
[12325] RDATA = b3ed8bd4, RLAST = 0, RRESP = 00
[12345] RDATA = 15765e19, RLAST = 0, RRESP = 00
[12365] RDATA = 854b31fb, RLAST = 1, RRESP = 00
[12385] AWADDR = 088c, AWLEN = 14
[12405] WDATA = bbd71000, WLAST = 0
[12415] WDATA = 227023d8, WLAST = 0
[12425] WDATA = 6d5ee208, WLAST = 0
[12435] WDATA = c20a7b2a, WLAST = 0
[12445] WDATA = f0ffbbb4, WLAST = 0
[12455] WDATA = f04ff6b8, WLAST = 0
[12465] WDATA = b8a2d70b, WLAST = 0
[12475] WDATA = ee319151, WLAST = 0
[12485] WDATA = 0f7e63cb, WLAST = 0
[12495] WDATA = b8ef551c, WLAST = 0
[12505] WDATA = 79fbbc76, WLAST = 0
[12515] WDATA = a3656f5f, WLAST = 0
[12525] WDATA = 9979b3c2, WLAST = 0
[12535] WDATA = 959d65e8, WLAST = 0
[12545] WDATA = 263aeeb1, WLAST = 1
[12555] BRESP = 00
[12575] ARADDR = 088c, ARLEN = 14
[12595] RDATA = 00000223, RLAST = 0, RRESP = 00
[12615] RDATA = 00000224, RLAST = 0, RRESP = 00
[12635] RDATA = 00000225, RLAST = 0, RRESP = 00
[12655] RDATA = 00000226, RLAST = 0, RRESP = 00
[12675] RDATA = 00000227, RLAST = 0, RRESP = 00
[12695] RDATA = 00000228, RLAST = 0, RRESP = 00
[12715] RDATA = 00000229, RLAST = 0, RRESP = 00
[12735] RDATA = 0000022a, RLAST = 0, RRESP = 00
[12755] RDATA = 0000022b, RLAST = 0, RRESP = 00
[12775] RDATA = 0000022c, RLAST = 0, RRESP = 00
[12795] RDATA = 0000022d, RLAST = 0, RRESP = 00
[12815] RDATA = 0000022e, RLAST = 0, RRESP = 00
[12835] RDATA = 0000022f, RLAST = 0, RRESP = 00
[12855] RDATA = 00000230, RLAST = 0, RRESP = 00
[12875] RDATA = 00000231, RLAST = 1, RRESP = 00
[12895] ARADDR = 03f8, ARLEN = 14
[12915] RDATA = 000000fe, RLAST = 0, RRESP = 00
[12935] RDATA = 000000ff, RLAST = 0, RRESP = 00
[12955] RDATA = 00000100, RLAST = 0, RRESP = 00
[12975] RDATA = 00000101, RLAST = 0, RRESP = 00
[12995] RDATA = 00000102, RLAST = 0, RRESP = 00
[13015] RDATA = 00000103, RLAST = 0, RRESP = 00
[13035] RDATA = 00000104, RLAST = 0, RRESP = 00
[13055] RDATA = 00000105, RLAST = 0, RRESP = 00
[13075] RDATA = 00000106, RLAST = 0, RRESP = 00
[13095] RDATA = 00000107, RLAST = 0, RRESP = 00
[13115] RDATA = 00000108, RLAST = 0, RRESP = 00
[13135] RDATA = 00000109, RLAST = 0, RRESP = 00
[13155] RDATA = 0000010a, RLAST = 0, RRESP = 00
[13175] RDATA = 0000010b, RLAST = 0, RRESP = 00
[13195] RDATA = 0000010c, RLAST = 1, RRESP = 00
[13215] AWADDR = 0824, AWLEN = 2
[13235] WDATA = a9c51bb6, WLAST = 0
[13245] WDATA = 209c673d, WLAST = 0
[13255] WDATA = 7fe96dee, WLAST = 1
[13265] BRESP = 00
[13285] ARADDR = 0824, ARLEN = 2
[13305] RDATA = a9c51bb6, RLAST = 0, RRESP = 00
[13325] RDATA = 209c673d, RLAST = 0, RRESP = 00
[13345] RDATA = 7fe96dee, RLAST = 1, RRESP = 00
[13365] ARADDR = 0de8, ARLEN = 13
[13385] RDATA = 0000037a, RLAST = 0, RRESP = 00
[13405] RDATA = 0000037b, RLAST = 0, RRESP = 00
[13425] RDATA = 0000037c, RLAST = 0, RRESP = 00
[13445] RDATA = 0000037d, RLAST = 0, RRESP = 00
[13465] RDATA = 0000037e, RLAST = 0, RRESP = 00
[13485] RDATA = 0000037f, RLAST = 0, RRESP = 00
[13505] RDATA = 00000380, RLAST = 0, RRESP = 00
[13525] RDATA = 00000381, RLAST = 0, RRESP = 00
[13545] RDATA = 00000382, RLAST = 0, RRESP = 00
[13565] RDATA = 00000383, RLAST = 0, RRESP = 00
[13585] RDATA = 00000384, RLAST = 0, RRESP = 00
[13605] RDATA = 00000385, RLAST = 0, RRESP = 00
[13625] RDATA = 00000386, RLAST = 0, RRESP = 00
[13645] RDATA = 00000387, RLAST = 1, RRESP = 00
[13665] ARADDR = 0380, ARLEN = 7
[13685] RDATA = 000000e0, RLAST = 0, RRESP = 00
[13705] RDATA = 000000e1, RLAST = 0, RRESP = 00
[13725] RDATA = 000000e2, RLAST = 0, RRESP = 00
[13745] RDATA = 000000e3, RLAST = 0, RRESP = 00
[13765] RDATA = 000000e4, RLAST = 0, RRESP = 00
[13785] RDATA = 000000e5, RLAST = 0, RRESP = 00
[13805] RDATA = 000000e6, RLAST = 0, RRESP = 00
[13825] RDATA = 000000e7, RLAST = 1, RRESP = 00
[13845] ARADDR = 06a8, ARLEN = 9
[13865] RDATA = 000001aa, RLAST = 0, RRESP = 00
[13885] RDATA = 000001ab, RLAST = 0, RRESP = 00
[13905] RDATA = 000001ac, RLAST = 0, RRESP = 00
[13925] RDATA = 000001ad, RLAST = 0, RRESP = 00
[13945] RDATA = 000001ae, RLAST = 0, RRESP = 00
[13965] RDATA = 000001af, RLAST = 0, RRESP = 00
[13985] RDATA = 000001b0, RLAST = 0, RRESP = 00
[14005] RDATA = 000001b1, RLAST = 0, RRESP = 00
[14025] RDATA = 000001b2, RLAST = 0, RRESP = 00
[14045] RDATA = 000001b3, RLAST = 1, RRESP = 00
[14065] ARADDR = 0724, ARLEN = 7
[14085] RDATA = 000001c9, RLAST = 0, RRESP = 00
[14105] RDATA = 000001ca, RLAST = 0, RRESP = 00
[14125] RDATA = 000001cb, RLAST = 0, RRESP = 00
[14145] RDATA = 000001cc, RLAST = 0, RRESP = 00
[14165] RDATA = 000001cd, RLAST = 0, RRESP = 00
[14185] RDATA = 000001ce, RLAST = 0, RRESP = 00
[14205] RDATA = 000001cf, RLAST = 0, RRESP = 00
[14225] RDATA = 000001d0, RLAST = 1, RRESP = 00
[14245] ARADDR = 03bc, ARLEN = 13
[14265] RDATA = 000000ef, RLAST = 0, RRESP = 00
[14285] RDATA = 000000f0, RLAST = 0, RRESP = 00
[14305] RDATA = 000000f1, RLAST = 0, RRESP = 00
[14325] RDATA = 000000f2, RLAST = 0, RRESP = 00
[14345] RDATA = 000000f3, RLAST = 0, RRESP = 00
[14365] RDATA = 000000f4, RLAST = 0, RRESP = 00
[14385] RDATA = 000000f5, RLAST = 0, RRESP = 00
[14405] RDATA = 000000f6, RLAST = 0, RRESP = 00
[14425] RDATA = 000000f7, RLAST = 0, RRESP = 00
[14445] RDATA = 000000f8, RLAST = 0, RRESP = 00
[14465] RDATA = 000000f9, RLAST = 0, RRESP = 00
[14485] RDATA = 000000fa, RLAST = 0, RRESP = 00
[14505] RDATA = 000000fb, RLAST = 0, RRESP = 00
[14525] RDATA = 000000fc, RLAST = 1, RRESP = 00
[14545] ARADDR = 0c00, ARLEN = 11
[14565] RDATA = 00000300, RLAST = 0, RRESP = 00
[14585] RDATA = 00000301, RLAST = 0, RRESP = 00
[14605] RDATA = 00000302, RLAST = 0, RRESP = 00
[14625] RDATA = 00000303, RLAST = 0, RRESP = 00
[14645] RDATA = 00000304, RLAST = 0, RRESP = 00
[14665] RDATA = 00000305, RLAST = 0, RRESP = 00
[14685] RDATA = 00000306, RLAST = 0, RRESP = 00
[14705] RDATA = 00000307, RLAST = 0, RRESP = 00
[14725] RDATA = 00000308, RLAST = 0, RRESP = 00
[14745] RDATA = 00000309, RLAST = 0, RRESP = 00
[14765] RDATA = 0000030a, RLAST = 0, RRESP = 00
[14785] RDATA = 0000030b, RLAST = 1, RRESP = 00
[14805] ARADDR = 0744, ARLEN = 13
[14825] RDATA = 000001d1, RLAST = 0, RRESP = 00
[14845] RDATA = 000001d2, RLAST = 0, RRESP = 00
[14865] RDATA = 000001d3, RLAST = 0, RRESP = 00
[14885] RDATA = 000001d4, RLAST = 0, RRESP = 00
[14905] RDATA = 000001d5, RLAST = 0, RRESP = 00
[14925] RDATA = 000001d6, RLAST = 0, RRESP = 00
[14945] RDATA = 000001d7, RLAST = 0, RRESP = 00
[14965] RDATA = 000001d8, RLAST = 0, RRESP = 00
[14985] RDATA = 000001d9, RLAST = 0, RRESP = 00
[15005] RDATA = 000001da, RLAST = 0, RRESP = 00
[15025] RDATA = 000001db, RLAST = 0, RRESP = 00
[15045] RDATA = 000001dc, RLAST = 0, RRESP = 00
[15065] RDATA = 000001dd, RLAST = 0, RRESP = 00
[15085] RDATA = 000001de, RLAST = 1, RRESP = 00
[15105] AWADDR = 01d8, AWLEN = 10
[15125] WDATA = b3dd84c7, WLAST = 0
[15135] WDATA = d0dd3546, WLAST = 0
[15145] WDATA = cde07057, WLAST = 0
[15155] WDATA = d80bcdf3, WLAST = 0
[15165] WDATA = f1eee7e3, WLAST = 0
[15175] WDATA = a66bf927, WLAST = 0
[15185] WDATA = eeff6533, WLAST = 0
[15195] WDATA = 8787c5df, WLAST = 0
[15205] WDATA = 67be84ca, WLAST = 0
[15215] WDATA = 589ab195, WLAST = 0
[15225] WDATA = dd7fa775, WLAST = 1
[15235] BRESP = 00
[15255] ARADDR = 01d8, ARLEN = 10
[15275] RDATA = b3dd84c7, RLAST = 0, RRESP = 00
[15295] RDATA = d0dd3546, RLAST = 0, RRESP = 00
[15315] RDATA = cde07057, RLAST = 0, RRESP = 00
[15335] RDATA = d80bcdf3, RLAST = 0, RRESP = 00
[15355] RDATA = f1eee7e3, RLAST = 0, RRESP = 00
[15375] RDATA = a66bf927, RLAST = 0, RRESP = 00
[15395] RDATA = eeff6533, RLAST = 0, RRESP = 00
[15415] RDATA = 8787c5df, RLAST = 0, RRESP = 00
[15435] RDATA = 67be84ca, RLAST = 0, RRESP = 00
[15455] RDATA = 589ab195, RLAST = 0, RRESP = 00
[15475] RDATA = dd7fa775, RLAST = 1, RRESP = 00
[15495] AWADDR = 0ddc, AWLEN = 11
[15515] WDATA = e2786c27, WLAST = 0
[15525] WDATA = d1e3794c, WLAST = 0
[15535] WDATA = 4e68ec8e, WLAST = 0
[15545] WDATA = 09cca40f, WLAST = 0
[15555] WDATA = 9e4d8dd7, WLAST = 0
[15565] WDATA = ebf73d02, WLAST = 0
[15575] WDATA = ae90dac5, WLAST = 0
[15585] WDATA = 64e4aea0, WLAST = 0
[15595] WDATA = c6d146ae, WLAST = 0
[15605] WDATA = 67b9e206, WLAST = 0
[15615] WDATA = 99a7501c, WLAST = 0
[15625] WDATA = f37af025, WLAST = 1
[15635] BRESP = 00
[15655] ARADDR = 0ddc, ARLEN = 11
[15675] RDATA = e2786c27, RLAST = 0, RRESP = 00
[15695] RDATA = d1e3794c, RLAST = 0, RRESP = 00
[15715] RDATA = 4e68ec8e, RLAST = 0, RRESP = 00
[15735] RDATA = 09cca40f, RLAST = 0, RRESP = 00
[15755] RDATA = 9e4d8dd7, RLAST = 0, RRESP = 00
[15775] RDATA = ebf73d02, RLAST = 0, RRESP = 00
[15795] RDATA = ae90dac5, RLAST = 0, RRESP = 00
[15815] RDATA = 64e4aea0, RLAST = 0, RRESP = 00
[15835] RDATA = c6d146ae, RLAST = 0, RRESP = 00
[15855] RDATA = 67b9e206, RLAST = 0, RRESP = 00
[15875] RDATA = 99a7501c, RLAST = 0, RRESP = 00
[15895] RDATA = f37af025, RLAST = 1, RRESP = 00
[15915] AWADDR = 04b0, AWLEN = 9
[15935] WDATA = 9d1c048f, WLAST = 0
[15945] WDATA = 61df20c6, WLAST = 0
[15955] WDATA = ce477379, WLAST = 0
[15965] WDATA = a386b06c, WLAST = 0
[15975] WDATA = 0dde05d5, WLAST = 0
[15985] WDATA = 8843ee7a, WLAST = 0
[15995] WDATA = 6a681e77, WLAST = 0
[16005] WDATA = aec6e890, WLAST = 0
[16015] WDATA = 3a25761f, WLAST = 0
[16025] WDATA = d6415451, WLAST = 1
[16035] BRESP = 00
[16055] ARADDR = 04b0, ARLEN = 9
[16075] RDATA = 0000012c, RLAST = 0, RRESP = 00
[16095] RDATA = 0000012d, RLAST = 0, RRESP = 00
[16115] RDATA = 0000012e, RLAST = 0, RRESP = 00
[16135] RDATA = 0000012f, RLAST = 0, RRESP = 00
[16155] RDATA = 00000130, RLAST = 0, RRESP = 00
[16175] RDATA = 00000131, RLAST = 0, RRESP = 00
[16195] RDATA = 00000132, RLAST = 0, RRESP = 00
[16215] RDATA = 00000133, RLAST = 0, RRESP = 00
[16235] RDATA = 00000134, RLAST = 0, RRESP = 00
[16255] RDATA = 00000135, RLAST = 1, RRESP = 00
[16275] ARADDR = 00bc, ARLEN = 8
[16295] RDATA = 0000002f, RLAST = 0, RRESP = 00
[16315] RDATA = 00000030, RLAST = 0, RRESP = 00
[16335] RDATA = 00000031, RLAST = 0, RRESP = 00
[16355] RDATA = 00000032, RLAST = 0, RRESP = 00
[16375] RDATA = 00000033, RLAST = 0, RRESP = 00
[16395] RDATA = 00000034, RLAST = 0, RRESP = 00
[16415] RDATA = 00000035, RLAST = 0, RRESP = 00
[16435] RDATA = 00000036, RLAST = 0, RRESP = 00
[16455] RDATA = 00000037, RLAST = 1, RRESP = 00
[16475] ARADDR = 0efc, ARLEN = 15
[16495] RDATA = 000003bf, RLAST = 0, RRESP = 00
[16515] RDATA = 000003c0, RLAST = 0, RRESP = 00
[16535] RDATA = 000003c1, RLAST = 0, RRESP = 00
[16555] RDATA = 000003c2, RLAST = 0, RRESP = 00
[16575] RDATA = 000003c3, RLAST = 0, RRESP = 00
[16595] RDATA = 000003c4, RLAST = 0, RRESP = 00
[16615] RDATA = 000003c5, RLAST = 0, RRESP = 00
[16635] RDATA = 000003c6, RLAST = 0, RRESP = 00
[16655] RDATA = 000003c7, RLAST = 0, RRESP = 00
[16675] RDATA = 000003c8, RLAST = 0, RRESP = 00
[16695] RDATA = 000003c9, RLAST = 0, RRESP = 00
[16715] RDATA = 000003ca, RLAST = 0, RRESP = 00
[16735] RDATA = 000003cb, RLAST = 0, RRESP = 00
[16755] RDATA = 000003cc, RLAST = 0, RRESP = 00
[16775] RDATA = 000003cd, RLAST = 0, RRESP = 00
[16795] RDATA = 000003ce, RLAST = 1, RRESP = 00
[16815] AWADDR = 0e98, AWLEN = 6
[16835] WDATA = 2281d348, WLAST = 0
[16845] WDATA = 24666adc, WLAST = 0
[16855] WDATA = adba70db, WLAST = 0
[16865] WDATA = 2ca6ee78, WLAST = 0
[16875] WDATA = fa983055, WLAST = 0
[16885] WDATA = ea8dfa2a, WLAST = 0
[16895] WDATA = 35cac584, WLAST = 1
[16905] BRESP = 00
[16925] ARADDR = 0e98, ARLEN = 6
[16945] RDATA = 2281d348, RLAST = 0, RRESP = 00
[16965] RDATA = 24666adc, RLAST = 0, RRESP = 00
[16985] RDATA = adba70db, RLAST = 0, RRESP = 00
[17005] RDATA = 2ca6ee78, RLAST = 0, RRESP = 00
[17025] RDATA = fa983055, RLAST = 0, RRESP = 00
[17045] RDATA = ea8dfa2a, RLAST = 0, RRESP = 00
[17065] RDATA = 35cac584, RLAST = 1, RRESP = 00
[17085] AWADDR = 085c, AWLEN = 3
[17105] WDATA = d2c6d6c0, WLAST = 0
[17115] WDATA = f9923d89, WLAST = 0
[17125] WDATA = b5b60a15, WLAST = 0
[17135] WDATA = 3671bd90, WLAST = 1
[17145] BRESP = 00
[17165] ARADDR = 085c, ARLEN = 3
[17185] RDATA = 00000217, RLAST = 0, RRESP = 00
[17205] RDATA = 00000218, RLAST = 0, RRESP = 00
[17225] RDATA = 00000219, RLAST = 0, RRESP = 00
[17245] RDATA = 0000021a, RLAST = 1, RRESP = 00
[17265] AWADDR = 014c, AWLEN = 6
[17285] WDATA = a23e25e5, WLAST = 0
[17295] WDATA = 95fc9964, WLAST = 0
[17305] WDATA = 23f69684, WLAST = 0
[17315] WDATA = 585658a2, WLAST = 0
[17325] WDATA = f7589d18, WLAST = 0
[17335] WDATA = 22a69695, WLAST = 0
[17345] WDATA = f751cf4f, WLAST = 1
[17355] BRESP = 00
[17375] ARADDR = 014c, ARLEN = 6
[17395] RDATA = 00000053, RLAST = 0, RRESP = 00
[17415] RDATA = 00000054, RLAST = 0, RRESP = 00
[17435] RDATA = 00000055, RLAST = 0, RRESP = 00
[17455] RDATA = 00000056, RLAST = 0, RRESP = 00
[17475] RDATA = 00000057, RLAST = 0, RRESP = 00
[17495] RDATA = 00000058, RLAST = 0, RRESP = 00
[17515] RDATA = 00000059, RLAST = 1, RRESP = 00
[17535] ARADDR = 0dec, ARLEN = 0
[17555] RDATA = 9e4d8dd7, RLAST = 1, RRESP = 00
[17575] AWADDR = 0bf0, AWLEN = 11
[17595] WDATA = 03bd4b60, WLAST = 0
[17605] WDATA = 891ce50c, WLAST = 0
[17615] WDATA = d39da2c8, WLAST = 0
[17625] WDATA = 40e9af8f, WLAST = 0
[17635] WDATA = f5cd454f, WLAST = 0
[17645] WDATA = 22628fd9, WLAST = 0
[17655] WDATA = d1565649, WLAST = 0
[17665] WDATA = dbe80b9b, WLAST = 0
[17675] WDATA = 16f2428b, WLAST = 0
[17685] WDATA = 12878f90, WLAST = 0
[17695] WDATA = 3c3d16bd, WLAST = 0
[17705] WDATA = 3fd14b42, WLAST = 1
[17715] BRESP = 00
[17735] ARADDR = 0bf0, ARLEN = 11
[17755] RDATA = 03bd4b60, RLAST = 0, RRESP = 00
[17775] RDATA = 891ce50c, RLAST = 0, RRESP = 00
[17795] RDATA = d39da2c8, RLAST = 0, RRESP = 00
[17815] RDATA = 40e9af8f, RLAST = 0, RRESP = 00
[17835] RDATA = f5cd454f, RLAST = 0, RRESP = 00
[17855] RDATA = 22628fd9, RLAST = 0, RRESP = 00
[17875] RDATA = d1565649, RLAST = 0, RRESP = 00
[17895] RDATA = dbe80b9b, RLAST = 0, RRESP = 00
[17915] RDATA = 16f2428b, RLAST = 0, RRESP = 00
[17935] RDATA = 12878f90, RLAST = 0, RRESP = 00
[17955] RDATA = 3c3d16bd, RLAST = 0, RRESP = 00
[17975] RDATA = 3fd14b42, RLAST = 1, RRESP = 00
[17995] AWADDR = 0034, AWLEN = 0
[18015] WDATA = bea43e24, WLAST = 1
[18025] BRESP = 00
[18045] ARADDR = 0034, ARLEN = 0
[18065] RDATA = bea43e24, RLAST = 1, RRESP = 00
[18085] ARADDR = 072c, ARLEN = 11
[18105] RDATA = 000001cb, RLAST = 0, RRESP = 00
[18125] RDATA = 000001cc, RLAST = 0, RRESP = 00
[18145] RDATA = 000001cd, RLAST = 0, RRESP = 00
[18165] RDATA = 000001ce, RLAST = 0, RRESP = 00
[18185] RDATA = 000001cf, RLAST = 0, RRESP = 00
[18205] RDATA = 000001d0, RLAST = 0, RRESP = 00
[18225] RDATA = 000001d1, RLAST = 0, RRESP = 00
[18245] RDATA = 000001d2, RLAST = 0, RRESP = 00
[18265] RDATA = 000001d3, RLAST = 0, RRESP = 00
[18285] RDATA = 000001d4, RLAST = 0, RRESP = 00
[18305] RDATA = 000001d5, RLAST = 0, RRESP = 00
[18325] RDATA = 000001d6, RLAST = 1, RRESP = 00
[18345] AWADDR = 0854, AWLEN = 6
[18365] WDATA = 06caaedf, WLAST = 0
[18375] WDATA = 465ef4be, WLAST = 0
[18385] WDATA = 7169e9db, WLAST = 0
[18395] WDATA = 2024d505, WLAST = 0
[18405] WDATA = 71d71c2b, WLAST = 0
[18415] WDATA = b0c7e36a, WLAST = 0
[18425] WDATA = e6fda33e, WLAST = 1
[18435] BRESP = 00
[18455] ARADDR = 0854, ARLEN = 6
[18475] RDATA = 00000215, RLAST = 0, RRESP = 00
[18495] RDATA = 00000216, RLAST = 0, RRESP = 00
[18515] RDATA = 00000217, RLAST = 0, RRESP = 00
[18535] RDATA = 00000218, RLAST = 0, RRESP = 00
[18555] RDATA = 00000219, RLAST = 0, RRESP = 00
[18575] RDATA = 0000021a, RLAST = 0, RRESP = 00
[18595] RDATA = 0000021b, RLAST = 1, RRESP = 00
[18615] ARADDR = 0168, ARLEN = 8
[18635] RDATA = 0000005a, RLAST = 0, RRESP = 00
[18655] RDATA = 0000005b, RLAST = 0, RRESP = 00
[18675] RDATA = 0000005c, RLAST = 0, RRESP = 00
[18695] RDATA = 0000005d, RLAST = 0, RRESP = 00
[18715] RDATA = 0000005e, RLAST = 0, RRESP = 00
[18735] RDATA = 0000005f, RLAST = 0, RRESP = 00
[18755] RDATA = 00000060, RLAST = 0, RRESP = 00
[18775] RDATA = 00000061, RLAST = 0, RRESP = 00
[18795] RDATA = 00000062, RLAST = 1, RRESP = 00
[18815] ARADDR = 09ec, ARLEN = 13
[18835] RDATA = 0000027b, RLAST = 0, RRESP = 00
[18855] RDATA = 0000027c, RLAST = 0, RRESP = 00
[18875] RDATA = 0000027d, RLAST = 0, RRESP = 00
[18895] RDATA = 0000027e, RLAST = 0, RRESP = 00
[18915] RDATA = 0000027f, RLAST = 0, RRESP = 00
[18935] RDATA = 00000280, RLAST = 0, RRESP = 00
[18955] RDATA = 00000281, RLAST = 0, RRESP = 00
[18975] RDATA = 00000282, RLAST = 0, RRESP = 00
[18995] RDATA = 00000283, RLAST = 0, RRESP = 00
[19015] RDATA = 00000284, RLAST = 0, RRESP = 00
[19035] RDATA = 00000285, RLAST = 0, RRESP = 00
[19055] RDATA = 00000286, RLAST = 0, RRESP = 00
[19075] RDATA = 00000287, RLAST = 0, RRESP = 00
[19095] RDATA = 00000288, RLAST = 1, RRESP = 00
[19115] ARADDR = 01c8, ARLEN = 3
[19135] RDATA = 00000072, RLAST = 0, RRESP = 00
[19155] RDATA = 00000073, RLAST = 0, RRESP = 00
[19175] RDATA = 00000074, RLAST = 0, RRESP = 00
[19195] RDATA = 00000075, RLAST = 1, RRESP = 00
[19215] ARADDR = 0b6c, ARLEN = 12
[19235] RDATA = 000002db, RLAST = 0, RRESP = 00
[19255] RDATA = 000002dc, RLAST = 0, RRESP = 00
[19275] RDATA = 000002dd, RLAST = 0, RRESP = 00
[19295] RDATA = 000002de, RLAST = 0, RRESP = 00
[19315] RDATA = 000002df, RLAST = 0, RRESP = 00
[19335] RDATA = 000002e0, RLAST = 0, RRESP = 00
[19355] RDATA = 000002e1, RLAST = 0, RRESP = 00
[19375] RDATA = 000002e2, RLAST = 0, RRESP = 00
[19395] RDATA = 000002e3, RLAST = 0, RRESP = 00
[19415] RDATA = 000002e4, RLAST = 0, RRESP = 00
[19435] RDATA = 000002e5, RLAST = 0, RRESP = 00
[19455] RDATA = 000002e6, RLAST = 0, RRESP = 00
[19475] RDATA = 000002e7, RLAST = 1, RRESP = 00
[19495] AWADDR = 0228, AWLEN = 15
[19515] WDATA = 8e8dc5fb, WLAST = 0
[19525] WDATA = 0615540a, WLAST = 0
[19535] WDATA = 3797b333, WLAST = 0
[19545] WDATA = 8d287f07, WLAST = 0
[19555] WDATA = d7e14de3, WLAST = 0
[19565] WDATA = 864f2e6b, WLAST = 0
[19575] WDATA = b4cfd123, WLAST = 0
[19585] WDATA = 79a3ff38, WLAST = 0
[19595] WDATA = 57904c84, WLAST = 0
[19605] WDATA = 6ab0ca48, WLAST = 0
[19615] WDATA = 23304f62, WLAST = 0
[19625] WDATA = a90faa09, WLAST = 0
[19635] WDATA = 52d1f1ae, WLAST = 0
[19645] WDATA = f1c513d4, WLAST = 0
[19655] WDATA = 7d6c655b, WLAST = 0
[19665] WDATA = 748bbfa7, WLAST = 1
[19675] BRESP = 00
[19695] ARADDR = 0228, ARLEN = 15
[19715] RDATA = 0000008a, RLAST = 0, RRESP = 00
[19735] RDATA = 0000008b, RLAST = 0, RRESP = 00
[19755] RDATA = 0000008c, RLAST = 0, RRESP = 00
[19775] RDATA = 0000008d, RLAST = 0, RRESP = 00
[19795] RDATA = 0000008e, RLAST = 0, RRESP = 00
[19815] RDATA = 0000008f, RLAST = 0, RRESP = 00
[19835] RDATA = 00000090, RLAST = 0, RRESP = 00
[19855] RDATA = 00000091, RLAST = 0, RRESP = 00
[19875] RDATA = 00000092, RLAST = 0, RRESP = 00
[19895] RDATA = 00000093, RLAST = 0, RRESP = 00
[19915] RDATA = 00000094, RLAST = 0, RRESP = 00
[19935] RDATA = 00000095, RLAST = 0, RRESP = 00
[19955] RDATA = 00000096, RLAST = 0, RRESP = 00
[19975] RDATA = 00000097, RLAST = 0, RRESP = 00
[19995] RDATA = 00000098, RLAST = 0, RRESP = 00
[20015] RDATA = 00000099, RLAST = 1, RRESP = 00
[20035] ARADDR = 0374, ARLEN = 14
[20055] RDATA = 000000dd, RLAST = 0, RRESP = 00
[20075] RDATA = 000000de, RLAST = 0, RRESP = 00
[20095] RDATA = 000000df, RLAST = 0, RRESP = 00
[20115] RDATA = 000000e0, RLAST = 0, RRESP = 00
[20135] RDATA = 000000e1, RLAST = 0, RRESP = 00
[20155] RDATA = 000000e2, RLAST = 0, RRESP = 00
[20175] RDATA = 000000e3, RLAST = 0, RRESP = 00
[20195] RDATA = 000000e4, RLAST = 0, RRESP = 00
[20215] RDATA = 000000e5, RLAST = 0, RRESP = 00
[20235] RDATA = 000000e6, RLAST = 0, RRESP = 00
[20255] RDATA = 000000e7, RLAST = 0, RRESP = 00
[20275] RDATA = 000000e8, RLAST = 0, RRESP = 00
[20295] RDATA = 000000e9, RLAST = 0, RRESP = 00
[20315] RDATA = 000000ea, RLAST = 0, RRESP = 00
[20335] RDATA = 000000eb, RLAST = 1, RRESP = 00
[20355] ARADDR = 054c, ARLEN = 6
[20375] RDATA = 00000153, RLAST = 0, RRESP = 00
[20395] RDATA = 00000154, RLAST = 0, RRESP = 00
[20415] RDATA = 00000155, RLAST = 0, RRESP = 00
[20435] RDATA = 00000156, RLAST = 0, RRESP = 00
[20455] RDATA = 00000157, RLAST = 0, RRESP = 00
[20475] RDATA = ba69190f, RLAST = 0, RRESP = 00
[20495] RDATA = 9b22ac42, RLAST = 1, RRESP = 00
[20515] ARADDR = 0c64, ARLEN = 11
[20535] RDATA = 00000319, RLAST = 0, RRESP = 00
[20555] RDATA = 0000031a, RLAST = 0, RRESP = 00
[20575] RDATA = 0000031b, RLAST = 0, RRESP = 00
[20595] RDATA = 0000031c, RLAST = 0, RRESP = 00
[20615] RDATA = 0000031d, RLAST = 0, RRESP = 00
[20635] RDATA = 0000031e, RLAST = 0, RRESP = 00
[20655] RDATA = 0000031f, RLAST = 0, RRESP = 00
[20675] RDATA = 00000320, RLAST = 0, RRESP = 00
[20695] RDATA = 00000321, RLAST = 0, RRESP = 00
[20715] RDATA = 00000322, RLAST = 0, RRESP = 00
[20735] RDATA = 00000323, RLAST = 0, RRESP = 00
[20755] RDATA = 00000324, RLAST = 1, RRESP = 00
[20775] ARADDR = 0044, ARLEN = 2
[20795] RDATA = 00000011, RLAST = 0, RRESP = 00
[20815] RDATA = 00000012, RLAST = 0, RRESP = 00
[20835] RDATA = 00000013, RLAST = 1, RRESP = 00
[20855] ARADDR = 05cc, ARLEN = 0
[20875] RDATA = 00000173, RLAST = 1, RRESP = 00
[20895] AWADDR = 0328, AWLEN = 14
[20915] WDATA = 886d2341, WLAST = 0
[20925] WDATA = ec56669b, WLAST = 0
[20935] WDATA = e53e9e66, WLAST = 0
[20945] WDATA = 4fbbce0a, WLAST = 0
[20955] WDATA = a25e8bdb, WLAST = 0
[20965] WDATA = 478a97f9, WLAST = 0
[20975] WDATA = 3841f1c1, WLAST = 0
[20985] WDATA = a028ba68, WLAST = 0
[20995] WDATA = 34a0cf5f, WLAST = 0
[21005] WDATA = 26314cbd, WLAST = 0
[21015] WDATA = 56e21530, WLAST = 0
[21025] WDATA = ec0cd97a, WLAST = 0
[21035] WDATA = 9f6d2c80, WLAST = 0
[21045] WDATA = de555afd, WLAST = 0
[21055] WDATA = 6b8db3a0, WLAST = 1
[21065] BRESP = 00
[21085] ARADDR = 0328, ARLEN = 14
[21105] RDATA = 886d2341, RLAST = 0, RRESP = 00
[21125] RDATA = ec56669b, RLAST = 0, RRESP = 00
[21145] RDATA = e53e9e66, RLAST = 0, RRESP = 00
[21165] RDATA = 4fbbce0a, RLAST = 0, RRESP = 00
[21185] RDATA = a25e8bdb, RLAST = 0, RRESP = 00
[21205] RDATA = 478a97f9, RLAST = 0, RRESP = 00
[21225] RDATA = 3841f1c1, RLAST = 0, RRESP = 00
[21245] RDATA = a028ba68, RLAST = 0, RRESP = 00
[21265] RDATA = 34a0cf5f, RLAST = 0, RRESP = 00
[21285] RDATA = 26314cbd, RLAST = 0, RRESP = 00
[21305] RDATA = 56e21530, RLAST = 0, RRESP = 00
[21325] RDATA = ec0cd97a, RLAST = 0, RRESP = 00
[21345] RDATA = 9f6d2c80, RLAST = 0, RRESP = 00
[21365] RDATA = de555afd, RLAST = 0, RRESP = 00
[21385] RDATA = 6b8db3a0, RLAST = 1, RRESP = 00
[21405] AWADDR = 0f6c, AWLEN = 5
[21425] WDATA = b70795ff, WLAST = 0
[21435] WDATA = 086a013c, WLAST = 0
[21445] WDATA = c96694c5, WLAST = 0
[21455] WDATA = 3b5d1365, WLAST = 0
[21465] WDATA = 1f1d7c34, WLAST = 0
[21475] WDATA = a0ba03a9, WLAST = 1
[21485] BRESP = 00
[21505] ARADDR = 0f6c, ARLEN = 5
[21525] RDATA = 8817a112, RLAST = 0, RRESP = 00
[21545] RDATA = fa4e2af2, RLAST = 0, RRESP = 00
[21565] RDATA = fa89ed27, RLAST = 0, RRESP = 00
[21585] RDATA = 000003de, RLAST = 0, RRESP = 00
[21605] RDATA = 000003df, RLAST = 0, RRESP = 00
[21625] RDATA = 000003e0, RLAST = 1, RRESP = 00
[21645] AWADDR = 0ea4, AWLEN = 4
[21665] WDATA = 9e0e3694, WLAST = 0
[21675] WDATA = 3bf4fbda, WLAST = 0
[21685] WDATA = 0568152c, WLAST = 0
[21695] WDATA = ea89f6a1, WLAST = 0
[21705] WDATA = 22166e38, WLAST = 1
[21715] BRESP = 00
[21735] ARADDR = 0ea4, ARLEN = 4
[21755] RDATA = 9e0e3694, RLAST = 0, RRESP = 00
[21775] RDATA = 3bf4fbda, RLAST = 0, RRESP = 00
[21795] RDATA = 0568152c, RLAST = 0, RRESP = 00
[21815] RDATA = ea89f6a1, RLAST = 0, RRESP = 00
[21835] RDATA = 22166e38, RLAST = 1, RRESP = 00
[21855] AWADDR = 0128, AWLEN = 12
[21875] WDATA = f0bc0747, WLAST = 0
[21885] WDATA = 4f328add, WLAST = 0
[21895] WDATA = 7579f899, WLAST = 0
[21905] WDATA = 9bd65f1b, WLAST = 0
[21915] WDATA = 2261111c, WLAST = 0
[21925] WDATA = d60962c6, WLAST = 0
[21935] WDATA = c120d41a, WLAST = 0
[21945] WDATA = aeca4c7e, WLAST = 0
[21955] WDATA = f47d90ca, WLAST = 0
[21965] WDATA = 91c26659, WLAST = 0
[21975] WDATA = af959b7f, WLAST = 0
[21985] WDATA = 16fee2b6, WLAST = 0
[21995] WDATA = 96409ff5, WLAST = 1
[22005] BRESP = 00
[22025] ARADDR = 0128, ARLEN = 12
[22045] RDATA = f0bc0747, RLAST = 0, RRESP = 00
[22065] RDATA = 4f328add, RLAST = 0, RRESP = 00
[22085] RDATA = 7579f899, RLAST = 0, RRESP = 00
[22105] RDATA = 9bd65f1b, RLAST = 0, RRESP = 00
[22125] RDATA = 2261111c, RLAST = 0, RRESP = 00
[22145] RDATA = d60962c6, RLAST = 0, RRESP = 00
[22165] RDATA = c120d41a, RLAST = 0, RRESP = 00
[22185] RDATA = aeca4c7e, RLAST = 0, RRESP = 00
[22205] RDATA = f47d90ca, RLAST = 0, RRESP = 00
[22225] RDATA = 91c26659, RLAST = 0, RRESP = 00
[22245] RDATA = af959b7f, RLAST = 0, RRESP = 00
[22265] RDATA = 16fee2b6, RLAST = 0, RRESP = 00
[22285] RDATA = 96409ff5, RLAST = 1, RRESP = 00
[22305] AWADDR = 08d8, AWLEN = 11
[22325] WDATA = 0087ee7f, WLAST = 0
[22335] WDATA = c12dc1a8, WLAST = 0
[22345] WDATA = 8eefedeb, WLAST = 0
[22355] WDATA = b28901d3, WLAST = 0
[22365] WDATA = 31cf9eeb, WLAST = 0
[22375] WDATA = 45c6c44a, WLAST = 0
[22385] WDATA = f1d482c2, WLAST = 0
[22395] WDATA = 5b77d96c, WLAST = 0
[22405] WDATA = bfced48f, WLAST = 0
[22415] WDATA = de9a8137, WLAST = 0
[22425] WDATA = 6c367c36, WLAST = 0
[22435] WDATA = 2a1ac6fb, WLAST = 1
[22445] BRESP = 00
[22465] ARADDR = 08d8, ARLEN = 11
[22485] RDATA = 00000236, RLAST = 0, RRESP = 00
[22505] RDATA = 00000237, RLAST = 0, RRESP = 00
[22525] RDATA = 00000238, RLAST = 0, RRESP = 00
[22545] RDATA = 00000239, RLAST = 0, RRESP = 00
[22565] RDATA = 0000023a, RLAST = 0, RRESP = 00
[22585] RDATA = 0000023b, RLAST = 0, RRESP = 00
[22605] RDATA = 0000023c, RLAST = 0, RRESP = 00
[22625] RDATA = 0000023d, RLAST = 0, RRESP = 00
[22645] RDATA = 0000023e, RLAST = 0, RRESP = 00
[22665] RDATA = 0000023f, RLAST = 0, RRESP = 00
[22685] RDATA = 00000240, RLAST = 0, RRESP = 00
[22705] RDATA = 00000241, RLAST = 1, RRESP = 00
[22725] ARADDR = 0ef4, ARLEN = 14
[22745] RDATA = 000003bd, RLAST = 0, RRESP = 00
[22765] RDATA = 000003be, RLAST = 0, RRESP = 00
[22785] RDATA = 000003bf, RLAST = 0, RRESP = 00
[22805] RDATA = 000003c0, RLAST = 0, RRESP = 00
[22825] RDATA = 000003c1, RLAST = 0, RRESP = 00
[22845] RDATA = 000003c2, RLAST = 0, RRESP = 00
[22865] RDATA = 000003c3, RLAST = 0, RRESP = 00
[22885] RDATA = 000003c4, RLAST = 0, RRESP = 00
[22905] RDATA = 000003c5, RLAST = 0, RRESP = 00
[22925] RDATA = 000003c6, RLAST = 0, RRESP = 00
[22945] RDATA = 000003c7, RLAST = 0, RRESP = 00
[22965] RDATA = 000003c8, RLAST = 0, RRESP = 00
[22985] RDATA = 000003c9, RLAST = 0, RRESP = 00
[23005] RDATA = 000003ca, RLAST = 0, RRESP = 00
[23025] RDATA = 000003cb, RLAST = 1, RRESP = 00
[23045] ARADDR = 0944, ARLEN = 10
[23065] RDATA = 00000251, RLAST = 0, RRESP = 00
[23085] RDATA = 00000252, RLAST = 0, RRESP = 00
[23105] RDATA = 00000253, RLAST = 0, RRESP = 00
[23125] RDATA = 00000254, RLAST = 0, RRESP = 00
[23145] RDATA = 00000255, RLAST = 0, RRESP = 00
[23165] RDATA = 00000256, RLAST = 0, RRESP = 00
[23185] RDATA = 00000257, RLAST = 0, RRESP = 00
[23205] RDATA = 00000258, RLAST = 0, RRESP = 00
[23225] RDATA = 00000259, RLAST = 0, RRESP = 00
[23245] RDATA = 0000025a, RLAST = 0, RRESP = 00
[23265] RDATA = 0000025b, RLAST = 1, RRESP = 00
[23285] ARADDR = 0fd0, ARLEN = 9
[23305] RDATA = 000003f4, RLAST = 0, RRESP = 00
[23325] RDATA = 000003f5, RLAST = 0, RRESP = 00
[23345] RDATA = 000003f6, RLAST = 0, RRESP = 00
[23365] RDATA = 000003f7, RLAST = 0, RRESP = 00
[23385] RDATA = 000003f8, RLAST = 0, RRESP = 00
[23405] RDATA = 000003f9, RLAST = 0, RRESP = 00
[23425] RDATA = 000003fa, RLAST = 0, RRESP = 00
[23445] RDATA = 000003fb, RLAST = 0, RRESP = 00
[23465] RDATA = 000003fc, RLAST = 0, RRESP = 00
[23485] RDATA = 000003fd, RLAST = 1, RRESP = 00
[23505] AWADDR = 0b48, AWLEN = 0
[23525] WDATA = a9a95955, WLAST = 1
[23535] BRESP = 00
[23555] ARADDR = 0b48, ARLEN = 0
[23575] RDATA = a9a95955, RLAST = 1, RRESP = 00
[23595] ARADDR = 043c, ARLEN = 4
[23615] RDATA = 0000010f, RLAST = 0, RRESP = 00
[23635] RDATA = 00000110, RLAST = 0, RRESP = 00
[23655] RDATA = 00000111, RLAST = 0, RRESP = 00
[23675] RDATA = 00000112, RLAST = 0, RRESP = 00
[23695] RDATA = 00000113, RLAST = 1, RRESP = 00
[23715] ARADDR = 0a18, ARLEN = 13
[23735] RDATA = 00000286, RLAST = 0, RRESP = 00
[23755] RDATA = 00000287, RLAST = 0, RRESP = 00
[23775] RDATA = 00000288, RLAST = 0, RRESP = 00
[23795] RDATA = 00000289, RLAST = 0, RRESP = 00
[23815] RDATA = 0000028a, RLAST = 0, RRESP = 00
[23835] RDATA = 0000028b, RLAST = 0, RRESP = 00
[23855] RDATA = 0000028c, RLAST = 0, RRESP = 00
[23875] RDATA = 0000028d, RLAST = 0, RRESP = 00
[23895] RDATA = 0000028e, RLAST = 0, RRESP = 00
[23915] RDATA = 0000028f, RLAST = 0, RRESP = 00
[23935] RDATA = 00000290, RLAST = 0, RRESP = 00
[23955] RDATA = 00000291, RLAST = 0, RRESP = 00
[23975] RDATA = 00000292, RLAST = 0, RRESP = 00
[23995] RDATA = 00000293, RLAST = 1, RRESP = 00
[24015] AWADDR = 0b64, AWLEN = 1
[24035] WDATA = b18b9975, WLAST = 0
[24045] WDATA = 168f8e34, WLAST = 1
[24055] BRESP = 00
[24075] ARADDR = 0b64, ARLEN = 1
[24095] RDATA = b18b9975, RLAST = 0, RRESP = 00
[24115] RDATA = 168f8e34, RLAST = 1, RRESP = 00
[24135] AWADDR = 0df8, AWLEN = 15
[24155] WDATA = 7235978e, WLAST = 0
[24165] WDATA = 8f085bae, WLAST = 0
[24175] WDATA = e0d7ee86, WLAST = 0
[24185] WDATA = 9e66202c, WLAST = 0
[24195] WDATA = 446a878d, WLAST = 0
[24205] WDATA = d89ddebc, WLAST = 0
[24215] WDATA = d75827ee, WLAST = 0
[24225] WDATA = 6ef8bc8b, WLAST = 0
[24235] WDATA = 55ce7f6a, WLAST = 0
[24245] WDATA = 0068c731, WLAST = 0
[24255] WDATA = 53960dde, WLAST = 0
[24265] WDATA = 32cb4e35, WLAST = 0
[24275] WDATA = d8c40357, WLAST = 0
[24285] WDATA = cfc8334d, WLAST = 0
[24295] WDATA = 516bbd63, WLAST = 0
[24305] WDATA = b92e2a57, WLAST = 1
[24315] BRESP = 00
[24335] ARADDR = 0df8, ARLEN = 15
[24355] RDATA = 7235978e, RLAST = 0, RRESP = 00
[24375] RDATA = 8f085bae, RLAST = 0, RRESP = 00
[24395] RDATA = e0d7ee86, RLAST = 0, RRESP = 00
[24415] RDATA = 9e66202c, RLAST = 0, RRESP = 00
[24435] RDATA = 446a878d, RLAST = 0, RRESP = 00
[24455] RDATA = d89ddebc, RLAST = 0, RRESP = 00
[24475] RDATA = d75827ee, RLAST = 0, RRESP = 00
[24495] RDATA = 6ef8bc8b, RLAST = 0, RRESP = 00
[24515] RDATA = 55ce7f6a, RLAST = 0, RRESP = 00
[24535] RDATA = 0068c731, RLAST = 0, RRESP = 00
[24555] RDATA = 53960dde, RLAST = 0, RRESP = 00
[24575] RDATA = 32cb4e35, RLAST = 0, RRESP = 00
[24595] RDATA = d8c40357, RLAST = 0, RRESP = 00
[24615] RDATA = cfc8334d, RLAST = 0, RRESP = 00
[24635] RDATA = 516bbd63, RLAST = 0, RRESP = 00
[24655] RDATA = b92e2a57, RLAST = 1, RRESP = 00
[24675] ARADDR = 0ef4, ARLEN = 7
[24695] RDATA = 000003bd, RLAST = 0, RRESP = 00
[24715] RDATA = 000003be, RLAST = 0, RRESP = 00
[24735] RDATA = 000003bf, RLAST = 0, RRESP = 00
[24755] RDATA = 000003c0, RLAST = 0, RRESP = 00
[24775] RDATA = 000003c1, RLAST = 0, RRESP = 00
[24795] RDATA = 000003c2, RLAST = 0, RRESP = 00
[24815] RDATA = 000003c3, RLAST = 0, RRESP = 00
[24835] RDATA = 000003c4, RLAST = 1, RRESP = 00
[24855] ARADDR = 0344, ARLEN = 14
[24875] RDATA = a028ba68, RLAST = 0, RRESP = 00
[24895] RDATA = 34a0cf5f, RLAST = 0, RRESP = 00
[24915] RDATA = 26314cbd, RLAST = 0, RRESP = 00
[24935] RDATA = 56e21530, RLAST = 0, RRESP = 00
[24955] RDATA = ec0cd97a, RLAST = 0, RRESP = 00
[24975] RDATA = 9f6d2c80, RLAST = 0, RRESP = 00
[24995] RDATA = de555afd, RLAST = 0, RRESP = 00
[25015] RDATA = 6b8db3a0, RLAST = 0, RRESP = 00
[25035] RDATA = 000000d9, RLAST = 0, RRESP = 00
[25055] RDATA = 000000da, RLAST = 0, RRESP = 00
[25075] RDATA = 000000db, RLAST = 0, RRESP = 00
[25095] RDATA = 000000dc, RLAST = 0, RRESP = 00
[25115] RDATA = 000000dd, RLAST = 0, RRESP = 00
[25135] RDATA = 000000de, RLAST = 0, RRESP = 00
[25155] RDATA = 000000df, RLAST = 1, RRESP = 00
[25175] AWADDR = 0c18, AWLEN = 8
[25195] WDATA = f829ae49, WLAST = 0
[25205] WDATA = 6e4ae5a1, WLAST = 0
[25215] WDATA = 5733d65d, WLAST = 0
[25225] WDATA = 11c1cc9b, WLAST = 0
[25235] WDATA = a98add06, WLAST = 0
[25245] WDATA = b771c8f9, WLAST = 0
[25255] WDATA = dd5ec12b, WLAST = 0
[25265] WDATA = d93ee41a, WLAST = 0
[25275] WDATA = ac12e6e4, WLAST = 1
[25285] BRESP = 00
[25305] ARADDR = 0c18, ARLEN = 8
[25325] RDATA = f829ae49, RLAST = 0, RRESP = 00
[25345] RDATA = 6e4ae5a1, RLAST = 0, RRESP = 00
[25365] RDATA = 5733d65d, RLAST = 0, RRESP = 00
[25385] RDATA = 11c1cc9b, RLAST = 0, RRESP = 00
[25405] RDATA = a98add06, RLAST = 0, RRESP = 00
[25425] RDATA = b771c8f9, RLAST = 0, RRESP = 00
[25445] RDATA = dd5ec12b, RLAST = 0, RRESP = 00
[25465] RDATA = d93ee41a, RLAST = 0, RRESP = 00
[25485] RDATA = ac12e6e4, RLAST = 1, RRESP = 00
[25505] ARADDR = 04d0, ARLEN = 4
[25525] RDATA = 00000134, RLAST = 0, RRESP = 00
[25545] RDATA = 00000135, RLAST = 0, RRESP = 00
[25565] RDATA = 00000136, RLAST = 0, RRESP = 00
[25585] RDATA = 00000137, RLAST = 0, RRESP = 00
[25605] RDATA = 00000138, RLAST = 1, RRESP = 00
[25625] AWADDR = 06a8, AWLEN = 10
[25645] WDATA = 9c3cf0dd, WLAST = 0
[25655] WDATA = e841e875, WLAST = 0
[25665] WDATA = 909f8d14, WLAST = 0
[25675] WDATA = e39137a1, WLAST = 0
[25685] WDATA = 4754453a, WLAST = 0
[25695] WDATA = 9020462f, WLAST = 0
[25705] WDATA = fbcd3d66, WLAST = 0
[25715] WDATA = 1e21b542, WLAST = 0
[25725] WDATA = 060d3fe5, WLAST = 0
[25735] WDATA = 8f68d964, WLAST = 0
[25745] WDATA = 8c386742, WLAST = 1
[25755] BRESP = 00
[25775] ARADDR = 06a8, ARLEN = 10
[25795] RDATA = 000001aa, RLAST = 0, RRESP = 00
[25815] RDATA = 000001ab, RLAST = 0, RRESP = 00
[25835] RDATA = 000001ac, RLAST = 0, RRESP = 00
[25855] RDATA = 000001ad, RLAST = 0, RRESP = 00
[25875] RDATA = 000001ae, RLAST = 0, RRESP = 00
[25895] RDATA = 000001af, RLAST = 0, RRESP = 00
[25915] RDATA = 000001b0, RLAST = 0, RRESP = 00
[25935] RDATA = 000001b1, RLAST = 0, RRESP = 00
[25955] RDATA = 000001b2, RLAST = 0, RRESP = 00
[25975] RDATA = 000001b3, RLAST = 0, RRESP = 00
[25995] RDATA = 000001b4, RLAST = 1, RRESP = 00
[26015] ARADDR = 03bc, ARLEN = 11
[26035] RDATA = 000000ef, RLAST = 0, RRESP = 00
[26055] RDATA = 000000f0, RLAST = 0, RRESP = 00
[26075] RDATA = 000000f1, RLAST = 0, RRESP = 00
[26095] RDATA = 000000f2, RLAST = 0, RRESP = 00
[26115] RDATA = 000000f3, RLAST = 0, RRESP = 00
[26135] RDATA = 000000f4, RLAST = 0, RRESP = 00
[26155] RDATA = 000000f5, RLAST = 0, RRESP = 00
[26175] RDATA = 000000f6, RLAST = 0, RRESP = 00
[26195] RDATA = 000000f7, RLAST = 0, RRESP = 00
[26215] RDATA = 000000f8, RLAST = 0, RRESP = 00
[26235] RDATA = 000000f9, RLAST = 0, RRESP = 00
[26255] RDATA = 000000fa, RLAST = 1, RRESP = 00
[26275] AWADDR = 027c, AWLEN = 5
[26295] WDATA = 0d9feda8, WLAST = 0
[26305] WDATA = 624c050c, WLAST = 0
[26315] WDATA = 502bf64a, WLAST = 0
[26325] WDATA = 2aeb70f4, WLAST = 0
[26335] WDATA = a2a15a79, WLAST = 0
[26345] WDATA = 9c4a5365, WLAST = 1
[26355] BRESP = 00
[26375] ARADDR = 027c, ARLEN = 5
[26395] RDATA = 0000009f, RLAST = 0, RRESP = 00
[26415] RDATA = 000000a0, RLAST = 0, RRESP = 00
[26435] RDATA = 000000a1, RLAST = 0, RRESP = 00
[26455] RDATA = 000000a2, RLAST = 0, RRESP = 00
[26475] RDATA = 000000a3, RLAST = 0, RRESP = 00
[26495] RDATA = 000000a4, RLAST = 1, RRESP = 00
[26515] ARADDR = 037c, ARLEN = 2
[26535] RDATA = 000000df, RLAST = 0, RRESP = 00
[26555] RDATA = 000000e0, RLAST = 0, RRESP = 00
[26575] RDATA = 000000e1, RLAST = 1, RRESP = 00
[26595] AWADDR = 0c80, AWLEN = 10
[26615] WDATA = bcf4d26d, WLAST = 0
[26625] WDATA = c2160c3a, WLAST = 0
[26635] WDATA = 3427b856, WLAST = 0
[26645] WDATA = b8f58d36, WLAST = 0
[26655] WDATA = 56a08fac, WLAST = 0
[26665] WDATA = 40f3dadd, WLAST = 0
[26675] WDATA = 76b53f0c, WLAST = 0
[26685] WDATA = 5161a78d, WLAST = 0
[26695] WDATA = 3c81938c, WLAST = 0
[26705] WDATA = bd9f6c68, WLAST = 0
[26715] WDATA = 3bc38e44, WLAST = 1
[26725] BRESP = 00
[26745] ARADDR = 0c80, ARLEN = 10
[26765] RDATA = 00000320, RLAST = 0, RRESP = 00
[26785] RDATA = 00000321, RLAST = 0, RRESP = 00
[26805] RDATA = 00000322, RLAST = 0, RRESP = 00
[26825] RDATA = 00000323, RLAST = 0, RRESP = 00
[26845] RDATA = 00000324, RLAST = 0, RRESP = 00
[26865] RDATA = 00000325, RLAST = 0, RRESP = 00
[26885] RDATA = 00000326, RLAST = 0, RRESP = 00
[26905] RDATA = 00000327, RLAST = 0, RRESP = 00
[26925] RDATA = 00000328, RLAST = 0, RRESP = 00
[26945] RDATA = 00000329, RLAST = 0, RRESP = 00
[26965] RDATA = 0000032a, RLAST = 1, RRESP = 00
[26985] AWADDR = 0a34, AWLEN = 13
[27005] WDATA = b1ad8215, WLAST = 0
[27015] WDATA = cabba48c, WLAST = 0
[27025] WDATA = 4020c2bd, WLAST = 0
[27035] WDATA = 0a9fe7aa, WLAST = 0
[27045] WDATA = ef8688fb, WLAST = 0
[27055] WDATA = 5622004f, WLAST = 0
[27065] WDATA = dcc76a27, WLAST = 0
[27075] WDATA = 20d31340, WLAST = 0
[27085] WDATA = 6a129e46, WLAST = 0
[27095] WDATA = f1287019, WLAST = 0
[27105] WDATA = 9509fd0c, WLAST = 0
[27115] WDATA = 2a49eca1, WLAST = 0
[27125] WDATA = 4a2af793, WLAST = 0
[27135] WDATA = 8b44eb7a, WLAST = 1
[27145] BRESP = 00
[27165] ARADDR = 0a34, ARLEN = 13
[27185] RDATA = 0000028d, RLAST = 0, RRESP = 00
[27205] RDATA = 0000028e, RLAST = 0, RRESP = 00
[27225] RDATA = 0000028f, RLAST = 0, RRESP = 00
[27245] RDATA = 00000290, RLAST = 0, RRESP = 00
[27265] RDATA = 00000291, RLAST = 0, RRESP = 00
[27285] RDATA = 00000292, RLAST = 0, RRESP = 00
[27305] RDATA = 00000293, RLAST = 0, RRESP = 00
[27325] RDATA = 00000294, RLAST = 0, RRESP = 00
[27345] RDATA = 00000295, RLAST = 0, RRESP = 00
[27365] RDATA = 00000296, RLAST = 0, RRESP = 00
[27385] RDATA = 00000297, RLAST = 0, RRESP = 00
[27405] RDATA = 00000298, RLAST = 0, RRESP = 00
[27425] RDATA = 00000299, RLAST = 0, RRESP = 00
[27445] RDATA = 0000029a, RLAST = 1, RRESP = 00
[27465] ARADDR = 0324, ARLEN = 8
[27485] RDATA = 000000c9, RLAST = 0, RRESP = 00
[27505] RDATA = 886d2341, RLAST = 0, RRESP = 00
[27525] RDATA = ec56669b, RLAST = 0, RRESP = 00
[27545] RDATA = e53e9e66, RLAST = 0, RRESP = 00
[27565] RDATA = 4fbbce0a, RLAST = 0, RRESP = 00
[27585] RDATA = a25e8bdb, RLAST = 0, RRESP = 00
[27605] RDATA = 478a97f9, RLAST = 0, RRESP = 00
[27625] RDATA = 3841f1c1, RLAST = 0, RRESP = 00
[27645] RDATA = a028ba68, RLAST = 1, RRESP = 00
[27665] ARADDR = 0d80, ARLEN = 4
[27685] RDATA = 00000360, RLAST = 0, RRESP = 00
[27705] RDATA = 00000361, RLAST = 0, RRESP = 00
[27725] RDATA = 00000362, RLAST = 0, RRESP = 00
[27745] RDATA = 00000363, RLAST = 0, RRESP = 00
[27765] RDATA = 00000364, RLAST = 1, RRESP = 00
[27785] AWADDR = 0944, AWLEN = 14
[27805] WDATA = 0c176654, WLAST = 0
[27815] WDATA = 4c3f6b6a, WLAST = 0
[27825] WDATA = c7f7d414, WLAST = 0
[27835] WDATA = 7fa3b54c, WLAST = 0
[27845] WDATA = d8704877, WLAST = 0
[27855] WDATA = 5f4c75b3, WLAST = 0
[27865] WDATA = dee817f9, WLAST = 0
[27875] WDATA = 22211028, WLAST = 0
[27885] WDATA = 2cdb3515, WLAST = 0
[27895] WDATA = 7a4c0442, WLAST = 0
[27905] WDATA = 3b676cf7, WLAST = 0
[27915] WDATA = 186e5604, WLAST = 0
[27925] WDATA = 3633557a, WLAST = 0
[27935] WDATA = 84f4c0f6, WLAST = 0
[27945] WDATA = 3b047766, WLAST = 1
[27955] BRESP = 00
[27975] ARADDR = 0944, ARLEN = 14
[27995] RDATA = 00000251, RLAST = 0, RRESP = 00
[28015] RDATA = 00000252, RLAST = 0, RRESP = 00
[28035] RDATA = 00000253, RLAST = 0, RRESP = 00
[28055] RDATA = 00000254, RLAST = 0, RRESP = 00
[28075] RDATA = 00000255, RLAST = 0, RRESP = 00
[28095] RDATA = 00000256, RLAST = 0, RRESP = 00
[28115] RDATA = 00000257, RLAST = 0, RRESP = 00
[28135] RDATA = 00000258, RLAST = 0, RRESP = 00
[28155] RDATA = 00000259, RLAST = 0, RRESP = 00
[28175] RDATA = 0000025a, RLAST = 0, RRESP = 00
[28195] RDATA = 0000025b, RLAST = 0, RRESP = 00
[28215] RDATA = 0000025c, RLAST = 0, RRESP = 00
[28235] RDATA = 0000025d, RLAST = 0, RRESP = 00
[28255] RDATA = 0000025e, RLAST = 0, RRESP = 00
[28275] RDATA = 0000025f, RLAST = 1, RRESP = 00
[28295] ARADDR = 0bb8, ARLEN = 5
[28315] RDATA = 000002ee, RLAST = 0, RRESP = 00
[28335] RDATA = 000002ef, RLAST = 0, RRESP = 00
[28355] RDATA = 000002f0, RLAST = 0, RRESP = 00
[28375] RDATA = 000002f1, RLAST = 0, RRESP = 00
[28395] RDATA = 000002f2, RLAST = 0, RRESP = 00
[28415] RDATA = 000002f3, RLAST = 1, RRESP = 00
[28435] AWADDR = 0344, AWLEN = 7
[28455] WDATA = 6af1e0fb, WLAST = 0
[28465] WDATA = de6fa91d, WLAST = 0
[28475] WDATA = 064dc268, WLAST = 0
[28485] WDATA = 1fa1af64, WLAST = 0
[28495] WDATA = 8210525c, WLAST = 0
[28505] WDATA = ea46bbd6, WLAST = 0
[28515] WDATA = fc3fe24e, WLAST = 0
[28525] WDATA = 50f4a821, WLAST = 1
[28535] BRESP = 00
[28555] ARADDR = 0344, ARLEN = 7
[28575] RDATA = 6af1e0fb, RLAST = 0, RRESP = 00
[28595] RDATA = de6fa91d, RLAST = 0, RRESP = 00
[28615] RDATA = 064dc268, RLAST = 0, RRESP = 00
[28635] RDATA = 1fa1af64, RLAST = 0, RRESP = 00
[28655] RDATA = 8210525c, RLAST = 0, RRESP = 00
[28675] RDATA = ea46bbd6, RLAST = 0, RRESP = 00
[28695] RDATA = fc3fe24e, RLAST = 0, RRESP = 00
[28715] RDATA = 50f4a821, RLAST = 1, RRESP = 00
[28735] ARADDR = 004c, ARLEN = 2
[28755] RDATA = 00000013, RLAST = 0, RRESP = 00
[28775] RDATA = 00000014, RLAST = 0, RRESP = 00
[28795] RDATA = 00000015, RLAST = 1, RRESP = 00
[28815] AWADDR = 0c00, AWLEN = 14
[28835] WDATA = 7b8a458c, WLAST = 0
[28845] WDATA = 1eeed92d, WLAST = 0
[28855] WDATA = 279b1617, WLAST = 0
[28865] WDATA = 6230d18e, WLAST = 0
[28875] WDATA = 725711f6, WLAST = 0
[28885] WDATA = 04162265, WLAST = 0
[28895] WDATA = a03ac811, WLAST = 0
[28905] WDATA = 8f47da88, WLAST = 0
[28915] WDATA = 961ed62e, WLAST = 0
[28925] WDATA = cd146408, WLAST = 0
[28935] WDATA = 03f45229, WLAST = 0
[28945] WDATA = 7adcaf2a, WLAST = 0
[28955] WDATA = bb000683, WLAST = 0
[28965] WDATA = 623de092, WLAST = 0
[28975] WDATA = e041a0e8, WLAST = 1
[28985] BRESP = 00
[29005] ARADDR = 0c00, ARLEN = 14
[29025] RDATA = f5cd454f, RLAST = 0, RRESP = 00
[29045] RDATA = 22628fd9, RLAST = 0, RRESP = 00
[29065] RDATA = d1565649, RLAST = 0, RRESP = 00
[29085] RDATA = dbe80b9b, RLAST = 0, RRESP = 00
[29105] RDATA = 16f2428b, RLAST = 0, RRESP = 00
[29125] RDATA = 12878f90, RLAST = 0, RRESP = 00
[29145] RDATA = f829ae49, RLAST = 0, RRESP = 00
[29165] RDATA = 6e4ae5a1, RLAST = 0, RRESP = 00
[29185] RDATA = 5733d65d, RLAST = 0, RRESP = 00
[29205] RDATA = 11c1cc9b, RLAST = 0, RRESP = 00
[29225] RDATA = a98add06, RLAST = 0, RRESP = 00
[29245] RDATA = b771c8f9, RLAST = 0, RRESP = 00
[29265] RDATA = dd5ec12b, RLAST = 0, RRESP = 00
[29285] RDATA = d93ee41a, RLAST = 0, RRESP = 00
[29305] RDATA = ac12e6e4, RLAST = 1, RRESP = 00
[29325] ARADDR = 0c94, ARLEN = 10
[29345] RDATA = 00000325, RLAST = 0, RRESP = 00
[29365] RDATA = 00000326, RLAST = 0, RRESP = 00
[29385] RDATA = 00000327, RLAST = 0, RRESP = 00
[29405] RDATA = 00000328, RLAST = 0, RRESP = 00
[29425] RDATA = 00000329, RLAST = 0, RRESP = 00
[29445] RDATA = 0000032a, RLAST = 0, RRESP = 00
[29465] RDATA = 0000032b, RLAST = 0, RRESP = 00
[29485] RDATA = 0000032c, RLAST = 0, RRESP = 00
[29505] RDATA = 0000032d, RLAST = 0, RRESP = 00
[29525] RDATA = 0000032e, RLAST = 0, RRESP = 00
[29545] RDATA = 0000032f, RLAST = 1, RRESP = 00
[29565] ARADDR = 09f8, ARLEN = 9
[29585] RDATA = 0000027e, RLAST = 0, RRESP = 00
[29605] RDATA = 0000027f, RLAST = 0, RRESP = 00
[29625] RDATA = 00000280, RLAST = 0, RRESP = 00
[29645] RDATA = 00000281, RLAST = 0, RRESP = 00
[29665] RDATA = 00000282, RLAST = 0, RRESP = 00
[29685] RDATA = 00000283, RLAST = 0, RRESP = 00
[29705] RDATA = 00000284, RLAST = 0, RRESP = 00
[29725] RDATA = 00000285, RLAST = 0, RRESP = 00
[29745] RDATA = 00000286, RLAST = 0, RRESP = 00
[29765] RDATA = 00000287, RLAST = 1, RRESP = 00
[29785] ARADDR = 0920, ARLEN = 13
[29805] RDATA = 00000248, RLAST = 0, RRESP = 00
[29825] RDATA = 00000249, RLAST = 0, RRESP = 00
[29845] RDATA = 0000024a, RLAST = 0, RRESP = 00
[29865] RDATA = 0000024b, RLAST = 0, RRESP = 00
[29885] RDATA = 0000024c, RLAST = 0, RRESP = 00
[29905] RDATA = 0000024d, RLAST = 0, RRESP = 00
[29925] RDATA = 0000024e, RLAST = 0, RRESP = 00
[29945] RDATA = 0000024f, RLAST = 0, RRESP = 00
[29965] RDATA = 00000250, RLAST = 0, RRESP = 00
[29985] RDATA = 00000251, RLAST = 0, RRESP = 00
[30005] RDATA = 00000252, RLAST = 0, RRESP = 00
[30025] RDATA = 00000253, RLAST = 0, RRESP = 00
[30045] RDATA = 00000254, RLAST = 0, RRESP = 00
[30065] RDATA = 00000255, RLAST = 1, RRESP = 00
[30085] ARADDR = 0b7c, ARLEN = 3
[30105] RDATA = 000002df, RLAST = 0, RRESP = 00
[30125] RDATA = 000002e0, RLAST = 0, RRESP = 00
[30145] RDATA = 000002e1, RLAST = 0, RRESP = 00
[30165] RDATA = 000002e2, RLAST = 1, RRESP = 00
[30185] AWADDR = 0c6c, AWLEN = 6
[30205] WDATA = 826c37ff, WLAST = 0
[30215] WDATA = f30f781c, WLAST = 0
[30225] WDATA = 3a909286, WLAST = 0
[30235] WDATA = 25903c41, WLAST = 0
[30245] WDATA = 7b09db19, WLAST = 0
[30255] WDATA = ea60e1a8, WLAST = 0
[30265] WDATA = 61a9c3b7, WLAST = 1
[30275] BRESP = 00
[30295] ARADDR = 0c6c, ARLEN = 6
[30315] RDATA = 0000031b, RLAST = 0, RRESP = 00
[30335] RDATA = 0000031c, RLAST = 0, RRESP = 00
[30355] RDATA = 0000031d, RLAST = 0, RRESP = 00
[30375] RDATA = 0000031e, RLAST = 0, RRESP = 00
[30395] RDATA = 0000031f, RLAST = 0, RRESP = 00
[30415] RDATA = 00000320, RLAST = 0, RRESP = 00
[30435] RDATA = 00000321, RLAST = 1, RRESP = 00
[30455] ARADDR = 0308, ARLEN = 8
[30475] RDATA = 000000c2, RLAST = 0, RRESP = 00
[30495] RDATA = 000000c3, RLAST = 0, RRESP = 00
[30515] RDATA = 000000c4, RLAST = 0, RRESP = 00
[30535] RDATA = 000000c5, RLAST = 0, RRESP = 00
[30555] RDATA = 000000c6, RLAST = 0, RRESP = 00
[30575] RDATA = 000000c7, RLAST = 0, RRESP = 00
[30595] RDATA = 000000c8, RLAST = 0, RRESP = 00
[30615] RDATA = 000000c9, RLAST = 0, RRESP = 00
[30635] RDATA = 886d2341, RLAST = 1, RRESP = 00
[30655] ARADDR = 045c, ARLEN = 8
[30675] RDATA = 00000117, RLAST = 0, RRESP = 00
[30695] RDATA = 00000118, RLAST = 0, RRESP = 00
[30715] RDATA = 00000119, RLAST = 0, RRESP = 00
[30735] RDATA = 0000011a, RLAST = 0, RRESP = 00
[30755] RDATA = 0000011b, RLAST = 0, RRESP = 00
[30775] RDATA = 0000011c, RLAST = 0, RRESP = 00
[30795] RDATA = 0000011d, RLAST = 0, RRESP = 00
[30815] RDATA = 0000011e, RLAST = 0, RRESP = 00
[30835] RDATA = 0000011f, RLAST = 1, RRESP = 00
[30855] ARADDR = 0368, ARLEN = 15
[30875] RDATA = 000000da, RLAST = 0, RRESP = 00
[30895] RDATA = 000000db, RLAST = 0, RRESP = 00
[30915] RDATA = 000000dc, RLAST = 0, RRESP = 00
[30935] RDATA = 000000dd, RLAST = 0, RRESP = 00
[30955] RDATA = 000000de, RLAST = 0, RRESP = 00
[30975] RDATA = 000000df, RLAST = 0, RRESP = 00
[30995] RDATA = 000000e0, RLAST = 0, RRESP = 00
[31015] RDATA = 000000e1, RLAST = 0, RRESP = 00
[31035] RDATA = 000000e2, RLAST = 0, RRESP = 00
[31055] RDATA = 000000e3, RLAST = 0, RRESP = 00
[31075] RDATA = 000000e4, RLAST = 0, RRESP = 00
[31095] RDATA = 000000e5, RLAST = 0, RRESP = 00
[31115] RDATA = 000000e6, RLAST = 0, RRESP = 00
[31135] RDATA = 000000e7, RLAST = 0, RRESP = 00
[31155] RDATA = 000000e8, RLAST = 0, RRESP = 00
[31175] RDATA = 000000e9, RLAST = 1, RRESP = 00
[31195] ARADDR = 0d44, ARLEN = 12
[31215] RDATA = 00000351, RLAST = 0, RRESP = 00
[31235] RDATA = 00000352, RLAST = 0, RRESP = 00
[31255] RDATA = 00000353, RLAST = 0, RRESP = 00
[31275] RDATA = 00000354, RLAST = 0, RRESP = 00
[31295] RDATA = 00000355, RLAST = 0, RRESP = 00
[31315] RDATA = 00000356, RLAST = 0, RRESP = 00
[31335] RDATA = 00000357, RLAST = 0, RRESP = 00
[31355] RDATA = 00000358, RLAST = 0, RRESP = 00
[31375] RDATA = 00000359, RLAST = 0, RRESP = 00
[31395] RDATA = 0000035a, RLAST = 0, RRESP = 00
[31415] RDATA = 0000035b, RLAST = 0, RRESP = 00
[31435] RDATA = 0000035c, RLAST = 0, RRESP = 00
[31455] RDATA = 0000035d, RLAST = 1, RRESP = 00
[31475] ARADDR = 0664, ARLEN = 7
[31495] RDATA = 00000199, RLAST = 0, RRESP = 00
[31515] RDATA = 0000019a, RLAST = 0, RRESP = 00
[31535] RDATA = 0000019b, RLAST = 0, RRESP = 00
[31555] RDATA = 0000019c, RLAST = 0, RRESP = 00
[31575] RDATA = 0000019d, RLAST = 0, RRESP = 00
[31595] RDATA = 0000019e, RLAST = 0, RRESP = 00
[31615] RDATA = 0000019f, RLAST = 0, RRESP = 00
[31635] RDATA = 000001a0, RLAST = 1, RRESP = 00
[31655] AWADDR = 03cc, AWLEN = 8
[31675] WDATA = e1a6829e, WLAST = 0
[31685] WDATA = 497b3771, WLAST = 0
[31695] WDATA = 0a1d9a70, WLAST = 0
[31705] WDATA = 0b4ee230, WLAST = 0
[31715] WDATA = 6d4f20d2, WLAST = 0
[31725] WDATA = 81d6cb34, WLAST = 0
[31735] WDATA = 03925ae4, WLAST = 0
[31745] WDATA = c2f2075b, WLAST = 0
[31755] WDATA = 45f224c0, WLAST = 1
[31765] BRESP = 00
[31785] ARADDR = 03cc, ARLEN = 8
[31805] RDATA = 000000f3, RLAST = 0, RRESP = 00
[31825] RDATA = 000000f4, RLAST = 0, RRESP = 00
[31845] RDATA = 000000f5, RLAST = 0, RRESP = 00
[31865] RDATA = 000000f6, RLAST = 0, RRESP = 00
[31885] RDATA = 000000f7, RLAST = 0, RRESP = 00
[31905] RDATA = 000000f8, RLAST = 0, RRESP = 00
[31925] RDATA = 000000f9, RLAST = 0, RRESP = 00
[31945] RDATA = 000000fa, RLAST = 0, RRESP = 00
[31965] RDATA = 000000fb, RLAST = 1, RRESP = 00
[31985] AWADDR = 04a4, AWLEN = 11
[32005] WDATA = 60a1cb01, WLAST = 0
[32015] WDATA = 663a68af, WLAST = 0
[32025] WDATA = 2ee58c27, WLAST = 0
[32035] WDATA = bc8c7bdb, WLAST = 0
[32045] WDATA = 86520156, WLAST = 0
[32055] WDATA = af3e810a, WLAST = 0
[32065] WDATA = 66809b90, WLAST = 0
[32075] WDATA = b3470ef1, WLAST = 0
[32085] WDATA = 2a7b4f52, WLAST = 0
[32095] WDATA = a3c66218, WLAST = 0
[32105] WDATA = 04b06d35, WLAST = 0
[32115] WDATA = 96cd4597, WLAST = 1
[32125] BRESP = 00
[32145] ARADDR = 04a4, ARLEN = 11
[32165] RDATA = 00000129, RLAST = 0, RRESP = 00
[32185] RDATA = 0000012a, RLAST = 0, RRESP = 00
[32205] RDATA = 0000012b, RLAST = 0, RRESP = 00
[32225] RDATA = 0000012c, RLAST = 0, RRESP = 00
[32245] RDATA = 0000012d, RLAST = 0, RRESP = 00
[32265] RDATA = 0000012e, RLAST = 0, RRESP = 00
[32285] RDATA = 0000012f, RLAST = 0, RRESP = 00
[32305] RDATA = 00000130, RLAST = 0, RRESP = 00
[32325] RDATA = 00000131, RLAST = 0, RRESP = 00
[32345] RDATA = 00000132, RLAST = 0, RRESP = 00
[32365] RDATA = 00000133, RLAST = 0, RRESP = 00
[32385] RDATA = 00000134, RLAST = 1, RRESP = 00
[32405] ARADDR = 0484, ARLEN = 8
[32425] RDATA = 00000121, RLAST = 0, RRESP = 00
[32445] RDATA = 00000122, RLAST = 0, RRESP = 00
[32465] RDATA = 00000123, RLAST = 0, RRESP = 00
[32485] RDATA = 00000124, RLAST = 0, RRESP = 00
[32505] RDATA = 00000125, RLAST = 0, RRESP = 00
[32525] RDATA = 00000126, RLAST = 0, RRESP = 00
[32545] RDATA = 00000127, RLAST = 0, RRESP = 00
[32565] RDATA = 00000128, RLAST = 0, RRESP = 00
[32585] RDATA = 00000129, RLAST = 1, RRESP = 00
[32605] ARADDR = 09d4, ARLEN = 9
[32625] RDATA = 00000275, RLAST = 0, RRESP = 00
[32645] RDATA = 00000276, RLAST = 0, RRESP = 00
[32665] RDATA = 00000277, RLAST = 0, RRESP = 00
[32685] RDATA = 00000278, RLAST = 0, RRESP = 00
[32705] RDATA = 00000279, RLAST = 0, RRESP = 00
[32725] RDATA = 0000027a, RLAST = 0, RRESP = 00
[32745] RDATA = 0000027b, RLAST = 0, RRESP = 00
[32765] RDATA = 0000027c, RLAST = 0, RRESP = 00
[32785] RDATA = 0000027d, RLAST = 0, RRESP = 00
[32805] RDATA = 0000027e, RLAST = 1, RRESP = 00
[32825] ARADDR = 0ff4, ARLEN = 2
[32845] RDATA = 000003fd, RLAST = 0, RRESP = 00
[32865] RDATA = 000003fe, RLAST = 0, RRESP = 00
[32885] RDATA = 000003ff, RLAST = 1, RRESP = 00
[32905] ARADDR = 07c8, ARLEN = 1
[32925] RDATA = 000001f2, RLAST = 0, RRESP = 00
[32945] RDATA = 000001f3, RLAST = 1, RRESP = 00
[32965] AWADDR = 0b30, AWLEN = 3
[32985] WDATA = a3dfba93, WLAST = 0
[32995] WDATA = 4d4b187b, WLAST = 0
[33005] WDATA = 47f658c4, WLAST = 0
[33015] WDATA = 0391debc, WLAST = 1
[33025] BRESP = 00
[33045] ARADDR = 0b30, ARLEN = 3
[33065] RDATA = 000002cc, RLAST = 0, RRESP = 00
[33085] RDATA = 000002cd, RLAST = 0, RRESP = 00
[33105] RDATA = 000002ce, RLAST = 0, RRESP = 00
[33125] RDATA = 000002cf, RLAST = 1, RRESP = 00
[33145] AWADDR = 0f44, AWLEN = 5
[33165] WDATA = 965652f2, WLAST = 0
[33175] WDATA = c1447327, WLAST = 0
[33185] WDATA = 93a50eee, WLAST = 0
[33195] WDATA = bd1936d7, WLAST = 0
[33205] WDATA = 481c4c17, WLAST = 0
[33215] WDATA = 9cd6a3d4, WLAST = 1
[33225] BRESP = 00
[33245] ARADDR = 0f44, ARLEN = 5
[33265] RDATA = 965652f2, RLAST = 0, RRESP = 00
[33285] RDATA = c1447327, RLAST = 0, RRESP = 00
[33305] RDATA = 93a50eee, RLAST = 0, RRESP = 00
[33325] RDATA = bd1936d7, RLAST = 0, RRESP = 00
[33345] RDATA = 481c4c17, RLAST = 0, RRESP = 00
[33365] RDATA = 9cd6a3d4, RLAST = 1, RRESP = 00
[33385] AWADDR = 0fc8, AWLEN = 4
[33405] WDATA = b705c884, WLAST = 0
[33415] WDATA = dc1fe76f, WLAST = 0
[33425] WDATA = 96a0ba1e, WLAST = 0
[33435] WDATA = 9c666577, WLAST = 0
[33445] WDATA = 1b27b08f, WLAST = 1
[33455] BRESP = 00
[33475] ARADDR = 0fc8, ARLEN = 4
[33495] RDATA = b705c884, RLAST = 0, RRESP = 00
[33515] RDATA = dc1fe76f, RLAST = 0, RRESP = 00
[33535] RDATA = 96a0ba1e, RLAST = 0, RRESP = 00
[33555] RDATA = 9c666577, RLAST = 0, RRESP = 00
[33575] RDATA = 1b27b08f, RLAST = 1, RRESP = 00
[33595] AWADDR = 0848, AWLEN = 7
[33615] WDATA = 0117b1ad, WLAST = 0
[33625] WDATA = d7ee1abd, WLAST = 0
[33635] WDATA = 1afb042b, WLAST = 0
[33645] WDATA = 433d72da, WLAST = 0
[33655] WDATA = 8fea6f00, WLAST = 0
[33665] WDATA = a143fa0a, WLAST = 0
[33675] WDATA = 7570c761, WLAST = 0
[33685] WDATA = 16550b97, WLAST = 1
[33695] BRESP = 00
[33715] ARADDR = 0848, ARLEN = 7
[33735] RDATA = 0117b1ad, RLAST = 0, RRESP = 00
[33755] RDATA = d7ee1abd, RLAST = 0, RRESP = 00
[33775] RDATA = 1afb042b, RLAST = 0, RRESP = 00
[33795] RDATA = 433d72da, RLAST = 0, RRESP = 00
[33815] RDATA = 8fea6f00, RLAST = 0, RRESP = 00
[33835] RDATA = a143fa0a, RLAST = 0, RRESP = 00
[33855] RDATA = 7570c761, RLAST = 0, RRESP = 00
[33875] RDATA = 16550b97, RLAST = 1, RRESP = 00
[33895] AWADDR = 09d4, AWLEN = 6
[33915] WDATA = fcb347be, WLAST = 0
[33925] WDATA = 2b07c9d8, WLAST = 0
[33935] WDATA = 186a3031, WLAST = 0
[33945] WDATA = bedfd746, WLAST = 0
[33955] WDATA = 2a1753f1, WLAST = 0
[33965] WDATA = 65a55d44, WLAST = 0
[33975] WDATA = 74b1d6e6, WLAST = 1
[33985] BRESP = 00
[34005] ARADDR = 09d4, ARLEN = 6
[34025] RDATA = fcb347be, RLAST = 0, RRESP = 00
[34045] RDATA = 2b07c9d8, RLAST = 0, RRESP = 00
[34065] RDATA = 186a3031, RLAST = 0, RRESP = 00
[34085] RDATA = bedfd746, RLAST = 0, RRESP = 00
[34105] RDATA = 2a1753f1, RLAST = 0, RRESP = 00
[34125] RDATA = 65a55d44, RLAST = 0, RRESP = 00
[34145] RDATA = 74b1d6e6, RLAST = 1, RRESP = 00
[34165] AWADDR = 0520, AWLEN = 11
[34185] WDATA = d49547c4, WLAST = 0
[34195] WDATA = 9cb818f4, WLAST = 0
[34205] WDATA = 833a60eb, WLAST = 0
[34215] WDATA = f5af0d7f, WLAST = 0
[34225] WDATA = 8b7522f4, WLAST = 0
[34235] WDATA = ba653f53, WLAST = 0
[34245] WDATA = c4452053, WLAST = 0
[34255] WDATA = ed8ed46f, WLAST = 0
[34265] WDATA = 791accd9, WLAST = 0
[34275] WDATA = fee26805, WLAST = 0
[34285] WDATA = 419865bb, WLAST = 0
[34295] WDATA = 146284d1, WLAST = 1
[34305] BRESP = 00
[34325] ARADDR = 0520, ARLEN = 11
[34345] RDATA = d49547c4, RLAST = 0, RRESP = 00
[34365] RDATA = 9cb818f4, RLAST = 0, RRESP = 00
[34385] RDATA = 833a60eb, RLAST = 0, RRESP = 00
[34405] RDATA = f5af0d7f, RLAST = 0, RRESP = 00
[34425] RDATA = 8b7522f4, RLAST = 0, RRESP = 00
[34445] RDATA = ba653f53, RLAST = 0, RRESP = 00
[34465] RDATA = c4452053, RLAST = 0, RRESP = 00
[34485] RDATA = ed8ed46f, RLAST = 0, RRESP = 00
[34505] RDATA = 791accd9, RLAST = 0, RRESP = 00
[34525] RDATA = fee26805, RLAST = 0, RRESP = 00
[34545] RDATA = 419865bb, RLAST = 0, RRESP = 00
[34565] RDATA = 146284d1, RLAST = 1, RRESP = 00
[34585] AWADDR = 05e0, AWLEN = 9
[34605] WDATA = 49a9485b, WLAST = 0
[34615] WDATA = 07a9652e, WLAST = 0
[34625] WDATA = fa93e919, WLAST = 0
[34635] WDATA = 5151302d, WLAST = 0
[34645] WDATA = db13bb48, WLAST = 0
[34655] WDATA = 9a73d9d1, WLAST = 0
[34665] WDATA = f440b747, WLAST = 0
[34675] WDATA = 661f569a, WLAST = 0
[34685] WDATA = 8aecda9f, WLAST = 0
[34695] WDATA = b7b5a67f, WLAST = 1
[34705] BRESP = 00
[34725] ARADDR = 05e0, ARLEN = 9
[34745] RDATA = 49a9485b, RLAST = 0, RRESP = 00
[34765] RDATA = 07a9652e, RLAST = 0, RRESP = 00
[34785] RDATA = fa93e919, RLAST = 0, RRESP = 00
[34805] RDATA = 5151302d, RLAST = 0, RRESP = 00
[34825] RDATA = db13bb48, RLAST = 0, RRESP = 00
[34845] RDATA = 9a73d9d1, RLAST = 0, RRESP = 00
[34865] RDATA = f440b747, RLAST = 0, RRESP = 00
[34885] RDATA = 661f569a, RLAST = 0, RRESP = 00
[34905] RDATA = 8aecda9f, RLAST = 0, RRESP = 00
[34925] RDATA = b7b5a67f, RLAST = 1, RRESP = 00
[34945] ARADDR = 0ec8, ARLEN = 11
[34965] RDATA = 000003b2, RLAST = 0, RRESP = 00
[34985] RDATA = 000003b3, RLAST = 0, RRESP = 00
[35005] RDATA = 000003b4, RLAST = 0, RRESP = 00
[35025] RDATA = 000003b5, RLAST = 0, RRESP = 00
[35045] RDATA = 000003b6, RLAST = 0, RRESP = 00
[35065] RDATA = 000003b7, RLAST = 0, RRESP = 00
[35085] RDATA = 000003b8, RLAST = 0, RRESP = 00
[35105] RDATA = 000003b9, RLAST = 0, RRESP = 00
[35125] RDATA = 000003ba, RLAST = 0, RRESP = 00
[35145] RDATA = 000003bb, RLAST = 0, RRESP = 00
[35165] RDATA = 000003bc, RLAST = 0, RRESP = 00
[35185] RDATA = 000003bd, RLAST = 1, RRESP = 00
[35205] ARADDR = 0600, ARLEN = 10
[35225] RDATA = 8aecda9f, RLAST = 0, RRESP = 00
[35245] RDATA = b7b5a67f, RLAST = 0, RRESP = 00
[35265] RDATA = 00000182, RLAST = 0, RRESP = 00
[35285] RDATA = 00000183, RLAST = 0, RRESP = 00
[35305] RDATA = 00000184, RLAST = 0, RRESP = 00
[35325] RDATA = 00000185, RLAST = 0, RRESP = 00
[35345] RDATA = 00000186, RLAST = 0, RRESP = 00
[35365] RDATA = 00000187, RLAST = 0, RRESP = 00
[35385] RDATA = 00000188, RLAST = 0, RRESP = 00
[35405] RDATA = 00000189, RLAST = 0, RRESP = 00
[35425] RDATA = 0000018a, RLAST = 1, RRESP = 00
[35445] AWADDR = 02a4, AWLEN = 14
[35465] WDATA = ba21a6fa, WLAST = 0
[35475] WDATA = e9a75465, WLAST = 0
[35485] WDATA = f3754b8f, WLAST = 0
[35495] WDATA = 9b39332e, WLAST = 0
[35505] WDATA = 867f78da, WLAST = 0
[35515] WDATA = 1ee9bb39, WLAST = 0
[35525] WDATA = 41b9c31c, WLAST = 0
[35535] WDATA = 1349e4d4, WLAST = 0
[35545] WDATA = 2e892543, WLAST = 0
[35555] WDATA = f5226a0f, WLAST = 0
[35565] WDATA = 1790406d, WLAST = 0
[35575] WDATA = 65a3a228, WLAST = 0
[35585] WDATA = 7bb395d5, WLAST = 0
[35595] WDATA = 807d992d, WLAST = 0
[35605] WDATA = 26c19599, WLAST = 1
[35615] BRESP = 00
[35635] ARADDR = 02a4, ARLEN = 14
[35655] RDATA = ba21a6fa, RLAST = 0, RRESP = 00
[35675] RDATA = e9a75465, RLAST = 0, RRESP = 00
[35695] RDATA = f3754b8f, RLAST = 0, RRESP = 00
[35715] RDATA = 9b39332e, RLAST = 0, RRESP = 00
[35735] RDATA = 867f78da, RLAST = 0, RRESP = 00
[35755] RDATA = 1ee9bb39, RLAST = 0, RRESP = 00
[35775] RDATA = 41b9c31c, RLAST = 0, RRESP = 00
[35795] RDATA = 1349e4d4, RLAST = 0, RRESP = 00
[35815] RDATA = 2e892543, RLAST = 0, RRESP = 00
[35835] RDATA = f5226a0f, RLAST = 0, RRESP = 00
[35855] RDATA = 1790406d, RLAST = 0, RRESP = 00
[35875] RDATA = 65a3a228, RLAST = 0, RRESP = 00
[35895] RDATA = 7bb395d5, RLAST = 0, RRESP = 00
[35915] RDATA = 807d992d, RLAST = 0, RRESP = 00
[35935] RDATA = 26c19599, RLAST = 1, RRESP = 00
[35955] ARADDR = 0080, ARLEN = 8
[35975] RDATA = 00000020, RLAST = 0, RRESP = 00
[35995] RDATA = 00000021, RLAST = 0, RRESP = 00
[36015] RDATA = 00000022, RLAST = 0, RRESP = 00
[36035] RDATA = 00000023, RLAST = 0, RRESP = 00
[36055] RDATA = 00000024, RLAST = 0, RRESP = 00
[36075] RDATA = 00000025, RLAST = 0, RRESP = 00
[36095] RDATA = 00000026, RLAST = 0, RRESP = 00
[36115] RDATA = 00000027, RLAST = 0, RRESP = 00
[36135] RDATA = 00000028, RLAST = 1, RRESP = 00
[36155] AWADDR = 0e54, AWLEN = 2
[36175] WDATA = a2b869da, WLAST = 0
[36185] WDATA = 2d61a050, WLAST = 0
[36195] WDATA = 2d63237f, WLAST = 1
[36205] BRESP = 00
[36225] ARADDR = 0e54, ARLEN = 2
[36245] RDATA = a2b869da, RLAST = 0, RRESP = 00
[36265] RDATA = 2d61a050, RLAST = 0, RRESP = 00
[36285] RDATA = 2d63237f, RLAST = 1, RRESP = 00
[36305] ARADDR = 0f14, ARLEN = 11
[36325] RDATA = 000003c5, RLAST = 0, RRESP = 00
[36345] RDATA = 000003c6, RLAST = 0, RRESP = 00
[36365] RDATA = 000003c7, RLAST = 0, RRESP = 00
[36385] RDATA = 000003c8, RLAST = 0, RRESP = 00
[36405] RDATA = 000003c9, RLAST = 0, RRESP = 00
[36425] RDATA = 000003ca, RLAST = 0, RRESP = 00
[36445] RDATA = 000003cb, RLAST = 0, RRESP = 00
[36465] RDATA = 000003cc, RLAST = 0, RRESP = 00
[36485] RDATA = 000003cd, RLAST = 0, RRESP = 00
[36505] RDATA = 000003ce, RLAST = 0, RRESP = 00
[36525] RDATA = 000003cf, RLAST = 0, RRESP = 00
[36545] RDATA = db2968b2, RLAST = 1, RRESP = 00
[36565] AWADDR = 0a88, AWLEN = 7
[36585] WDATA = f814d30e, WLAST = 0
[36595] WDATA = d8535085, WLAST = 0
[36605] WDATA = 83ad71c4, WLAST = 0
[36615] WDATA = 918dc1d1, WLAST = 0
[36625] WDATA = f843560e, WLAST = 0
[36635] WDATA = 1f7e0793, WLAST = 0
[36645] WDATA = 08d1928c, WLAST = 0
[36655] WDATA = 2c46a5dd, WLAST = 1
[36665] BRESP = 00
[36685] ARADDR = 0a88, ARLEN = 7
[36705] RDATA = 000002a2, RLAST = 0, RRESP = 00
[36725] RDATA = 000002a3, RLAST = 0, RRESP = 00
[36745] RDATA = 000002a4, RLAST = 0, RRESP = 00
[36765] RDATA = 000002a5, RLAST = 0, RRESP = 00
[36785] RDATA = 000002a6, RLAST = 0, RRESP = 00
[36805] RDATA = 000002a7, RLAST = 0, RRESP = 00
[36825] RDATA = 000002a8, RLAST = 0, RRESP = 00
[36845] RDATA = 000002a9, RLAST = 1, RRESP = 00
[36865] AWADDR = 0894, AWLEN = 14
[36885] WDATA = 228649c4, WLAST = 0
[36895] WDATA = 70755e5c, WLAST = 0
[36905] WDATA = 1e42df07, WLAST = 0
[36915] WDATA = 76a2c996, WLAST = 0
[36925] WDATA = a16ad3d2, WLAST = 0
[36935] WDATA = 851f248a, WLAST = 0
[36945] WDATA = 777a9894, WLAST = 0
[36955] WDATA = 7c401002, WLAST = 0
[36965] WDATA = 7a032ac1, WLAST = 0
[36975] WDATA = 415122d3, WLAST = 0
[36985] WDATA = 8cd036cf, WLAST = 0
[36995] WDATA = cfa3befd, WLAST = 0
[37005] WDATA = a9339be0, WLAST = 0
[37015] WDATA = be96d0e9, WLAST = 0
[37025] WDATA = e1854097, WLAST = 1
[37035] BRESP = 00
[37055] ARADDR = 0894, ARLEN = 14
[37075] RDATA = 00000225, RLAST = 0, RRESP = 00
[37095] RDATA = 00000226, RLAST = 0, RRESP = 00
[37115] RDATA = 00000227, RLAST = 0, RRESP = 00
[37135] RDATA = 00000228, RLAST = 0, RRESP = 00
[37155] RDATA = 00000229, RLAST = 0, RRESP = 00
[37175] RDATA = 0000022a, RLAST = 0, RRESP = 00
[37195] RDATA = 0000022b, RLAST = 0, RRESP = 00
[37215] RDATA = 0000022c, RLAST = 0, RRESP = 00
[37235] RDATA = 0000022d, RLAST = 0, RRESP = 00
[37255] RDATA = 0000022e, RLAST = 0, RRESP = 00
[37275] RDATA = 0000022f, RLAST = 0, RRESP = 00
[37295] RDATA = 00000230, RLAST = 0, RRESP = 00
[37315] RDATA = 00000231, RLAST = 0, RRESP = 00
[37335] RDATA = 00000232, RLAST = 0, RRESP = 00
[37355] RDATA = 00000233, RLAST = 1, RRESP = 00
[37375] AWADDR = 0780, AWLEN = 8
[37395] WDATA = 19719e93, WLAST = 0
[37405] WDATA = a2426805, WLAST = 0
[37415] WDATA = e5bc8722, WLAST = 0
[37425] WDATA = 0b1efbcd, WLAST = 0
[37435] WDATA = 29197d76, WLAST = 0
[37445] WDATA = 5d1c5ade, WLAST = 0
[37455] WDATA = ce21af15, WLAST = 0
[37465] WDATA = ba4ba96f, WLAST = 0
[37475] WDATA = 56581799, WLAST = 1
[37485] BRESP = 00
[37505] ARADDR = 0780, ARLEN = 8
[37525] RDATA = 000001e0, RLAST = 0, RRESP = 00
[37545] RDATA = 000001e1, RLAST = 0, RRESP = 00
[37565] RDATA = 000001e2, RLAST = 0, RRESP = 00
[37585] RDATA = 000001e3, RLAST = 0, RRESP = 00
[37605] RDATA = 000001e4, RLAST = 0, RRESP = 00
[37625] RDATA = 000001e5, RLAST = 0, RRESP = 00
[37645] RDATA = 000001e6, RLAST = 0, RRESP = 00
[37665] RDATA = 000001e7, RLAST = 0, RRESP = 00
[37685] RDATA = 000001e8, RLAST = 1, RRESP = 00
[37705] ARADDR = 0080, ARLEN = 8
[37725] RDATA = 00000020, RLAST = 0, RRESP = 00
[37745] RDATA = 00000021, RLAST = 0, RRESP = 00
[37765] RDATA = 00000022, RLAST = 0, RRESP = 00
[37785] RDATA = 00000023, RLAST = 0, RRESP = 00
[37805] RDATA = 00000024, RLAST = 0, RRESP = 00
[37825] RDATA = 00000025, RLAST = 0, RRESP = 00
[37845] RDATA = 00000026, RLAST = 0, RRESP = 00
[37865] RDATA = 00000027, RLAST = 0, RRESP = 00
[37885] RDATA = 00000028, RLAST = 1, RRESP = 00
[37905] AWADDR = 0900, AWLEN = 2
[37925] WDATA = 2bae7b49, WLAST = 0
[37935] WDATA = e1434119, WLAST = 0
[37945] WDATA = 8b74ce52, WLAST = 1
[37955] BRESP = 00
[37975] ARADDR = 0900, ARLEN = 2
[37995] RDATA = 00000240, RLAST = 0, RRESP = 00
[38015] RDATA = 00000241, RLAST = 0, RRESP = 00
[38035] RDATA = 00000242, RLAST = 1, RRESP = 00
[38055] ARADDR = 08d0, ARLEN = 11
[38075] RDATA = 00000234, RLAST = 0, RRESP = 00
[38095] RDATA = 00000235, RLAST = 0, RRESP = 00
[38115] RDATA = 00000236, RLAST = 0, RRESP = 00
[38135] RDATA = 00000237, RLAST = 0, RRESP = 00
[38155] RDATA = 00000238, RLAST = 0, RRESP = 00
[38175] RDATA = 00000239, RLAST = 0, RRESP = 00
[38195] RDATA = 0000023a, RLAST = 0, RRESP = 00
[38215] RDATA = 0000023b, RLAST = 0, RRESP = 00
[38235] RDATA = 0000023c, RLAST = 0, RRESP = 00
[38255] RDATA = 0000023d, RLAST = 0, RRESP = 00
[38275] RDATA = 0000023e, RLAST = 0, RRESP = 00
[38295] RDATA = 0000023f, RLAST = 1, RRESP = 00
[38315] AWADDR = 02fc, AWLEN = 9
[38335] WDATA = e9ced7fe, WLAST = 0
[38345] WDATA = 877f93fd, WLAST = 0
[38355] WDATA = c2633603, WLAST = 0
[38365] WDATA = e0f19969, WLAST = 0
[38375] WDATA = 1caa4933, WLAST = 0
[38385] WDATA = a7dc9c71, WLAST = 0
[38395] WDATA = 9e7365fa, WLAST = 0
[38405] WDATA = 22013ec9, WLAST = 0
[38415] WDATA = 9895dee2, WLAST = 0
[38425] WDATA = 53ea53fc, WLAST = 1
[38435] BRESP = 00
[38455] ARADDR = 02fc, ARLEN = 9
[38475] RDATA = 000000bf, RLAST = 0, RRESP = 00
[38495] RDATA = 000000c0, RLAST = 0, RRESP = 00
[38515] RDATA = 000000c1, RLAST = 0, RRESP = 00
[38535] RDATA = 000000c2, RLAST = 0, RRESP = 00
[38555] RDATA = 000000c3, RLAST = 0, RRESP = 00
[38575] RDATA = 000000c4, RLAST = 0, RRESP = 00
[38595] RDATA = 000000c5, RLAST = 0, RRESP = 00
[38615] RDATA = 000000c6, RLAST = 0, RRESP = 00
[38635] RDATA = 000000c7, RLAST = 0, RRESP = 00
[38655] RDATA = 000000c8, RLAST = 1, RRESP = 00
[38675] ARADDR = 0e10, ARLEN = 11
[38695] RDATA = d75827ee, RLAST = 0, RRESP = 00
[38715] RDATA = 6ef8bc8b, RLAST = 0, RRESP = 00
[38735] RDATA = 55ce7f6a, RLAST = 0, RRESP = 00
[38755] RDATA = 0068c731, RLAST = 0, RRESP = 00
[38775] RDATA = 53960dde, RLAST = 0, RRESP = 00
[38795] RDATA = 32cb4e35, RLAST = 0, RRESP = 00
[38815] RDATA = d8c40357, RLAST = 0, RRESP = 00
[38835] RDATA = cfc8334d, RLAST = 0, RRESP = 00
[38855] RDATA = 516bbd63, RLAST = 0, RRESP = 00
[38875] RDATA = b92e2a57, RLAST = 0, RRESP = 00
[38895] RDATA = 0000038e, RLAST = 0, RRESP = 00
[38915] RDATA = 0000038f, RLAST = 1, RRESP = 00
[38935] ARADDR = 0e58, ARLEN = 7
[38955] RDATA = 2d61a050, RLAST = 0, RRESP = 00
[38975] RDATA = 2d63237f, RLAST = 0, RRESP = 00
[38995] RDATA = 00000398, RLAST = 0, RRESP = 00
[39015] RDATA = 00000399, RLAST = 0, RRESP = 00
[39035] RDATA = 0000039a, RLAST = 0, RRESP = 00
[39055] RDATA = 0000039b, RLAST = 0, RRESP = 00
[39075] RDATA = 0000039c, RLAST = 0, RRESP = 00
[39095] RDATA = 0000039d, RLAST = 1, RRESP = 00
[39115] ARADDR = 0330, ARLEN = 0
[39135] RDATA = e53e9e66, RLAST = 1, RRESP = 00
[39155] AWADDR = 0d54, AWLEN = 2
[39175] WDATA = 9144048b, WLAST = 0
[39185] WDATA = c33d76a9, WLAST = 0
[39195] WDATA = b2df20e6, WLAST = 1
[39205] BRESP = 00
[39225] ARADDR = 0d54, ARLEN = 2
[39245] RDATA = 9144048b, RLAST = 0, RRESP = 00
[39265] RDATA = c33d76a9, RLAST = 0, RRESP = 00
[39285] RDATA = b2df20e6, RLAST = 1, RRESP = 00
[39305] ARADDR = 0d10, ARLEN = 12
[39325] RDATA = 00000344, RLAST = 0, RRESP = 00
[39345] RDATA = 00000345, RLAST = 0, RRESP = 00
[39365] RDATA = 00000346, RLAST = 0, RRESP = 00
[39385] RDATA = 00000347, RLAST = 0, RRESP = 00
[39405] RDATA = 00000348, RLAST = 0, RRESP = 00
[39425] RDATA = 00000349, RLAST = 0, RRESP = 00
[39445] RDATA = 0000034a, RLAST = 0, RRESP = 00
[39465] RDATA = 0000034b, RLAST = 0, RRESP = 00
[39485] RDATA = 0000034c, RLAST = 0, RRESP = 00
[39505] RDATA = 0000034d, RLAST = 0, RRESP = 00
[39525] RDATA = 0000034e, RLAST = 0, RRESP = 00
[39545] RDATA = 0000034f, RLAST = 0, RRESP = 00
[39565] RDATA = 00000350, RLAST = 1, RRESP = 00
[39585] AWADDR = 0e54, AWLEN = 13
[39605] WDATA = 599be0bf, WLAST = 0
[39615] WDATA = 348402d4, WLAST = 0
[39625] WDATA = 972b20e4, WLAST = 0
[39635] WDATA = 89ae6ef3, WLAST = 0
[39645] WDATA = 914b95fe, WLAST = 0
[39655] WDATA = 1ad2e29d, WLAST = 0
[39665] WDATA = b9d17a2e, WLAST = 0
[39675] WDATA = 3f5f8c47, WLAST = 0
[39685] WDATA = f348e65f, WLAST = 0
[39695] WDATA = 168c3ea3, WLAST = 0
[39705] WDATA = a487d333, WLAST = 0
[39715] WDATA = 1862db42, WLAST = 0
[39725] WDATA = 4862efec, WLAST = 0
[39735] WDATA = 9a39564c, WLAST = 1
[39745] BRESP = 00
[39765] ARADDR = 0e54, ARLEN = 13
[39785] RDATA = 599be0bf, RLAST = 0, RRESP = 00
[39805] RDATA = 348402d4, RLAST = 0, RRESP = 00
[39825] RDATA = 972b20e4, RLAST = 0, RRESP = 00
[39845] RDATA = 89ae6ef3, RLAST = 0, RRESP = 00
[39865] RDATA = 914b95fe, RLAST = 0, RRESP = 00
[39885] RDATA = 1ad2e29d, RLAST = 0, RRESP = 00
[39905] RDATA = b9d17a2e, RLAST = 0, RRESP = 00
[39925] RDATA = 3f5f8c47, RLAST = 0, RRESP = 00
[39945] RDATA = f348e65f, RLAST = 0, RRESP = 00
[39965] RDATA = 168c3ea3, RLAST = 0, RRESP = 00
[39985] RDATA = a487d333, RLAST = 0, RRESP = 00
[40005] RDATA = 1862db42, RLAST = 0, RRESP = 00
[40025] RDATA = 4862efec, RLAST = 0, RRESP = 00
[40045] RDATA = 9a39564c, RLAST = 1, RRESP = 00
[40065] ARADDR = 0660, ARLEN = 9
[40085] RDATA = 00000198, RLAST = 0, RRESP = 00
[40105] RDATA = 00000199, RLAST = 0, RRESP = 00
[40125] RDATA = 0000019a, RLAST = 0, RRESP = 00
[40145] RDATA = 0000019b, RLAST = 0, RRESP = 00
[40165] RDATA = 0000019c, RLAST = 0, RRESP = 00
[40185] RDATA = 0000019d, RLAST = 0, RRESP = 00
[40205] RDATA = 0000019e, RLAST = 0, RRESP = 00
[40225] RDATA = 0000019f, RLAST = 0, RRESP = 00
[40245] RDATA = 000001a0, RLAST = 0, RRESP = 00
[40265] RDATA = 000001a1, RLAST = 1, RRESP = 00
[40285] AWADDR = 019c, AWLEN = 2
[40305] WDATA = 1d004ab7, WLAST = 0
[40315] WDATA = a4df076e, WLAST = 0
[40325] WDATA = 98cce71b, WLAST = 1
[40335] BRESP = 00
[40355] ARADDR = 019c, ARLEN = 2
[40375] RDATA = ee71b249, RLAST = 0, RRESP = 00
[40395] RDATA = 88469b56, RLAST = 0, RRESP = 00
[40415] RDATA = a4b6376a, RLAST = 1, RRESP = 00
[40435] ARADDR = 0d84, ARLEN = 6
[40455] RDATA = 00000361, RLAST = 0, RRESP = 00
[40475] RDATA = 00000362, RLAST = 0, RRESP = 00
[40495] RDATA = 00000363, RLAST = 0, RRESP = 00
[40515] RDATA = 00000364, RLAST = 0, RRESP = 00
[40535] RDATA = 00000365, RLAST = 0, RRESP = 00
[40555] RDATA = 00000366, RLAST = 0, RRESP = 00
[40575] RDATA = 00000367, RLAST = 1, RRESP = 00
[40595] AWADDR = 00a4, AWLEN = 6
[40615] WDATA = 1c27a1de, WLAST = 0
[40625] WDATA = 198b7e66, WLAST = 0
[40635] WDATA = a76009c1, WLAST = 0
[40645] WDATA = 6d9fc9de, WLAST = 0
[40655] WDATA = 3773d66a, WLAST = 0
[40665] WDATA = 7ea8f3b0, WLAST = 0
[40675] WDATA = 09b2d6de, WLAST = 1
[40685] BRESP = 00
[40705] ARADDR = 00a4, ARLEN = 6
[40725] RDATA = 1c27a1de, RLAST = 0, RRESP = 00
[40745] RDATA = 198b7e66, RLAST = 0, RRESP = 00
[40765] RDATA = a76009c1, RLAST = 0, RRESP = 00
[40785] RDATA = 6d9fc9de, RLAST = 0, RRESP = 00
[40805] RDATA = 3773d66a, RLAST = 0, RRESP = 00
[40825] RDATA = 7ea8f3b0, RLAST = 0, RRESP = 00
[40845] RDATA = 09b2d6de, RLAST = 1, RRESP = 00
[40865] AWADDR = 04dc, AWLEN = 7
[40885] WDATA = 37b07b3a, WLAST = 0
[40895] WDATA = 42954919, WLAST = 0
[40905] WDATA = 52b8cc68, WLAST = 0
[40915] WDATA = 2fb44845, WLAST = 0
[40925] WDATA = 71f8af4b, WLAST = 0
[40935] WDATA = 6fe322a3, WLAST = 0
[40945] WDATA = a5573abf, WLAST = 0
[40955] WDATA = 1fc5b38d, WLAST = 1
[40965] BRESP = 00
[40985] ARADDR = 04dc, ARLEN = 7
[41005] RDATA = 37b07b3a, RLAST = 0, RRESP = 00
[41025] RDATA = 42954919, RLAST = 0, RRESP = 00
