[25] ARADDR = 0338, ARLEN = 6
[45] RDATA = 00000000, RLAST = 0, RRESP = 00
[65] RDATA = xxxxxxxx, RLAST = 0, RRESP = 00
[85] RDATA = xxxxxxxx, RLAST = 0, RRESP = 00
[105] RDATA = xxxxxxxx, RLAST = 0, RRESP = 00
[125] RDATA = xxxxxxxx, RLAST = 0, RRESP = 00
[145] RDATA = xxxxxxxx, RLAST = 0, RRESP = 00
[165] RDATA = xxxxxxxx, RLAST = 1, RRESP = 00
[185] AWADDR = 1004, AWLEN = 6
[205] WDATA = 536cdb51, WLAST = 0
[215] WDATA = 186e66d3, WLAST = 0
[225] WDATA = 61968fd2, WLAST = 0
[235] WDATA = 536bf2a0, WLAST = 0
[245] WDATA = 76d40342, WLAST = 0
[255] WDATA = f731fc33, WLAST = 0
[265] WDATA = 2a7dc54c, WLAST = 1
[275] BRESP = 10
[295] ARADDR = 1004, ARLEN = 6
[315] RDATA = xxxxxxxx, RLAST = 0, RRESP = 10
[335] RDATA = xxxxxxxx, RLAST = 0, RRESP = 10
[355] RDATA = xxxxxxxx, RLAST = 0, RRESP = 10
[375] RDATA = xxxxxxxx, RLAST = 0, RRESP = 10
[395] RDATA = xxxxxxxx, RLAST = 0, RRESP = 10
[415] RDATA = xxxxxxxx, RLAST = 0, RRESP = 10
[435] RDATA = xxxxxxxx, RLAST = 1, RRESP = 10
[455] ARADDR = 25d4, ARLEN = 15
[475] RDATA = xxxxxxxx, RLAST = 0, RRESP = 10
[495] RDATA = xxxxxxxx, RLAST = 0, RRESP = 10
[515] RDATA = xxxxxxxx, RLAST = 0, RRESP = 10
[535] RDATA = xxxxxxxx, RLAST = 0, RRESP = 10
[555] RDATA = xxxxxxxx, RLAST = 0, RRESP = 10
[575] RDATA = xxxxxxxx, RLAST = 0, RRESP = 10
[595] RDATA = xxxxxxxx, RLAST = 0, RRESP = 10
[615] RDATA = xxxxxxxx, RLAST = 0, RRESP = 10
[635] RDATA = xxxxxxxx, RLAST = 0, RRESP = 10
[655] RDATA = xxxxxxxx, RLAST = 0, RRESP = 10
[675] RDATA = xxxxxxxx, RLAST = 0, RRESP = 10
[695] RDATA = xxxxxxxx, RLAST = 0, RRESP = 10
[715] RDATA = xxxxxxxx, RLAST = 0, RRESP = 10
[735] RDATA = xxxxxxxx, RLAST = 0, RRESP = 10
[755] RDATA = xxxxxxxx, RLAST = 0, RRESP = 10
[775] RDATA = xxxxxxxx, RLAST = 1, RRESP = 10
[795] ARADDR = 2480, ARLEN = 8
[815] RDATA = xxxxxxxx, RLAST = 0, RRESP = 10
[835] RDATA = xxxxxxxx, RLAST = 0, RRESP = 10
[855] RDATA = xxxxxxxx, RLAST = 0, RRESP = 10
[875] RDATA = xxxxxxxx, RLAST = 0, RRESP = 10
[895] RDATA = xxxxxxxx, RLAST = 0, RRESP = 10
[915] RDATA = xxxxxxxx, RLAST = 0, RRESP = 10
[935] RDATA = xxxxxxxx, RLAST = 0, RRESP = 10
[955] RDATA = xxxxxxxx, RLAST = 0, RRESP = 10
[975] RDATA = xxxxxxxx, RLAST = 1, RRESP = 10
[995] ARADDR = 8f38, ARLEN = 13
[1015] RDATA = xxxxxxxx, RLAST = 0, RRESP = 10
[1035] RDATA = xxxxxxxx, RLAST = 0, RRESP = 10
[1055] RDATA = xxxxxxxx, RLAST = 0, RRESP = 10
[1075] RDATA = xxxxxxxx, RLAST = 0, RRESP = 10
[1095] RDATA = xxxxxxxx, RLAST = 0, RRESP = 10
[1115] RDATA = xxxxxxxx, RLAST = 0, RRESP = 10
[1135] RDATA = xxxxxxxx, RLAST = 0, RRESP = 10
[1155] RDATA = xxxxxxxx, RLAST = 0, RRESP = 10
[1175] RDATA = xxxxxxxx, RLAST = 0, RRESP = 10
[1195] RDATA = xxxxxxxx, RLAST = 0, RRESP = 10
[1215] RDATA = xxxxxxxx, RLAST = 0, RRESP = 10
[1235] RDATA = xxxxxxxx, RLAST = 0, RRESP = 10
[1255] RDATA = xxxxxxxx, RLAST = 0, RRESP = 10
[1275] RDATA = xxxxxxxx, RLAST = 1, RRESP = 10
[1295] ARADDR = b3e8, ARLEN = 14
[1315] RDATA = xxxxxxxx, RLAST = 0, RRESP = 10
[1335] RDATA = xxxxxxxx, RLAST = 0, RRESP = 10
[1355] RDATA = xxxxxxxx, RLAST = 0, RRESP = 10
[1375] RDATA = xxxxxxxx, RLAST = 0, RRESP = 10
[1395] RDATA = xxxxxxxx, RLAST = 0, RRESP = 10
[1415] RDATA = xxxxxxxx, RLAST = 0, RRESP = 10
[1435] RDATA = xxxxxxxx, RLAST = 0, RRESP = 10
[1455] RDATA = xxxxxxxx, RLAST = 0, RRESP = 10
[1475] RDATA = xxxxxxxx, RLAST = 0, RRESP = 10
[1495] RDATA = xxxxxxxx, RLAST = 0, RRESP = 10
[1515] RDATA = xxxxxxxx, RLAST = 0, RRESP = 10
[1535] RDATA = xxxxxxxx, RLAST = 0, RRESP = 10
[1555] RDATA = xxxxxxxx, RLAST = 0, RRESP = 10
[1575] RDATA = xxxxxxxx, RLAST = 0, RRESP = 10
[1595] RDATA = xxxxxxxx, RLAST = 1, RRESP = 10
[1615] ARADDR = 9a78, ARLEN = 13
[1635] RDATA = xxxxxxxx, RLAST = 0, RRESP = 10
[1655] RDATA = xxxxxxxx, RLAST = 0, RRESP = 10
[1675] RDATA = xxxxxxxx, RLAST = 0, RRESP = 10
[1695] RDATA = xxxxxxxx, RLAST = 0, RRESP = 10
[1715] RDATA = xxxxxxxx, RLAST = 0, RRESP = 10
[1735] RDATA = xxxxxxxx, RLAST = 0, RRESP = 10
[1755] RDATA = xxxxxxxx, RLAST = 0, RRESP = 10
[1775] RDATA = xxxxxxxx, RLAST = 0, RRESP = 10
[1795] RDATA = xxxxxxxx, RLAST = 0, RRESP = 10
[1815] RDATA = xxxxxxxx, RLAST = 0, RRESP = 10
[1835] RDATA = xxxxxxxx, RLAST = 0, RRESP = 10
[1855] RDATA = xxxxxxxx, RLAST = 0, RRESP = 10
[1875] RDATA = xxxxxxxx, RLAST = 0, RRESP = 10
[1895] RDATA = xxxxxxxx, RLAST = 1, RRESP = 10
[1915] AWADDR = 3438, AWLEN = 3
[1935] WDATA = da0749bb, WLAST = 0
[1945] WDATA = 607a5854, WLAST = 0
[1955] WDATA = 59da0bef, WLAST = 0
[1965] WDATA = 7a518c92, WLAST = 1
[1975] BRESP = 10
[1995] ARADDR = 3438, ARLEN = 3
[2015] RDATA = xxxxxxxx, RLAST = 0, RRESP = 10
[2035] RDATA = xxxxxxxx, RLAST = 0, RRESP = 10
[2055] RDATA = xxxxxxxx, RLAST = 0, RRESP = 10
[2075] RDATA = xxxxxxxx, RLAST = 1, RRESP = 10
[2095] ARADDR = ac70, ARLEN = 9
[2115] RDATA = xxxxxxxx, RLAST = 0, RRESP = 10
[2135] RDATA = xxxxxxxx, RLAST = 0, RRESP = 10
[2155] RDATA = xxxxxxxx, RLAST = 0, RRESP = 10
[2175] RDATA = xxxxxxxx, RLAST = 0, RRESP = 10
[2195] RDATA = xxxxxxxx, RLAST = 0, RRESP = 10
[2215] RDATA = xxxxxxxx, RLAST = 0, RRESP = 10
[2235] RDATA = xxxxxxxx, RLAST = 0, RRESP = 10
[2255] RDATA = xxxxxxxx, RLAST = 0, RRESP = 10
[2275] RDATA = xxxxxxxx, RLAST = 0, RRESP = 10
[2295] RDATA = xxxxxxxx, RLAST = 1, RRESP = 10
[2315] AWADDR = c3bc, AWLEN = 10
[2335] WDATA = f37ab271, WLAST = 0
[2345] WDATA = 7676c92f, WLAST = 0
[2355] WDATA = 8fc41d5f, WLAST = 0
[2365] WDATA = 74f90a92, WLAST = 0
[2375] WDATA = 0abc4c48, WLAST = 0
[2385] WDATA = cf24e577, WLAST = 0
[2395] WDATA = 2737228a, WLAST = 0
[2405] WDATA = 35ecbe85, WLAST = 0
[2415] WDATA = 80f2578b, WLAST = 0
[2425] WDATA = c1ce6b37, WLAST = 0
[2435] WDATA = 57cca4c9, WLAST = 1
[2445] BRESP = 10
[2465] ARADDR = c3bc, ARLEN = 10
[2485] RDATA = xxxxxxxx, RLAST = 0, RRESP = 10
[2505] RDATA = xxxxxxxx, RLAST = 0, RRESP = 10
[2525] RDATA = xxxxxxxx, RLAST = 0, RRESP = 10
[2545] RDATA = xxxxxxxx, RLAST = 0, RRESP = 10
[2565] RDATA = xxxxxxxx, RLAST = 0, RRESP = 10
[2585] RDATA = xxxxxxxx, RLAST = 0, RRESP = 10
[2605] RDATA = xxxxxxxx, RLAST = 0, RRESP = 10
[2625] RDATA = xxxxxxxx, RLAST = 0, RRESP = 10
[2645] RDATA = xxxxxxxx, RLAST = 0, RRESP = 10
[2665] RDATA = xxxxxxxx, RLAST = 0, RRESP = 10
[2685] RDATA = xxxxxxxx, RLAST = 1, RRESP = 10
[2705] ARADDR = ea30, ARLEN = 12
[2725] RDATA = xxxxxxxx, RLAST = 0, RRESP = 10
[2745] RDATA = xxxxxxxx, RLAST = 0, RRESP = 10
[2765] RDATA = xxxxxxxx, RLAST = 0, RRESP = 10
[2785] RDATA = xxxxxxxx, RLAST = 0, RRESP = 10
[2805] RDATA = xxxxxxxx, RLAST = 0, RRESP = 10
[2825] RDATA = xxxxxxxx, RLAST = 0, RRESP = 10
[2845] RDATA = xxxxxxxx, RLAST = 0, RRESP = 10
[2865] RDATA = xxxxxxxx, RLAST = 0, RRESP = 10
[2885] RDATA = xxxxxxxx, RLAST = 0, RRESP = 10
[2905] RDATA = xxxxxxxx, RLAST = 0, RRESP = 10
[2925] RDATA = xxxxxxxx, RLAST = 0, RRESP = 10
[2945] RDATA = xxxxxxxx, RLAST = 0, RRESP = 10
[2965] RDATA = xxxxxxxx, RLAST = 1, RRESP = 10
[2985] AWADDR = 0c34, AWLEN = 1
[3005] WDATA = 538923c5, WLAST = 0
[3015] WDATA = 684d2b2a, WLAST = 1
[3025] BRESP = 00
[3045] ARADDR = 0c34, ARLEN = 1
[3065] RDATA = xxxxxxxx, RLAST = 0, RRESP = 00
[3085] RDATA = xxxxxxxx, RLAST = 1, RRESP = 00
[3105] ARADDR = 39c8, ARLEN = 10
[3125] RDATA = xxxxxxxx, RLAST = 0, RRESP = 10
[3145] RDATA = xxxxxxxx, RLAST = 0, RRESP = 10
[3165] RDATA = xxxxxxxx, RLAST = 0, RRESP = 10
[3185] RDATA = xxxxxxxx, RLAST = 0, RRESP = 10
[3205] RDATA = xxxxxxxx, RLAST = 0, RRESP = 10
[3225] RDATA = xxxxxxxx, RLAST = 0, RRESP = 10
[3245] RDATA = xxxxxxxx, RLAST = 0, RRESP = 10
[3265] RDATA = xxxxxxxx, RLAST = 0, RRESP = 10
[3285] RDATA = xxxxxxxx, RLAST = 0, RRESP = 10
[3305] RDATA = xxxxxxxx, RLAST = 0, RRESP = 10
[3325] RDATA = xxxxxxxx, RLAST = 1, RRESP = 10
[3345] ARADDR = bdb0, ARLEN = 8
[3365] RDATA = xxxxxxxx, RLAST = 0, RRESP = 10
[3385] RDATA = xxxxxxxx, RLAST = 0, RRESP = 10
[3405] RDATA = xxxxxxxx, RLAST = 0, RRESP = 10
[3425] RDATA = xxxxxxxx, RLAST = 0, RRESP = 10
[3445] RDATA = xxxxxxxx, RLAST = 0, RRESP = 10
[3465] RDATA = xxxxxxxx, RLAST = 0, RRESP = 10
[3485] RDATA = xxxxxxxx, RLAST = 0, RRESP = 10
[3505] RDATA = xxxxxxxx, RLAST = 0, RRESP = 10
[3525] RDATA = xxxxxxxx, RLAST = 1, RRESP = 10
[3545] AWADDR = 5fac, AWLEN = 9
[3565] WDATA = 121e2511, WLAST = 0
[3575] WDATA = 7c8115ab, WLAST = 0
[3585] WDATA = 299df067, WLAST = 0
[3595] WDATA = e8942f70, WLAST = 0
[3605] WDATA = 54ed2ef6, WLAST = 0
[3615] WDATA = 87339d6d, WLAST = 0
[3625] WDATA = ea455fac, WLAST = 0
[3635] WDATA = ea108187, WLAST = 0
[3645] WDATA = 64688849, WLAST = 0
[3655] WDATA = 7da76e9a, WLAST = 1
[3665] BRESP = 10
[3685] ARADDR = 5fac, ARLEN = 9
[3705] RDATA = xxxxxxxx, RLAST = 0, RRESP = 10
[3725] RDATA = xxxxxxxx, RLAST = 0, RRESP = 10
[3745] RDATA = xxxxxxxx, RLAST = 0, RRESP = 10
[3765] RDATA = xxxxxxxx, RLAST = 0, RRESP = 10
[3785] RDATA = xxxxxxxx, RLAST = 0, RRESP = 10
[3805] RDATA = xxxxxxxx, RLAST = 0, RRESP = 10
[3825] RDATA = xxxxxxxx, RLAST = 0, RRESP = 10
[3845] RDATA = xxxxxxxx, RLAST = 0, RRESP = 10
[3865] RDATA = xxxxxxxx, RLAST = 0, RRESP = 10
[3885] RDATA = xxxxxxxx, RLAST = 1, RRESP = 10
[3905] ARADDR = 5430, ARLEN = 4
[3925] RDATA = xxxxxxxx, RLAST = 0, RRESP = 10
[3945] RDATA = xxxxxxxx, RLAST = 0, RRESP = 10
[3965] RDATA = xxxxxxxx, RLAST = 0, RRESP = 10
[3985] RDATA = xxxxxxxx, RLAST = 0, RRESP = 10
[4005] RDATA = xxxxxxxx, RLAST = 1, RRESP = 10
[4025] ARADDR = 2cf4, ARLEN = 14
[4045] RDATA = xxxxxxxx, RLAST = 0, RRESP = 10
[4065] RDATA = xxxxxxxx, RLAST = 0, RRESP = 10
[4085] RDATA = xxxxxxxx, RLAST = 0, RRESP = 10
[4105] RDATA = xxxxxxxx, RLAST = 0, RRESP = 10
[4125] RDATA = xxxxxxxx, RLAST = 0, RRESP = 10
[4145] RDATA = xxxxxxxx, RLAST = 0, RRESP = 10
[4165] RDATA = xxxxxxxx, RLAST = 0, RRESP = 10
[4185] RDATA = xxxxxxxx, RLAST = 0, RRESP = 10
[4205] RDATA = xxxxxxxx, RLAST = 0, RRESP = 10
[4225] RDATA = xxxxxxxx, RLAST = 0, RRESP = 10
[4245] RDATA = xxxxxxxx, RLAST = 0, RRESP = 10
[4265] RDATA = xxxxxxxx, RLAST = 0, RRESP = 10
[4285] RDATA = xxxxxxxx, RLAST = 0, RRESP = 10
[4305] RDATA = xxxxxxxx, RLAST = 0, RRESP = 10
[4325] RDATA = xxxxxxxx, RLAST = 1, RRESP = 10
[4345] AWADDR = c478, AWLEN = 14
[4365] WDATA = c1698986, WLAST = 0
[4375] WDATA = d1a0e9c7, WLAST = 0
[4385] WDATA = 5eaa6316, WLAST = 0
[4395] WDATA = d064af1c, WLAST = 0
[4405] WDATA = b8a577e0, WLAST = 0
[4415] WDATA = 1d2a48c0, WLAST = 0
[4425] WDATA = e9a5e084, WLAST = 0
[4435] WDATA = dc451cb8, WLAST = 0
[4445] WDATA = a76cfc12, WLAST = 0
[4455] WDATA = 004d2f0e, WLAST = 0
[4465] WDATA = 7d04ec1e, WLAST = 0
[4475] WDATA = 6d0afe29, WLAST = 0
[4485] WDATA = 620c32b9, WLAST = 0
[4495] WDATA = 24ff0f82, WLAST = 0
[4505] WDATA = 64d9c4cc, WLAST = 1
[4515] BRESP = 10
[4535] ARADDR = c478, ARLEN = 14
[4555] RDATA = xxxxxxxx, RLAST = 0, RRESP = 10
[4575] RDATA = xxxxxxxx, RLAST = 0, RRESP = 10
[4595] RDATA = xxxxxxxx, RLAST = 0, RRESP = 10
[4615] RDATA = xxxxxxxx, RLAST = 0, RRESP = 10
[4635] RDATA = xxxxxxxx, RLAST = 0, RRESP = 10
[4655] RDATA = xxxxxxxx, RLAST = 0, RRESP = 10
[4675] RDATA = xxxxxxxx, RLAST = 0, RRESP = 10
[4695] RDATA = xxxxxxxx, RLAST = 0, RRESP = 10
[4715] RDATA = xxxxxxxx, RLAST = 0, RRESP = 10
[4735] RDATA = xxxxxxxx, RLAST = 0, RRESP = 10
[4755] RDATA = xxxxxxxx, RLAST = 0, RRESP = 10
[4775] RDATA = xxxxxxxx, RLAST = 0, RRESP = 10
[4795] RDATA = xxxxxxxx, RLAST = 0, RRESP = 10
[4815] RDATA = xxxxxxxx, RLAST = 0, RRESP = 10
[4835] RDATA = xxxxxxxx, RLAST = 1, RRESP = 10
[4855] ARADDR = 9e9c, ARLEN = 3
[4875] RDATA = xxxxxxxx, RLAST = 0, RRESP = 10
[4895] RDATA = xxxxxxxx, RLAST = 0, RRESP = 10
[4915] RDATA = xxxxxxxx, RLAST = 0, RRESP = 10
[4935] RDATA = xxxxxxxx, RLAST = 1, RRESP = 10
[4955] ARADDR = 8ca4, ARLEN = 6
[4975] RDATA = xxxxxxxx, RLAST = 0, RRESP = 10
[4995] RDATA = xxxxxxxx, RLAST = 0, RRESP = 10
[5015] RDATA = xxxxxxxx, RLAST = 0, RRESP = 10
[5035] RDATA = xxxxxxxx, RLAST = 0, RRESP = 10
[5055] RDATA = xxxxxxxx, RLAST = 0, RRESP = 10
[5075] RDATA = xxxxxxxx, RLAST = 0, RRESP = 10
[5095] RDATA = xxxxxxxx, RLAST = 1, RRESP = 10
[5115] ARADDR = 6e90, ARLEN = 11
[5135] RDATA = xxxxxxxx, RLAST = 0, RRESP = 10
[5155] RDATA = xxxxxxxx, RLAST = 0, RRESP = 10
[5175] RDATA = xxxxxxxx, RLAST = 0, RRESP = 10
[5195] RDATA = xxxxxxxx, RLAST = 0, RRESP = 10
[5215] RDATA = xxxxxxxx, RLAST = 0, RRESP = 10
[5235] RDATA = xxxxxxxx, RLAST = 0, RRESP = 10
[5255] RDATA = xxxxxxxx, RLAST = 0, RRESP = 10
[5275] RDATA = xxxxxxxx, RLAST = 0, RRESP = 10
[5295] RDATA = xxxxxxxx, RLAST = 0, RRESP = 10
[5315] RDATA = xxxxxxxx, RLAST = 0, RRESP = 10
[5335] RDATA = xxxxxxxx, RLAST = 0, RRESP = 10
[5355] RDATA = xxxxxxxx, RLAST = 1, RRESP = 10
[5375] AWADDR = 3cf4, AWLEN = 13
[5395] WDATA = ab06cd4f, WLAST = 0
[5405] WDATA = 8d5db9ed, WLAST = 0
[5415] WDATA = 859a0f0e, WLAST = 0
[5425] WDATA = ef156ff5, WLAST = 0
[5435] WDATA = 4059e16f, WLAST = 0
[5445] WDATA = f962e7d4, WLAST = 0
[5455] WDATA = 6b289132, WLAST = 0
[5465] WDATA = 66603c3e, WLAST = 0
[5475] WDATA = a878807a, WLAST = 0
[5485] WDATA = 783b1785, WLAST = 0
[5495] WDATA = 35731634, WLAST = 0
[5505] WDATA = 933a42b6, WLAST = 0
[5515] WDATA = 5e57d5f3, WLAST = 0
[5525] WDATA = 11e19260, WLAST = 1
[5535] BRESP = 10
[5555] ARADDR = 3cf4, ARLEN = 13
[5575] RDATA = xxxxxxxx, RLAST = 0, RRESP = 10
[5595] RDATA = xxxxxxxx, RLAST = 0, RRESP = 10
[5615] RDATA = xxxxxxxx, RLAST = 0, RRESP = 10
[5635] RDATA = xxxxxxxx, RLAST = 0, RRESP = 10
[5655] RDATA = xxxxxxxx, RLAST = 0, RRESP = 10
[5675] RDATA = xxxxxxxx, RLAST = 0, RRESP = 10
[5695] RDATA = xxxxxxxx, RLAST = 0, RRESP = 10
[5715] RDATA = xxxxxxxx, RLAST = 0, RRESP = 10
[5735] RDATA = xxxxxxxx, RLAST = 0, RRESP = 10
[5755] RDATA = xxxxxxxx, RLAST = 0, RRESP = 10
[5775] RDATA = xxxxxxxx, RLAST = 0, RRESP = 10
[5795] RDATA = xxxxxxxx, RLAST = 0, RRESP = 10
[5815] RDATA = xxxxxxxx, RLAST = 0, RRESP = 10
[5835] RDATA = xxxxxxxx, RLAST = 1, RRESP = 10
[5855] AWADDR = ac7c, AWLEN = 7
[5875] WDATA = e1fa37ea, WLAST = 0
[5885] WDATA = 7bc16335, WLAST = 0
[5895] WDATA = c988d3ff, WLAST = 0
[5905] WDATA = d025312e, WLAST = 0
[5915] WDATA = 38f826e9, WLAST = 0
[5925] WDATA = 5d2197ad, WLAST = 0
[5935] WDATA = c7a46587, WLAST = 0
[5945] WDATA = 88eb32d5, WLAST = 1
[5955] BRESP = 10
[5975] ARADDR = ac7c, ARLEN = 7
[5995] RDATA = xxxxxxxx, RLAST = 0, RRESP = 10
[6015] RDATA = xxxxxxxx, RLAST = 0, RRESP = 10
[6035] RDATA = xxxxxxxx, RLAST = 0, RRESP = 10
[6055] RDATA = xxxxxxxx, RLAST = 0, RRESP = 10
[6075] RDATA = xxxxxxxx, RLAST = 0, RRESP = 10
[6095] RDATA = xxxxxxxx, RLAST = 0, RRESP = 10
[6115] RDATA = xxxxxxxx, RLAST = 0, RRESP = 10
[6135] RDATA = xxxxxxxx, RLAST = 1, RRESP = 10
[6155] AWADDR = cb0c, AWLEN = 15
[6175] WDATA = 557d9bbf, WLAST = 0
[6185] WDATA = cdc4739b, WLAST = 0
[6195] WDATA = c4941b31, WLAST = 0
[6205] WDATA = c7dfe04c, WLAST = 0
[6215] WDATA = ae6af445, WLAST = 0
[6225] WDATA = 0ae46c88, WLAST = 0
[6235] WDATA = 23890aa1, WLAST = 0
[6245] WDATA = efec1c1d, WLAST = 0
[6255] WDATA = f57d8ca5, WLAST = 0
[6265] WDATA = 10316194, WLAST = 0
[6275] WDATA = 78773374, WLAST = 0
[6285] WDATA = 1e1b947e, WLAST = 0
[6295] WDATA = a69088d2, WLAST = 0
[6305] WDATA = 590aabba, WLAST = 0
[6315] WDATA = c6a79f1a, WLAST = 0
[6325] WDATA = 6b6d7405, WLAST = 1
[6335] BRESP = 10
[6355] ARADDR = cb0c, ARLEN = 15
[6375] RDATA = xxxxxxxx, RLAST = 0, RRESP = 10
[6395] RDATA = xxxxxxxx, RLAST = 0, RRESP = 10
[6415] RDATA = xxxxxxxx, RLAST = 0, RRESP = 10
[6435] RDATA = xxxxxxxx, RLAST = 0, RRESP = 10
[6455] RDATA = xxxxxxxx, RLAST = 0, RRESP = 10
[6475] RDATA = xxxxxxxx, RLAST = 0, RRESP = 10
[6495] RDATA = xxxxxxxx, RLAST = 0, RRESP = 10
[6515] RDATA = xxxxxxxx, RLAST = 0, RRESP = 10
[6535] RDATA = xxxxxxxx, RLAST = 0, RRESP = 10
[6555] RDATA = xxxxxxxx, RLAST = 0, RRESP = 10
[6575] RDATA = xxxxxxxx, RLAST = 0, RRESP = 10
[6595] RDATA = xxxxxxxx, RLAST = 0, RRESP = 10
[6615] RDATA = xxxxxxxx, RLAST = 0, RRESP = 10
[6635] RDATA = xxxxxxxx, RLAST = 0, RRESP = 10
[6655] RDATA = xxxxxxxx, RLAST = 0, RRESP = 10
[6675] RDATA = xxxxxxxx, RLAST = 1, RRESP = 10
[6695] AWADDR = 56f0, AWLEN = 13
[6715] WDATA = 616d7b91, WLAST = 0
[6725] WDATA = 5a1eb794, WLAST = 0
[6735] WDATA = 88dec535, WLAST = 0
[6745] WDATA = bb175102, WLAST = 0
[6755] WDATA = 5df41fde, WLAST = 0
[6765] WDATA = 9404c836, WLAST = 0
[6775] WDATA = c65d7e39, WLAST = 0
[6785] WDATA = 2bd19f5c, WLAST = 0
[6795] WDATA = 81107ce4, WLAST = 0
[6805] WDATA = 1b968aca, WLAST = 0
[6815] WDATA = cd7881d9, WLAST = 0
[6825] WDATA = cdf3366b, WLAST = 0
[6835] WDATA = 9e15f151, WLAST = 0
[6845] WDATA = 69d4a90f, WLAST = 1
[6855] BRESP = 10
[6875] ARADDR = 56f0, ARLEN = 13
[6895] RDATA = xxxxxxxx, RLAST = 0, RRESP = 10
[6915] RDATA = xxxxxxxx, RLAST = 0, RRESP = 10
[6935] RDATA = xxxxxxxx, RLAST = 0, RRESP = 10
[6955] RDATA = xxxxxxxx, RLAST = 0, RRESP = 10
[6975] RDATA = xxxxxxxx, RLAST = 0, RRESP = 10
[6995] RDATA = xxxxxxxx, RLAST = 0, RRESP = 10
[7015] RDATA = xxxxxxxx, RLAST = 0, RRESP = 10
[7035] RDATA = xxxxxxxx, RLAST = 0, RRESP = 10
[7055] RDATA = xxxxxxxx, RLAST = 0, RRESP = 10
[7075] RDATA = xxxxxxxx, RLAST = 0, RRESP = 10
[7095] RDATA = xxxxxxxx, RLAST = 0, RRESP = 10
[7115] RDATA = xxxxxxxx, RLAST = 0, RRESP = 10
[7135] RDATA = xxxxxxxx, RLAST = 0, RRESP = 10
[7155] RDATA = xxxxxxxx, RLAST = 1, RRESP = 10
[7175] AWADDR = d3e0, AWLEN = 10
[7195] WDATA = 80125c44, WLAST = 0
[7205] WDATA = a9d5e67b, WLAST = 0
[7215] WDATA = f9868d2d, WLAST = 0
[7225] WDATA = 45ac0489, WLAST = 0
[7235] WDATA = 6a9574e8, WLAST = 0
[7245] WDATA = eeb876fa, WLAST = 0
[7255] WDATA = d79bc853, WLAST = 0
[7265] WDATA = 2dc29e1f, WLAST = 0
[7275] WDATA = c0322177, WLAST = 0
[7285] WDATA = 9bc85e7c, WLAST = 0
[7295] WDATA = 2eb72eea, WLAST = 1
[7305] BRESP = 10
[7325] ARADDR = d3e0, ARLEN = 10
[7345] RDATA = xxxxxxxx, RLAST = 0, RRESP = 10
[7365] RDATA = xxxxxxxx, RLAST = 0, RRESP = 10
[7385] RDATA = xxxxxxxx, RLAST = 0, RRESP = 10
[7405] RDATA = xxxxxxxx, RLAST = 0, RRESP = 10
[7425] RDATA = xxxxxxxx, RLAST = 0, RRESP = 10
[7445] RDATA = xxxxxxxx, RLAST = 0, RRESP = 10
[7465] RDATA = xxxxxxxx, RLAST = 0, RRESP = 10
[7485] RDATA = xxxxxxxx, RLAST = 0, RRESP = 10
[7505] RDATA = xxxxxxxx, RLAST = 0, RRESP = 10
[7525] RDATA = xxxxxxxx, RLAST = 0, RRESP = 10
[7545] RDATA = xxxxxxxx, RLAST = 1, RRESP = 10
[7565] ARADDR = a828, ARLEN = 6
[7585] RDATA = xxxxxxxx, RLAST = 0, RRESP = 10
[7605] RDATA = xxxxxxxx, RLAST = 0, RRESP = 10
[7625] RDATA = xxxxxxxx, RLAST = 0, RRESP = 10
[7645] RDATA = xxxxxxxx, RLAST = 0, RRESP = 10
[7665] RDATA = xxxxxxxx, RLAST = 0, RRESP = 10
[7685] RDATA = xxxxxxxx, RLAST = 0, RRESP = 10
[7705] RDATA = xxxxxxxx, RLAST = 1, RRESP = 10
[7725] AWADDR = df4c, AWLEN = 12
[7745] WDATA = 6aaa258f, WLAST = 0
[7755] WDATA = 0d6f0f16, WLAST = 0
[7765] WDATA = ba69190f, WLAST = 0
[7775] WDATA = 9b22ac42, WLAST = 0
[7785] WDATA = 483c9445, WLAST = 0
[7795] WDATA = 8074159c, WLAST = 0
[7805] WDATA = 00111143, WLAST = 0
[7815] WDATA = b7b08c56, WLAST = 0
[7825] WDATA = 97b6d892, WLAST = 0
[7835] WDATA = cf897bba, WLAST = 0
[7845] WDATA = feeed971, WLAST = 0
[7855] WDATA = 454a6765, WLAST = 0
[7865] WDATA = 5a69588c, WLAST = 1
[7875] BRESP = 10
[7895] ARADDR = df4c, ARLEN = 12
[7915] RDATA = xxxxxxxx, RLAST = 0, RRESP = 10
[7935] RDATA = xxxxxxxx, RLAST = 0, RRESP = 10
[7955] RDATA = xxxxxxxx, RLAST = 0, RRESP = 10
[7975] RDATA = xxxxxxxx, RLAST = 0, RRESP = 10
[7995] RDATA = xxxxxxxx, RLAST = 0, RRESP = 10
[8015] RDATA = xxxxxxxx, RLAST = 0, RRESP = 10
[8035] RDATA = xxxxxxxx, RLAST = 0, RRESP = 10
[8055] RDATA = xxxxxxxx, RLAST = 0, RRESP = 10
[8075] RDATA = xxxxxxxx, RLAST = 0, RRESP = 10
[8095] RDATA = xxxxxxxx, RLAST = 0, RRESP = 10
[8115] RDATA = xxxxxxxx, RLAST = 0, RRESP = 10
[8135] RDATA = xxxxxxxx, RLAST = 0, RRESP = 10
[8155] RDATA = xxxxxxxx, RLAST = 1, RRESP = 10
[8175] AWADDR = 1788, AWLEN = 2
[8195] WDATA = 152a72e3, WLAST = 0
[8205] WDATA = 3c544b5c, WLAST = 0
[8215] WDATA = 0447c912, WLAST = 1
[8225] BRESP = 10
[8245] ARADDR = 1788, ARLEN = 2
[8265] RDATA = xxxxxxxx, RLAST = 0, RRESP = 10
[8285] RDATA = xxxxxxxx, RLAST = 0, RRESP = 10
[8305] RDATA = xxxxxxxx, RLAST = 1, RRESP = 10
[8325] ARADDR = 06c8, ARLEN = 2
[8345] RDATA = xxxxxxxx, RLAST = 0, RRESP = 00
[8365] RDATA = xxxxxxxx, RLAST = 0, RRESP = 00
[8385] RDATA = xxxxxxxx, RLAST = 1, RRESP = 00
[8405] AWADDR = ead4, AWLEN = 10
[8425] WDATA = ef4ef672, WLAST = 0
[8435] WDATA = 574a6e3b, WLAST = 0
[8445] WDATA = e7284f80, WLAST = 0
[8455] WDATA = b01d00a8, WLAST = 0
[8465] WDATA = c07d87cd, WLAST = 0
[8475] WDATA = 5a7ae703, WLAST = 0
[8485] WDATA = 4490105d, WLAST = 0
[8495] WDATA = 2ee0bd10, WLAST = 0
[8505] WDATA = 88f44baf, WLAST = 0
[8515] WDATA = 667ae54a, WLAST = 0
[8525] WDATA = d22be68e, WLAST = 1
[8535] BRESP = 10
[8555] ARADDR = ead4, ARLEN = 10
[8575] RDATA = xxxxxxxx, RLAST = 0, RRESP = 10
[8595] RDATA = xxxxxxxx, RLAST = 0, RRESP = 10
[8615] RDATA = xxxxxxxx, RLAST = 0, RRESP = 10
[8635] RDATA = xxxxxxxx, RLAST = 0, RRESP = 10
[8655] RDATA = xxxxxxxx, RLAST = 0, RRESP = 10
[8675] RDATA = xxxxxxxx, RLAST = 0, RRESP = 10
[8695] RDATA = xxxxxxxx, RLAST = 0, RRESP = 10
[8715] RDATA = xxxxxxxx, RLAST = 0, RRESP = 10
[8735] RDATA = xxxxxxxx, RLAST = 0, RRESP = 10
[8755] RDATA = xxxxxxxx, RLAST = 0, RRESP = 10
[8775] RDATA = xxxxxxxx, RLAST = 1, RRESP = 10
[8795] ARADDR = d3e8, ARLEN = 5
[8815] RDATA = xxxxxxxx, RLAST = 0, RRESP = 10
[8835] RDATA = xxxxxxxx, RLAST = 0, RRESP = 10
[8855] RDATA = xxxxxxxx, RLAST = 0, RRESP = 10
[8875] RDATA = xxxxxxxx, RLAST = 0, RRESP = 10
[8895] RDATA = xxxxxxxx, RLAST = 0, RRESP = 10
[8915] RDATA = xxxxxxxx, RLAST = 1, RRESP = 10
[8935] ARADDR = 43b0, ARLEN = 5
[8955] RDATA = xxxxxxxx, RLAST = 0, RRESP = 10
[8975] RDATA = xxxxxxxx, RLAST = 0, RRESP = 10
[8995] RDATA = xxxxxxxx, RLAST = 0, RRESP = 10
[9015] RDATA = xxxxxxxx, RLAST = 0, RRESP = 10
[9035] RDATA = xxxxxxxx, RLAST = 0, RRESP = 10
[9055] RDATA = xxxxxxxx, RLAST = 1, RRESP = 10
[9075] ARADDR = d1f8, ARLEN = 2
[9095] RDATA = xxxxxxxx, RLAST = 0, RRESP = 10
[9115] RDATA = xxxxxxxx, RLAST = 0, RRESP = 10
[9135] RDATA = xxxxxxxx, RLAST = 1, RRESP = 10
[9155] ARADDR = 5b04, ARLEN = 6
[9175] RDATA = xxxxxxxx, RLAST = 0, RRESP = 10
[9195] RDATA = xxxxxxxx, RLAST = 0, RRESP = 10
[9215] RDATA = xxxxxxxx, RLAST = 0, RRESP = 10
[9235] RDATA = xxxxxxxx, RLAST = 0, RRESP = 10
[9255] RDATA = xxxxxxxx, RLAST = 0, RRESP = 10
[9275] RDATA = xxxxxxxx, RLAST = 0, RRESP = 10
[9295] RDATA = xxxxxxxx, RLAST = 1, RRESP = 10
[9315] AWADDR = fe94, AWLEN = 8
[9335] WDATA = 924c2437, WLAST = 0
[9345] WDATA = 74089a5e, WLAST = 0
[9355] WDATA = d10a7054, WLAST = 0
[9365] WDATA = 81be10f9, WLAST = 0
[9375] WDATA = 3e61c344, WLAST = 0
[9385] WDATA = 097fe346, WLAST = 0
[9395] WDATA = e6c63d79, WLAST = 0
[9405] WDATA = 10df8b83, WLAST = 0
[9415] WDATA = 8ea0e5a7, WLAST = 1
[9425] BRESP = 10
[9445] ARADDR = fe94, ARLEN = 8
[9465] RDATA = xxxxxxxx, RLAST = 0, RRESP = 10
[9485] RDATA = xxxxxxxx, RLAST = 0, RRESP = 10
[9505] RDATA = xxxxxxxx, RLAST = 0, RRESP = 10
[9525] RDATA = xxxxxxxx, RLAST = 0, RRESP = 10
[9545] RDATA = xxxxxxxx, RLAST = 0, RRESP = 10
[9565] RDATA = xxxxxxxx, RLAST = 0, RRESP = 10
[9585] RDATA = xxxxxxxx, RLAST = 0, RRESP = 10
[9605] RDATA = xxxxxxxx, RLAST = 0, RRESP = 10
[9625] RDATA = xxxxxxxx, RLAST = 1, RRESP = 10
[9645] ARADDR = f1e4, ARLEN = 9
[9665] RDATA = xxxxxxxx, RLAST = 0, RRESP = 10
[9685] RDATA = xxxxxxxx, RLAST = 0, RRESP = 10
[9705] RDATA = xxxxxxxx, RLAST = 0, RRESP = 10
[9725] RDATA = xxxxxxxx, RLAST = 0, RRESP = 10
[9745] RDATA = xxxxxxxx, RLAST = 0, RRESP = 10
[9765] RDATA = xxxxxxxx, RLAST = 0, RRESP = 10
[9785] RDATA = xxxxxxxx, RLAST = 0, RRESP = 10
[9805] RDATA = xxxxxxxx, RLAST = 0, RRESP = 10
[9825] RDATA = xxxxxxxx, RLAST = 0, RRESP = 10
[9845] RDATA = xxxxxxxx, RLAST = 1, RRESP = 10
[9865] AWADDR = 4a9c, AWLEN = 12
[9885] WDATA = a6226536, WLAST = 0
[9895] WDATA = de9e97d3, WLAST = 0
[9905] WDATA = 5807828e, WLAST = 0
[9915] WDATA = 8d8b3854, WLAST = 0
[9925] WDATA = bd42e1e5, WLAST = 0
[9935] WDATA = bec981e7, WLAST = 0
[9945] WDATA = cff9e4e5, WLAST = 0
[9955] WDATA = 51cfe79e, WLAST = 0
[9965] WDATA = e849053c, WLAST = 0
[9975] WDATA = e9ee75a8, WLAST = 0
[9985] WDATA = 5779b832, WLAST = 0
[9995] WDATA = 7ad2971b, WLAST = 0
[10005] WDATA = f71fff4f, WLAST = 1
[10015] BRESP = 10
[10035] ARADDR = 4a9c, ARLEN = 12
[10055] RDATA = xxxxxxxx, RLAST = 0, RRESP = 10
[10075] RDATA = xxxxxxxx, RLAST = 0, RRESP = 10
[10095] RDATA = xxxxxxxx, RLAST = 0, RRESP = 10
[10115] RDATA = xxxxxxxx, RLAST = 0, RRESP = 10
[10135] RDATA = xxxxxxxx, RLAST = 0, RRESP = 10
[10155] RDATA = xxxxxxxx, RLAST = 0, RRESP = 10
[10175] RDATA = xxxxxxxx, RLAST = 0, RRESP = 10
[10195] RDATA = xxxxxxxx, RLAST = 0, RRESP = 10
[10215] RDATA = xxxxxxxx, RLAST = 0, RRESP = 10
[10235] RDATA = xxxxxxxx, RLAST = 0, RRESP = 10
[10255] RDATA = xxxxxxxx, RLAST = 0, RRESP = 10
[10275] RDATA = xxxxxxxx, RLAST = 0, RRESP = 10
[10295] RDATA = xxxxxxxx, RLAST = 1, RRESP = 10
[10315] AWADDR = 5174, AWLEN = 8
[10335] WDATA = 15728188, WLAST = 0
[10345] WDATA = 7a262173, WLAST = 0
[10355] WDATA = 08aca270, WLAST = 0
[10365] WDATA = 4c5ab4c7, WLAST = 0
[10375] WDATA = 64ae5d63, WLAST = 0
[10385] WDATA = 31a52bb2, WLAST = 0
[10395] WDATA = 0f118671, WLAST = 0
[10405] WDATA = 675f86c9, WLAST = 0
[10415] WDATA = 5743ffb8, WLAST = 1
[10425] BRESP = 10
[10445] ARADDR = 5174, ARLEN = 8
[10465] RDATA = xxxxxxxx, RLAST = 0, RRESP = 10
[10485] RDATA = xxxxxxxx, RLAST = 0, RRESP = 10
[10505] RDATA = xxxxxxxx, RLAST = 0, RRESP = 10
[10525] RDATA = xxxxxxxx, RLAST = 0, RRESP = 10
[10545] RDATA = xxxxxxxx, RLAST = 0, RRESP = 10
[10565] RDATA = xxxxxxxx, RLAST = 0, RRESP = 10
[10585] RDATA = xxxxxxxx, RLAST = 0, RRESP = 10
[10605] RDATA = xxxxxxxx, RLAST = 0, RRESP = 10
[10625] RDATA = xxxxxxxx, RLAST = 1, RRESP = 10
[10645] AWADDR = 22bc, AWLEN = 3
[10665] WDATA = 8204d846, WLAST = 0
[10675] WDATA = fa6527ce, WLAST = 0
[10685] WDATA = 274c6e86, WLAST = 0
[10695] WDATA = ef90874b, WLAST = 1
[10705] BRESP = 10
[10725] ARADDR = 22bc, ARLEN = 3
[10745] RDATA = xxxxxxxx, RLAST = 0, RRESP = 10
[10765] RDATA = xxxxxxxx, RLAST = 0, RRESP = 10
[10785] RDATA = xxxxxxxx, RLAST = 0, RRESP = 10
[10805] RDATA = xxxxxxxx, RLAST = 1, RRESP = 10
[10825] ARADDR = 5118, ARLEN = 1
[10845] RDATA = xxxxxxxx, RLAST = 0, RRESP = 10
[10865] RDATA = xxxxxxxx, RLAST = 1, RRESP = 10
[10885] ARADDR = bc44, ARLEN = 12
[10905] RDATA = xxxxxxxx, RLAST = 0, RRESP = 10
[10925] RDATA = xxxxxxxx, RLAST = 0, RRESP = 10
[10945] RDATA = xxxxxxxx, RLAST = 0, RRESP = 10
[10965] RDATA = xxxxxxxx, RLAST = 0, RRESP = 10
[10985] RDATA = xxxxxxxx, RLAST = 0, RRESP = 10
[11005] RDATA = xxxxxxxx, RLAST = 0, RRESP = 10
[11025] RDATA = xxxxxxxx, RLAST = 0, RRESP = 10
[11045] RDATA = xxxxxxxx, RLAST = 0, RRESP = 10
[11065] RDATA = xxxxxxxx, RLAST = 0, RRESP = 10
[11085] RDATA = xxxxxxxx, RLAST = 0, RRESP = 10
[11105] RDATA = xxxxxxxx, RLAST = 0, RRESP = 10
[11125] RDATA = xxxxxxxx, RLAST = 0, RRESP = 10
[11145] RDATA = xxxxxxxx, RLAST = 1, RRESP = 10
[11165] AWADDR = 065c, AWLEN = 6
[11185] WDATA = 28b05bb9, WLAST = 0
[11195] WDATA = 23bc9e16, WLAST = 0
[11205] WDATA = 274f6db1, WLAST = 0
[11215] WDATA = 1f3d4e4f, WLAST = 0
[11225] WDATA = 307ea1cf, WLAST = 0
[11235] WDATA = c23513c4, WLAST = 0
[11245] WDATA = 8504e802, WLAST = 1
[11255] BRESP = 00
[11275] ARADDR = 065c, ARLEN = 6
[11295] RDATA = xxxxxxxx, RLAST = 0, RRESP = 00
[11315] RDATA = xxxxxxxx, RLAST = 0, RRESP = 00
[11335] RDATA = xxxxxxxx, RLAST = 0, RRESP = 00
[11355] RDATA = xxxxxxxx, RLAST = 0, RRESP = 00
[11375] RDATA = xxxxxxxx, RLAST = 0, RRESP = 00
[11395] RDATA = xxxxxxxx, RLAST = 0, RRESP = 00
[11415] RDATA = xxxxxxxx, RLAST = 1, RRESP = 00
[11435] AWADDR = 2b3c, AWLEN = 12
[11455] WDATA = 1fab1a52, WLAST = 0
[11465] WDATA = 7ca83b13, WLAST = 0
[11475] WDATA = 117bd915, WLAST = 0
[11485] WDATA = dc718200, WLAST = 0
[11495] WDATA = acb0fc48, WLAST = 0
[11505] WDATA = 212e0892, WLAST = 0
[11515] WDATA = 70311704, WLAST = 0
[11525] WDATA = df20163f, WLAST = 0
[11535] WDATA = d85eedd3, WLAST = 0
[11545] WDATA = e8e79885, WLAST = 0
[11555] WDATA = 384e7051, WLAST = 0
[11565] WDATA = 0c9d297c, WLAST = 0
[11575] WDATA = ed7e5611, WLAST = 1
[11585] BRESP = 10
[11605] ARADDR = 2b3c, ARLEN = 12
[11625] RDATA = xxxxxxxx, RLAST = 0, RRESP = 10
[11645] RDATA = xxxxxxxx, RLAST = 0, RRESP = 10
[11665] RDATA = xxxxxxxx, RLAST = 0, RRESP = 10
[11685] RDATA = xxxxxxxx, RLAST = 0, RRESP = 10
[11705] RDATA = xxxxxxxx, RLAST = 0, RRESP = 10
[11725] RDATA = xxxxxxxx, RLAST = 0, RRESP = 10
[11745] RDATA = xxxxxxxx, RLAST = 0, RRESP = 10
[11765] RDATA = xxxxxxxx, RLAST = 0, RRESP = 10
[11785] RDATA = xxxxxxxx, RLAST = 0, RRESP = 10
[11805] RDATA = xxxxxxxx, RLAST = 0, RRESP = 10
[11825] RDATA = xxxxxxxx, RLAST = 0, RRESP = 10
[11845] RDATA = xxxxxxxx, RLAST = 0, RRESP = 10
[11865] RDATA = xxxxxxxx, RLAST = 1, RRESP = 10
[11885] ARADDR = 8df4, ARLEN = 13
[11905] RDATA = xxxxxxxx, RLAST = 0, RRESP = 10
[11925] RDATA = xxxxxxxx, RLAST = 0, RRESP = 10
[11945] RDATA = xxxxxxxx, RLAST = 0, RRESP = 10
[11965] RDATA = xxxxxxxx, RLAST = 0, RRESP = 10
[11985] RDATA = xxxxxxxx, RLAST = 0, RRESP = 10
[12005] RDATA = xxxxxxxx, RLAST = 0, RRESP = 10
[12025] RDATA = xxxxxxxx, RLAST = 0, RRESP = 10
[12045] RDATA = xxxxxxxx, RLAST = 0, RRESP = 10
[12065] RDATA = xxxxxxxx, RLAST = 0, RRESP = 10
[12085] RDATA = xxxxxxxx, RLAST = 0, RRESP = 10
[12105] RDATA = xxxxxxxx, RLAST = 0, RRESP = 10
[12125] RDATA = xxxxxxxx, RLAST = 0, RRESP = 10
[12145] RDATA = xxxxxxxx, RLAST = 0, RRESP = 10
[12165] RDATA = xxxxxxxx, RLAST = 1, RRESP = 10
[12185] AWADDR = 4b00, AWLEN = 6
[12205] WDATA = a90a8f36, WLAST = 0
[12215] WDATA = 0cbf7699, WLAST = 0
[12225] WDATA = b1012654, WLAST = 0
[12235] WDATA = b4939b08, WLAST = 0
[12245] WDATA = 09c376b6, WLAST = 0
[12255] WDATA = 90f7b53c, WLAST = 0
[12265] WDATA = d085eed0, WLAST = 1
[12275] BRESP = 10
[12295] ARADDR = 4b00, ARLEN = 6
[12315] RDATA = xxxxxxxx, RLAST = 0, RRESP = 10
[12335] RDATA = xxxxxxxx, RLAST = 0, RRESP = 10
[12355] RDATA = xxxxxxxx, RLAST = 0, RRESP = 10
[12375] RDATA = xxxxxxxx, RLAST = 0, RRESP = 10
[12395] RDATA = xxxxxxxx, RLAST = 0, RRESP = 10
[12415] RDATA = xxxxxxxx, RLAST = 0, RRESP = 10
[12435] RDATA = xxxxxxxx, RLAST = 1, RRESP = 10
[12455] AWADDR = d03c, AWLEN = 3
[12475] WDATA = 6e985d57, WLAST = 0
[12485] WDATA = eb7b2d36, WLAST = 0
[12495] WDATA = fb7c3016, WLAST = 0
[12505] WDATA = 3af17213, WLAST = 1
[12515] BRESP = 10
[12535] ARADDR = d03c, ARLEN = 3
[12555] RDATA = xxxxxxxx, RLAST = 0, RRESP = 10
[12575] RDATA = xxxxxxxx, RLAST = 0, RRESP = 10
[12595] RDATA = xxxxxxxx, RLAST = 0, RRESP = 10
[12615] RDATA = xxxxxxxx, RLAST = 1, RRESP = 10
[12635] ARADDR = 08b4, ARLEN = 12
[12655] RDATA = xxxxxxxx, RLAST = 0, RRESP = 00
[12675] RDATA = xxxxxxxx, RLAST = 0, RRESP = 00
[12695] RDATA = xxxxxxxx, RLAST = 0, RRESP = 00
[12715] RDATA = xxxxxxxx, RLAST = 0, RRESP = 00
[12735] RDATA = xxxxxxxx, RLAST = 0, RRESP = 00
[12755] RDATA = xxxxxxxx, RLAST = 0, RRESP = 00
[12775] RDATA = xxxxxxxx, RLAST = 0, RRESP = 00
[12795] RDATA = xxxxxxxx, RLAST = 0, RRESP = 00
[12815] RDATA = xxxxxxxx, RLAST = 0, RRESP = 00
[12835] RDATA = xxxxxxxx, RLAST = 0, RRESP = 00
[12855] RDATA = xxxxxxxx, RLAST = 0, RRESP = 00
[12875] RDATA = xxxxxxxx, RLAST = 0, RRESP = 00
[12895] RDATA = xxxxxxxx, RLAST = 1, RRESP = 00
[12915] AWADDR = 88a0, AWLEN = 3
[12935] WDATA = 227023d8, WLAST = 0
[12945] WDATA = 6d5ee208, WLAST = 0
[12955] WDATA = c20a7b2a, WLAST = 0
[12965] WDATA = f0ffbbb4, WLAST = 1
[12975] BRESP = 10
[12995] ARADDR = 88a0, ARLEN = 3
[13015] RDATA = xxxxxxxx, RLAST = 0, RRESP = 10
[13035] RDATA = xxxxxxxx, RLAST = 0, RRESP = 10
[13055] RDATA = xxxxxxxx, RLAST = 0, RRESP = 10
[13075] RDATA = xxxxxxxx, RLAST = 1, RRESP = 10
[13095] AWADDR = 4b08, AWLEN = 5
[13115] WDATA = b8a2d70b, WLAST = 0
[13125] WDATA = ee319151, WLAST = 0
[13135] WDATA = 0f7e63cb, WLAST = 0
[13145] WDATA = b8ef551c, WLAST = 0
[13155] WDATA = 79fbbc76, WLAST = 0
[13165] WDATA = a3656f5f, WLAST = 1
[13175] BRESP = 10
[13195] ARADDR = 4b08, ARLEN = 5
[13215] RDATA = xxxxxxxx, RLAST = 0, RRESP = 10
[13235] RDATA = xxxxxxxx, RLAST = 0, RRESP = 10
[13255] RDATA = xxxxxxxx, RLAST = 0, RRESP = 10
[13275] RDATA = xxxxxxxx, RLAST = 0, RRESP = 10
[13295] RDATA = xxxxxxxx, RLAST = 0, RRESP = 10
[13315] RDATA = xxxxxxxx, RLAST = 1, RRESP = 10
[13335] ARADDR = 2824, ARLEN = 6
[13355] RDATA = xxxxxxxx, RLAST = 0, RRESP = 10
[13375] RDATA = xxxxxxxx, RLAST = 0, RRESP = 10
[13395] RDATA = xxxxxxxx, RLAST = 0, RRESP = 10
[13415] RDATA = xxxxxxxx, RLAST = 0, RRESP = 10
[13435] RDATA = xxxxxxxx, RLAST = 0, RRESP = 10
[13455] RDATA = xxxxxxxx, RLAST = 0, RRESP = 10
[13475] RDATA = xxxxxxxx, RLAST = 1, RRESP = 10
[13495] AWADDR = b6f0, AWLEN = 3
[13515] WDATA = 23dbb0c7, WLAST = 0
[13525] WDATA = 3ecef27f, WLAST = 0
[13535] WDATA = beedff11, WLAST = 0
[13545] WDATA = b02a7001, WLAST = 1
[13555] BRESP = 10
[13575] ARADDR = b6f0, ARLEN = 3
[13595] RDATA = xxxxxxxx, RLAST = 0, RRESP = 10
[13615] RDATA = xxxxxxxx, RLAST = 0, RRESP = 10
[13635] RDATA = xxxxxxxx, RLAST = 0, RRESP = 10
[13655] RDATA = xxxxxxxx, RLAST = 1, RRESP = 10
[13675] AWADDR = 9a94, AWLEN = 6
[13695] WDATA = 83a62116, WLAST = 0
[13705] WDATA = f08ffd5e, WLAST = 0
[13715] WDATA = 64e2cada, WLAST = 0
[13725] WDATA = e65dd804, WLAST = 0
[13735] WDATA = fb4aaf2a, WLAST = 0
[13745] WDATA = 83103f34, WLAST = 0
[13755] WDATA = c2aa0a6e, WLAST = 1
[13765] BRESP = 10
[13785] ARADDR = 9a94, ARLEN = 6
[13805] RDATA = xxxxxxxx, RLAST = 0, RRESP = 10
[13825] RDATA = xxxxxxxx, RLAST = 0, RRESP = 10
[13845] RDATA = xxxxxxxx, RLAST = 0, RRESP = 10
[13865] RDATA = xxxxxxxx, RLAST = 0, RRESP = 10
[13885] RDATA = xxxxxxxx, RLAST = 0, RRESP = 10
[13905] RDATA = xxxxxxxx, RLAST = 0, RRESP = 10
[13925] RDATA = xxxxxxxx, RLAST = 1, RRESP = 10
[13945] ARADDR = 1c54, ARLEN = 10
[13965] RDATA = xxxxxxxx, RLAST = 0, RRESP = 10
[13985] RDATA = xxxxxxxx, RLAST = 0, RRESP = 10
[14005] RDATA = xxxxxxxx, RLAST = 0, RRESP = 10
[14025] RDATA = xxxxxxxx, RLAST = 0, RRESP = 10
[14045] RDATA = xxxxxxxx, RLAST = 0, RRESP = 10
[14065] RDATA = xxxxxxxx, RLAST = 0, RRESP = 10
[14085] RDATA = xxxxxxxx, RLAST = 0, RRESP = 10
[14105] RDATA = xxxxxxxx, RLAST = 0, RRESP = 10
[14125] RDATA = xxxxxxxx, RLAST = 0, RRESP = 10
[14145] RDATA = xxxxxxxx, RLAST = 0, RRESP = 10
[14165] RDATA = xxxxxxxx, RLAST = 1, RRESP = 10
[14185] ARADDR = fc30, ARLEN = 5
[14205] RDATA = xxxxxxxx, RLAST = 0, RRESP = 10
[14225] RDATA = xxxxxxxx, RLAST = 0, RRESP = 10
[14245] RDATA = xxxxxxxx, RLAST = 0, RRESP = 10
[14265] RDATA = xxxxxxxx, RLAST = 0, RRESP = 10
[14285] RDATA = xxxxxxxx, RLAST = 0, RRESP = 10
[14305] RDATA = xxxxxxxx, RLAST = 1, RRESP = 10
[14325] ARADDR = 702c, ARLEN = 8
[14345] RDATA = xxxxxxxx, RLAST = 0, RRESP = 10
[14365] RDATA = xxxxxxxx, RLAST = 0, RRESP = 10
[14385] RDATA = xxxxxxxx, RLAST = 0, RRESP = 10
[14405] RDATA = xxxxxxxx, RLAST = 0, RRESP = 10
[14425] RDATA = xxxxxxxx, RLAST = 0, RRESP = 10
[14445] RDATA = xxxxxxxx, RLAST = 0, RRESP = 10
[14465] RDATA = xxxxxxxx, RLAST = 0, RRESP = 10
[14485] RDATA = xxxxxxxx, RLAST = 0, RRESP = 10
[14505] RDATA = xxxxxxxx, RLAST = 1, RRESP = 10
[14525] ARADDR = c180, ARLEN = 12
[14545] RDATA = xxxxxxxx, RLAST = 0, RRESP = 10
[14565] RDATA = xxxxxxxx, RLAST = 0, RRESP = 10
[14585] RDATA = xxxxxxxx, RLAST = 0, RRESP = 10
[14605] RDATA = xxxxxxxx, RLAST = 0, RRESP = 10
[14625] RDATA = xxxxxxxx, RLAST = 0, RRESP = 10
[14645] RDATA = xxxxxxxx, RLAST = 0, RRESP = 10
[14665] RDATA = xxxxxxxx, RLAST = 0, RRESP = 10
[14685] RDATA = xxxxxxxx, RLAST = 0, RRESP = 10
[14705] RDATA = xxxxxxxx, RLAST = 0, RRESP = 10
[14725] RDATA = xxxxxxxx, RLAST = 0, RRESP = 10
[14745] RDATA = xxxxxxxx, RLAST = 0, RRESP = 10
[14765] RDATA = xxxxxxxx, RLAST = 0, RRESP = 10
[14785] RDATA = xxxxxxxx, RLAST = 1, RRESP = 10
[14805] ARADDR = e474, ARLEN = 9
[14825] RDATA = xxxxxxxx, RLAST = 0, RRESP = 10
[14845] RDATA = xxxxxxxx, RLAST = 0, RRESP = 10
[14865] RDATA = xxxxxxxx, RLAST = 0, RRESP = 10
[14885] RDATA = xxxxxxxx, RLAST = 0, RRESP = 10
[14905] RDATA = xxxxxxxx, RLAST = 0, RRESP = 10
[14925] RDATA = xxxxxxxx, RLAST = 0, RRESP = 10
[14945] RDATA = xxxxxxxx, RLAST = 0, RRESP = 10
[14965] RDATA = xxxxxxxx, RLAST = 0, RRESP = 10
[14985] RDATA = xxxxxxxx, RLAST = 0, RRESP = 10
[15005] RDATA = xxxxxxxx, RLAST = 1, RRESP = 10
[15025] AWADDR = 6134, AWLEN = 6
[15045] WDATA = ff05dbb2, WLAST = 0
[15055] WDATA = a7f12ea4, WLAST = 0
[15065] WDATA = e1e7a1d5, WLAST = 0
[15075] WDATA = 4ce29133, WLAST = 0
[15085] WDATA = fcdc26dc, WLAST = 0
[15095] WDATA = f5e52922, WLAST = 0
[15105] WDATA = 44bfcb98, WLAST = 1
[15115] BRESP = 10
[15135] ARADDR = 6134, ARLEN = 6
[15155] RDATA = xxxxxxxx, RLAST = 0, RRESP = 10
[15175] RDATA = xxxxxxxx, RLAST = 0, RRESP = 10
[15195] RDATA = xxxxxxxx, RLAST = 0, RRESP = 10
[15215] RDATA = xxxxxxxx, RLAST = 0, RRESP = 10
[15235] RDATA = xxxxxxxx, RLAST = 0, RRESP = 10
[15255] RDATA = xxxxxxxx, RLAST = 0, RRESP = 10
[15275] RDATA = xxxxxxxx, RLAST = 1, RRESP = 10
[15295] ARADDR = f10c, ARLEN = 8
[15315] RDATA = xxxxxxxx, RLAST = 0, RRESP = 10
[15335] RDATA = xxxxxxxx, RLAST = 0, RRESP = 10
[15355] RDATA = xxxxxxxx, RLAST = 0, RRESP = 10
[15375] RDATA = xxxxxxxx, RLAST = 0, RRESP = 10
[15395] RDATA = xxxxxxxx, RLAST = 0, RRESP = 10
[15415] RDATA = xxxxxxxx, RLAST = 0, RRESP = 10
[15435] RDATA = xxxxxxxx, RLAST = 0, RRESP = 10
[15455] RDATA = xxxxxxxx, RLAST = 0, RRESP = 10
[15475] RDATA = xxxxxxxx, RLAST = 1, RRESP = 10
[15495] AWADDR = 33f0, AWLEN = 15
[15515] WDATA = 3bc5c336, WLAST = 0
[15525] WDATA = e0f7fc1a, WLAST = 0
[15535] WDATA = ff104aae, WLAST = 0
[15545] WDATA = 8ca5b05c, WLAST = 0
[15555] WDATA = c34eefd4, WLAST = 0
[15565] WDATA = 0c429758, WLAST = 0
[15575] WDATA = 0cfd877d, WLAST = 0
[15585] WDATA = 13d781d6, WLAST = 0
[15595] WDATA = 1077ea5b, WLAST = 0
[15605] WDATA = 28d11701, WLAST = 0
[15615] WDATA = 0d64aa4b, WLAST = 0
[15625] WDATA = 692d7ae6, WLAST = 0
[15635] WDATA = 4c7cc71b, WLAST = 0
[15645] WDATA = 194977a9, WLAST = 0
[15655] WDATA = 05f551eb, WLAST = 0
[15665] WDATA = bd4dec01, WLAST = 1
[15675] BRESP = 10
[15695] ARADDR = 33f0, ARLEN = 15
[15715] RDATA = xxxxxxxx, RLAST = 0, RRESP = 10
[15735] RDATA = xxxxxxxx, RLAST = 0, RRESP = 10
[15755] RDATA = xxxxxxxx, RLAST = 0, RRESP = 10
[15775] RDATA = xxxxxxxx, RLAST = 0, RRESP = 10
[15795] RDATA = xxxxxxxx, RLAST = 0, RRESP = 10
[15815] RDATA = xxxxxxxx, RLAST = 0, RRESP = 10
[15835] RDATA = xxxxxxxx, RLAST = 0, RRESP = 10
[15855] RDATA = xxxxxxxx, RLAST = 0, RRESP = 10
[15875] RDATA = xxxxxxxx, RLAST = 0, RRESP = 10
[15895] RDATA = xxxxxxxx, RLAST = 0, RRESP = 10
[15915] RDATA = xxxxxxxx, RLAST = 0, RRESP = 10
[15935] RDATA = xxxxxxxx, RLAST = 0, RRESP = 10
[15955] RDATA = xxxxxxxx, RLAST = 0, RRESP = 10
[15975] RDATA = xxxxxxxx, RLAST = 0, RRESP = 10
[15995] RDATA = xxxxxxxx, RLAST = 0, RRESP = 10
[16015] RDATA = xxxxxxxx, RLAST = 1, RRESP = 10
[16035] ARADDR = 5084, ARLEN = 1
[16055] RDATA = xxxxxxxx, RLAST = 0, RRESP = 10
[16075] RDATA = xxxxxxxx, RLAST = 1, RRESP = 10
[16095] ARADDR = 08d0, ARLEN = 2
[16115] RDATA = xxxxxxxx, RLAST = 0, RRESP = 00
[16135] RDATA = xxxxxxxx, RLAST = 0, RRESP = 00
[16155] RDATA = xxxxxxxx, RLAST = 1, RRESP = 00
[16175] AWADDR = 41f0, AWLEN = 6
[16195] WDATA = 589ab195, WLAST = 0
[16205] WDATA = dd7fa775, WLAST = 0
[16215] WDATA = b88686d7, WLAST = 0
[16225] WDATA = e2786c27, WLAST = 0
[16235] WDATA = d1e3794c, WLAST = 0
[16245] WDATA = 4e68ec8e, WLAST = 0
[16255] WDATA = 09cca40f, WLAST = 1
[16265] BRESP = 10
[16285] ARADDR = 41f0, ARLEN = 6
[16305] RDATA = xxxxxxxx, RLAST = 0, RRESP = 10
[16325] RDATA = xxxxxxxx, RLAST = 0, RRESP = 10
[16345] RDATA = xxxxxxxx, RLAST = 0, RRESP = 10
[16365] RDATA = xxxxxxxx, RLAST = 0, RRESP = 10
[16385] RDATA = xxxxxxxx, RLAST = 0, RRESP = 10
[16405] RDATA = xxxxxxxx, RLAST = 0, RRESP = 10
[16425] RDATA = xxxxxxxx, RLAST = 1, RRESP = 10
[16445] ARADDR = 70b0, ARLEN = 15
[16465] RDATA = xxxxxxxx, RLAST = 0, RRESP = 10
[16485] RDATA = xxxxxxxx, RLAST = 0, RRESP = 10
[16505] RDATA = xxxxxxxx, RLAST = 0, RRESP = 10
[16525] RDATA = xxxxxxxx, RLAST = 0, RRESP = 10
[16545] RDATA = xxxxxxxx, RLAST = 0, RRESP = 10
[16565] RDATA = xxxxxxxx, RLAST = 0, RRESP = 10
[16585] RDATA = xxxxxxxx, RLAST = 0, RRESP = 10
[16605] RDATA = xxxxxxxx, RLAST = 0, RRESP = 10
[16625] RDATA = xxxxxxxx, RLAST = 0, RRESP = 10
[16645] RDATA = xxxxxxxx, RLAST = 0, RRESP = 10
[16665] RDATA = xxxxxxxx, RLAST = 0, RRESP = 10
[16685] RDATA = xxxxxxxx, RLAST = 0, RRESP = 10
[16705] RDATA = xxxxxxxx, RLAST = 0, RRESP = 10
[16725] RDATA = xxxxxxxx, RLAST = 0, RRESP = 10
[16745] RDATA = xxxxxxxx, RLAST = 0, RRESP = 10
[16765] RDATA = xxxxxxxx, RLAST = 1, RRESP = 10
[16785] ARADDR = 1c6c, ARLEN = 1
[16805] RDATA = xxxxxxxx, RLAST = 0, RRESP = 10
[16825] RDATA = xxxxxxxx, RLAST = 1, RRESP = 10
[16845] AWADDR = 4124, AWLEN = 5
[16865] WDATA = 6a681e77, WLAST = 0
[16875] WDATA = aec6e890, WLAST = 0
[16885] WDATA = 3a25761f, WLAST = 0
[16895] WDATA = d6415451, WLAST = 0
[16905] WDATA = 155b8d4f, WLAST = 0
[16915] WDATA = ae44d755, WLAST = 1
[16925] BRESP = 10
[16945] ARADDR = 4124, ARLEN = 5
[16965] RDATA = xxxxxxxx, RLAST = 0, RRESP = 10
[16985] RDATA = xxxxxxxx, RLAST = 0, RRESP = 10
[17005] RDATA = xxxxxxxx, RLAST = 0, RRESP = 10
[17025] RDATA = xxxxxxxx, RLAST = 0, RRESP = 10
[17045] RDATA = xxxxxxxx, RLAST = 0, RRESP = 10
[17065] RDATA = xxxxxxxx, RLAST = 1, RRESP = 10
[17085] ARADDR = 3c58, ARLEN = 4
[17105] RDATA = xxxxxxxx, RLAST = 0, RRESP = 10
[17125] RDATA = xxxxxxxx, RLAST = 0, RRESP = 10
[17145] RDATA = xxxxxxxx, RLAST = 0, RRESP = 10
[17165] RDATA = xxxxxxxx, RLAST = 0, RRESP = 10
[17185] RDATA = xxxxxxxx, RLAST = 1, RRESP = 10
[17205] ARADDR = 2eac, ARLEN = 0
[17225] RDATA = xxxxxxxx, RLAST = 1, RRESP = 10
[17245] AWADDR = b7c0, AWLEN = 9
[17265] WDATA = fa983055, WLAST = 0
[17275] WDATA = ea8dfa2a, WLAST = 0
[17285] WDATA = 35cac584, WLAST = 0
[17295] WDATA = 1f319dd8, WLAST = 0
[17305] WDATA = d2c6d6c0, WLAST = 0
[17315] WDATA = f9923d89, WLAST = 0
[17325] WDATA = b5b60a15, WLAST = 0
[17335] WDATA = 3671bd90, WLAST = 0
[17345] WDATA = 6ff4c10c, WLAST = 0
[17355] WDATA = a23e25e5, WLAST = 1
[17365] BRESP = 10
[17385] ARADDR = b7c0, ARLEN = 9
[17405] RDATA = xxxxxxxx, RLAST = 0, RRESP = 10
[17425] RDATA = xxxxxxxx, RLAST = 0, RRESP = 10
[17445] RDATA = xxxxxxxx, RLAST = 0, RRESP = 10
[17465] RDATA = xxxxxxxx, RLAST = 0, RRESP = 10
[17485] RDATA = xxxxxxxx, RLAST = 0, RRESP = 10
[17505] RDATA = xxxxxxxx, RLAST = 0, RRESP = 10
[17525] RDATA = xxxxxxxx, RLAST = 0, RRESP = 10
[17545] RDATA = xxxxxxxx, RLAST = 0, RRESP = 10
[17565] RDATA = xxxxxxxx, RLAST = 0, RRESP = 10
[17585] RDATA = xxxxxxxx, RLAST = 1, RRESP = 10
[17605] ARADDR = 2de8, ARLEN = 0
[17625] RDATA = xxxxxxxx, RLAST = 1, RRESP = 10
[17645] AWADDR = 20d0, AWLEN = 11
[17665] WDATA = 12878f90, WLAST = 0
[17675] WDATA = 3c3d16bd, WLAST = 0
[17685] WDATA = 3fd14b42, WLAST = 0
[17695] WDATA = fe52361c, WLAST = 0
[17705] WDATA = bea43e24, WLAST = 0
[17715] WDATA = 2b16ceb4, WLAST = 0
[17725] WDATA = 597e1b4a, WLAST = 0
[17735] WDATA = b4ca1786, WLAST = 0
[17745] WDATA = 4bae4762, WLAST = 0
[17755] WDATA = 84fc8c74, WLAST = 0
[17765] WDATA = 82ae6014, WLAST = 0
[17775] WDATA = bf427cd9, WLAST = 1
[17785] BRESP = 10
[17805] ARADDR = 20d0, ARLEN = 11
[17825] RDATA = xxxxxxxx, RLAST = 0, RRESP = 10
[17845] RDATA = xxxxxxxx, RLAST = 0, RRESP = 10
[17865] RDATA = xxxxxxxx, RLAST = 0, RRESP = 10
[17885] RDATA = xxxxxxxx, RLAST = 0, RRESP = 10
[17905] RDATA = xxxxxxxx, RLAST = 0, RRESP = 10
[17925] RDATA = xxxxxxxx, RLAST = 0, RRESP = 10
[17945] RDATA = xxxxxxxx, RLAST = 0, RRESP = 10
[17965] RDATA = xxxxxxxx, RLAST = 0, RRESP = 10
[17985] RDATA = xxxxxxxx, RLAST = 0, RRESP = 10
[18005] RDATA = xxxxxxxx, RLAST = 0, RRESP = 10
[18025] RDATA = xxxxxxxx, RLAST = 0, RRESP = 10
[18045] RDATA = xxxxxxxx, RLAST = 1, RRESP = 10
[18065] AWADDR = 4404, AWLEN = 3
[18085] WDATA = fa025e83, WLAST = 0
[18095] WDATA = 33fe11d7, WLAST = 0
[18105] WDATA = 8c39203a, WLAST = 0
[18115] WDATA = e5000c03, WLAST = 1
[18125] BRESP = 10
[18145] ARADDR = 4404, ARLEN = 3
[18165] RDATA = xxxxxxxx, RLAST = 0, RRESP = 10
[18185] RDATA = xxxxxxxx, RLAST = 0, RRESP = 10
[18205] RDATA = xxxxxxxx, RLAST = 0, RRESP = 10
[18225] RDATA = xxxxxxxx, RLAST = 1, RRESP = 10
[18245] ARADDR = fe98, ARLEN = 7
[18265] RDATA = xxxxxxxx, RLAST = 0, RRESP = 10
[18285] RDATA = xxxxxxxx, RLAST = 0, RRESP = 10
[18305] RDATA = xxxxxxxx, RLAST = 0, RRESP = 10
[18325] RDATA = xxxxxxxx, RLAST = 0, RRESP = 10
[18345] RDATA = xxxxxxxx, RLAST = 0, RRESP = 10
[18365] RDATA = xxxxxxxx, RLAST = 0, RRESP = 10
[18385] RDATA = xxxxxxxx, RLAST = 0, RRESP = 10
[18405] RDATA = xxxxxxxx, RLAST = 1, RRESP = 10
[18425] ARADDR = 57d0, ARLEN = 8
[18445] RDATA = xxxxxxxx, RLAST = 0, RRESP = 10
[18465] RDATA = xxxxxxxx, RLAST = 0, RRESP = 10
[18485] RDATA = xxxxxxxx, RLAST = 0, RRESP = 10
[18505] RDATA = xxxxxxxx, RLAST = 0, RRESP = 10
[18525] RDATA = xxxxxxxx, RLAST = 0, RRESP = 10
[18545] RDATA = xxxxxxxx, RLAST = 0, RRESP = 10
[18565] RDATA = xxxxxxxx, RLAST = 0, RRESP = 10
[18585] RDATA = xxxxxxxx, RLAST = 0, RRESP = 10
[18605] RDATA = xxxxxxxx, RLAST = 1, RRESP = 10
[18625] ARADDR = 7f58, ARLEN = 15
[18645] RDATA = xxxxxxxx, RLAST = 0, RRESP = 10
[18665] RDATA = xxxxxxxx, RLAST = 0, RRESP = 10
[18685] RDATA = xxxxxxxx, RLAST = 0, RRESP = 10
[18705] RDATA = xxxxxxxx, RLAST = 0, RRESP = 10
[18725] RDATA = xxxxxxxx, RLAST = 0, RRESP = 10
[18745] RDATA = xxxxxxxx, RLAST = 0, RRESP = 10
[18765] RDATA = xxxxxxxx, RLAST = 0, RRESP = 10
[18785] RDATA = xxxxxxxx, RLAST = 0, RRESP = 10
[18805] RDATA = xxxxxxxx, RLAST = 0, RRESP = 10
[18825] RDATA = xxxxxxxx, RLAST = 0, RRESP = 10
[18845] RDATA = xxxxxxxx, RLAST = 0, RRESP = 10
[18865] RDATA = xxxxxxxx, RLAST = 0, RRESP = 10
[18885] RDATA = xxxxxxxx, RLAST = 0, RRESP = 10
[18905] RDATA = xxxxxxxx, RLAST = 0, RRESP = 10
[18925] RDATA = xxxxxxxx, RLAST = 0, RRESP = 10
[18945] RDATA = xxxxxxxx, RLAST = 1, RRESP = 10
[18965] ARADDR = 3fa0, ARLEN = 5
[18985] RDATA = xxxxxxxx, RLAST = 0, RRESP = 10
[19005] RDATA = xxxxxxxx, RLAST = 0, RRESP = 10
[19025] RDATA = xxxxxxxx, RLAST = 0, RRESP = 10
[19045] RDATA = xxxxxxxx, RLAST = 0, RRESP = 10
[19065] RDATA = xxxxxxxx, RLAST = 0, RRESP = 10
[19085] RDATA = xxxxxxxx, RLAST = 1, RRESP = 10
[19105] AWADDR = 0968, AWLEN = 7
[19125] WDATA = 4fdf0554, WLAST = 0
[19135] WDATA = a9ba1e77, WLAST = 0
[19145] WDATA = 7b37fb43, WLAST = 0
[19155] WDATA = 00decda1, WLAST = 0
[19165] WDATA = b287be45, WLAST = 0
[19175] WDATA = 08853c32, WLAST = 0
[19185] WDATA = e3453a6e, WLAST = 0
[19195] WDATA = 9bc8d326, WLAST = 1
[19205] BRESP = 00
[19225] ARADDR = 0968, ARLEN = 7
[19245] RDATA = xxxxxxxx, RLAST = 0, RRESP = 00
[19265] RDATA = xxxxxxxx, RLAST = 0, RRESP = 00
[19285] RDATA = xxxxxxxx, RLAST = 0, RRESP = 00
[19305] RDATA = xxxxxxxx, RLAST = 0, RRESP = 00
[19325] RDATA = xxxxxxxx, RLAST = 0, RRESP = 00
[19345] RDATA = xxxxxxxx, RLAST = 0, RRESP = 00
[19365] RDATA = xxxxxxxx, RLAST = 0, RRESP = 00
[19385] RDATA = xxxxxxxx, RLAST = 1, RRESP = 00
[19405] ARADDR = 5724, ARLEN = 0
[19425] RDATA = xxxxxxxx, RLAST = 1, RRESP = 10
[19445] AWADDR = 9c90, AWLEN = 1
[19465] WDATA = b4cfd123, WLAST = 0
[19475] WDATA = 79a3ff38, WLAST = 1
[19485] BRESP = 10
[19505] ARADDR = 9c90, ARLEN = 1
[19525] RDATA = xxxxxxxx, RLAST = 0, RRESP = 10
[19545] RDATA = xxxxxxxx, RLAST = 1, RRESP = 10
[19565] ARADDR = b378, ARLEN = 5
[19585] RDATA = xxxxxxxx, RLAST = 0, RRESP = 10
[19605] RDATA = xxxxxxxx, RLAST = 0, RRESP = 10
[19625] RDATA = xxxxxxxx, RLAST = 0, RRESP = 10
[19645] RDATA = xxxxxxxx, RLAST = 0, RRESP = 10
[19665] RDATA = xxxxxxxx, RLAST = 0, RRESP = 10
[19685] RDATA = xxxxxxxx, RLAST = 1, RRESP = 10
[19705] AWADDR = 479c, AWLEN = 2
[19725] WDATA = a90faa09, WLAST = 0
[19735] WDATA = 52d1f1ae, WLAST = 0
[19745] WDATA = f1c513d4, WLAST = 1
[19755] BRESP = 10
[19775] ARADDR = 479c, ARLEN = 2
[19795] RDATA = xxxxxxxx, RLAST = 0, RRESP = 10
[19815] RDATA = xxxxxxxx, RLAST = 0, RRESP = 10
[19835] RDATA = xxxxxxxx, RLAST = 1, RRESP = 10
[19855] AWADDR = 7498, AWLEN = 0
[19875] WDATA = 748bbfa7, WLAST = 1
[19885] BRESP = 10
[19905] ARADDR = 7498, ARLEN = 0
[19925] RDATA = xxxxxxxx, RLAST = 1, RRESP = 10
[19945] ARADDR = 6f78, ARLEN = 0
[19965] RDATA = xxxxxxxx, RLAST = 1, RRESP = 10
[19985] AWADDR = 6288, AWLEN = 9
[20005] WDATA = 9b073801, WLAST = 0
[20015] WDATA = 1f189f53, WLAST = 0
[20025] WDATA = d3107ed6, WLAST = 0
[20035] WDATA = beaae8d9, WLAST = 0
[20045] WDATA = 08cd07e0, WLAST = 0
[20055] WDATA = 70807a3e, WLAST = 0
[20065] WDATA = 88800ae0, WLAST = 0
[20075] WDATA = 6aa23499, WLAST = 0
[20085] WDATA = e59a6ad1, WLAST = 0
[20095] WDATA = ebce78db, WLAST = 1
[20105] BRESP = 10
[20125] ARADDR = 6288, ARLEN = 9
[20145] RDATA = xxxxxxxx, RLAST = 0, RRESP = 10
[20165] RDATA = xxxxxxxx, RLAST = 0, RRESP = 10
[20185] RDATA = xxxxxxxx, RLAST = 0, RRESP = 10
[20205] RDATA = xxxxxxxx, RLAST = 0, RRESP = 10
[20225] RDATA = xxxxxxxx, RLAST = 0, RRESP = 10
[20245] RDATA = xxxxxxxx, RLAST = 0, RRESP = 10
[20265] RDATA = xxxxxxxx, RLAST = 0, RRESP = 10
[20285] RDATA = xxxxxxxx, RLAST = 0, RRESP = 10
[20305] RDATA = xxxxxxxx, RLAST = 0, RRESP = 10
[20325] RDATA = xxxxxxxx, RLAST = 1, RRESP = 10
[20345] ARADDR = 218c, ARLEN = 12
[20365] RDATA = xxxxxxxx, RLAST = 0, RRESP = 10
[20385] RDATA = xxxxxxxx, RLAST = 0, RRESP = 10
[20405] RDATA = xxxxxxxx, RLAST = 0, RRESP = 10
[20425] RDATA = xxxxxxxx, RLAST = 0, RRESP = 10
[20445] RDATA = xxxxxxxx, RLAST = 0, RRESP = 10
[20465] RDATA = xxxxxxxx, RLAST = 0, RRESP = 10
[20485] RDATA = xxxxxxxx, RLAST = 0, RRESP = 10
[20505] RDATA = xxxxxxxx, RLAST = 0, RRESP = 10
[20525] RDATA = xxxxxxxx, RLAST = 0, RRESP = 10
[20545] RDATA = xxxxxxxx, RLAST = 0, RRESP = 10
[20565] RDATA = xxxxxxxx, RLAST = 0, RRESP = 10
[20585] RDATA = xxxxxxxx, RLAST = 0, RRESP = 10
[20605] RDATA = xxxxxxxx, RLAST = 1, RRESP = 10
[20625] ARADDR = cf24, ARLEN = 0
[20645] RDATA = xxxxxxxx, RLAST = 1, RRESP = 10
[20665] AWADDR = 8a90, AWLEN = 1
[20685] WDATA = a25e8bdb, WLAST = 0
[20695] WDATA = 478a97f9, WLAST = 1
[20705] BRESP = 10
[20725] ARADDR = 8a90, ARLEN = 1
[20745] RDATA = xxxxxxxx, RLAST = 0, RRESP = 10
[20765] RDATA = xxxxxxxx, RLAST = 1, RRESP = 10
[20785] ARADDR = 1054, ARLEN = 9
[20805] RDATA = xxxxxxxx, RLAST = 0, RRESP = 10
[20825] RDATA = xxxxxxxx, RLAST = 0, RRESP = 10
[20845] RDATA = xxxxxxxx, RLAST = 0, RRESP = 10
[20865] RDATA = xxxxxxxx, RLAST = 0, RRESP = 10
[20885] RDATA = xxxxxxxx, RLAST = 0, RRESP = 10
[20905] RDATA = xxxxxxxx, RLAST = 0, RRESP = 10
[20925] RDATA = xxxxxxxx, RLAST = 0, RRESP = 10
[20945] RDATA = xxxxxxxx, RLAST = 0, RRESP = 10
[20965] RDATA = xxxxxxxx, RLAST = 0, RRESP = 10
[20985] RDATA = xxxxxxxx, RLAST = 1, RRESP = 10
[21005] AWADDR = b358, AWLEN = 5
[21025] WDATA = ec0cd97a, WLAST = 0
[21035] WDATA = 9f6d2c80, WLAST = 0
[21045] WDATA = de555afd, WLAST = 0
[21055] WDATA = 6b8db3a0, WLAST = 0
[21065] WDATA = 2374ba56, WLAST = 0
[21075] WDATA = b70795ff, WLAST = 1
[21085] BRESP = 10
[21105] ARADDR = b358, ARLEN = 5
[21125] RDATA = xxxxxxxx, RLAST = 0, RRESP = 10
[21145] RDATA = xxxxxxxx, RLAST = 0, RRESP = 10
[21165] RDATA = xxxxxxxx, RLAST = 0, RRESP = 10
[21185] RDATA = xxxxxxxx, RLAST = 0, RRESP = 10
[21205] RDATA = xxxxxxxx, RLAST = 0, RRESP = 10
[21225] RDATA = xxxxxxxx, RLAST = 1, RRESP = 10
[21245] ARADDR = 9c5c, ARLEN = 13
[21265] RDATA = xxxxxxxx, RLAST = 0, RRESP = 10
[21285] RDATA = xxxxxxxx, RLAST = 0, RRESP = 10
[21305] RDATA = xxxxxxxx, RLAST = 0, RRESP = 10
[21325] RDATA = xxxxxxxx, RLAST = 0, RRESP = 10
[21345] RDATA = xxxxxxxx, RLAST = 0, RRESP = 10
[21365] RDATA = xxxxxxxx, RLAST = 0, RRESP = 10
[21385] RDATA = xxxxxxxx, RLAST = 0, RRESP = 10
[21405] RDATA = xxxxxxxx, RLAST = 0, RRESP = 10
[21425] RDATA = xxxxxxxx, RLAST = 0, RRESP = 10
[21445] RDATA = xxxxxxxx, RLAST = 0, RRESP = 10
[21465] RDATA = xxxxxxxx, RLAST = 0, RRESP = 10
[21485] RDATA = xxxxxxxx, RLAST = 0, RRESP = 10
[21505] RDATA = xxxxxxxx, RLAST = 0, RRESP = 10
[21525] RDATA = xxxxxxxx, RLAST = 1, RRESP = 10
[21545] ARADDR = 4f94, ARLEN = 0
[21565] RDATA = xxxxxxxx, RLAST = 1, RRESP = 10
[21585] ARADDR = acd4, ARLEN = 10
[21605] RDATA = xxxxxxxx, RLAST = 0, RRESP = 10
[21625] RDATA = xxxxxxxx, RLAST = 0, RRESP = 10
[21645] RDATA = xxxxxxxx, RLAST = 0, RRESP = 10
[21665] RDATA = xxxxxxxx, RLAST = 0, RRESP = 10
[21685] RDATA = xxxxxxxx, RLAST = 0, RRESP = 10
[21705] RDATA = xxxxxxxx, RLAST = 0, RRESP = 10
[21725] RDATA = xxxxxxxx, RLAST = 0, RRESP = 10
[21745] RDATA = xxxxxxxx, RLAST = 0, RRESP = 10
[21765] RDATA = xxxxxxxx, RLAST = 0, RRESP = 10
[21785] RDATA = xxxxxxxx, RLAST = 0, RRESP = 10
[21805] RDATA = xxxxxxxx, RLAST = 1, RRESP = 10
[21825] ARADDR = 41e0, ARLEN = 10
[21845] RDATA = xxxxxxxx, RLAST = 0, RRESP = 10
[21865] RDATA = xxxxxxxx, RLAST = 0, RRESP = 10
[21885] RDATA = xxxxxxxx, RLAST = 0, RRESP = 10
[21905] RDATA = xxxxxxxx, RLAST = 0, RRESP = 10
[21925] RDATA = xxxxxxxx, RLAST = 0, RRESP = 10
[21945] RDATA = xxxxxxxx, RLAST = 0, RRESP = 10
[21965] RDATA = xxxxxxxx, RLAST = 0, RRESP = 10
[21985] RDATA = xxxxxxxx, RLAST = 0, RRESP = 10
[22005] RDATA = xxxxxxxx, RLAST = 0, RRESP = 10
[22025] RDATA = xxxxxxxx, RLAST = 0, RRESP = 10
[22045] RDATA = xxxxxxxx, RLAST = 1, RRESP = 10
[22065] ARADDR = 2eb8, ARLEN = 1
[22085] RDATA = xxxxxxxx, RLAST = 0, RRESP = 10
[22105] RDATA = xxxxxxxx, RLAST = 1, RRESP = 10
[22125] ARADDR = 5820, ARLEN = 13
[22145] RDATA = xxxxxxxx, RLAST = 0, RRESP = 10
[22165] RDATA = xxxxxxxx, RLAST = 0, RRESP = 10
[22185] RDATA = xxxxxxxx, RLAST = 0, RRESP = 10
[22205] RDATA = xxxxxxxx, RLAST = 0, RRESP = 10
[22225] RDATA = xxxxxxxx, RLAST = 0, RRESP = 10
[22245] RDATA = xxxxxxxx, RLAST = 0, RRESP = 10
[22265] RDATA = xxxxxxxx, RLAST = 0, RRESP = 10
[22285] RDATA = xxxxxxxx, RLAST = 0, RRESP = 10
[22305] RDATA = xxxxxxxx, RLAST = 0, RRESP = 10
[22325] RDATA = xxxxxxxx, RLAST = 0, RRESP = 10
[22345] RDATA = xxxxxxxx, RLAST = 0, RRESP = 10
[22365] RDATA = xxxxxxxx, RLAST = 0, RRESP = 10
[22385] RDATA = xxxxxxxx, RLAST = 0, RRESP = 10
[22405] RDATA = xxxxxxxx, RLAST = 1, RRESP = 10
[22425] AWADDR = 75b8, AWLEN = 7
[22445] WDATA = 90d2c8dc, WLAST = 0
[22455] WDATA = 17c4cbaf, WLAST = 0
[22465] WDATA = 8e2be73e, WLAST = 0
[22475] WDATA = a3f5bf64, WLAST = 0
[22485] WDATA = f9709003, WLAST = 0
[22495] WDATA = 87435124, WLAST = 0
[22505] WDATA = a958ae4d, WLAST = 0
[22515] WDATA = 7cd927e5, WLAST = 1
[22525] BRESP = 10
[22545] ARADDR = 75b8, ARLEN = 7
[22565] RDATA = xxxxxxxx, RLAST = 0, RRESP = 10
[22585] RDATA = xxxxxxxx, RLAST = 0, RRESP = 10
[22605] RDATA = xxxxxxxx, RLAST = 0, RRESP = 10
[22625] RDATA = xxxxxxxx, RLAST = 0, RRESP = 10
[22645] RDATA = xxxxxxxx, RLAST = 0, RRESP = 10
[22665] RDATA = xxxxxxxx, RLAST = 0, RRESP = 10
[22685] RDATA = xxxxxxxx, RLAST = 0, RRESP = 10
[22705] RDATA = xxxxxxxx, RLAST = 1, RRESP = 10
[22725] ARADDR = c2f8, ARLEN = 9
[22745] RDATA = xxxxxxxx, RLAST = 0, RRESP = 10
[22765] RDATA = xxxxxxxx, RLAST = 0, RRESP = 10
[22785] RDATA = xxxxxxxx, RLAST = 0, RRESP = 10
[22805] RDATA = xxxxxxxx, RLAST = 0, RRESP = 10
[22825] RDATA = xxxxxxxx, RLAST = 0, RRESP = 10
[22845] RDATA = xxxxxxxx, RLAST = 0, RRESP = 10
[22865] RDATA = xxxxxxxx, RLAST = 0, RRESP = 10
[22885] RDATA = xxxxxxxx, RLAST = 0, RRESP = 10
[22905] RDATA = xxxxxxxx, RLAST = 0, RRESP = 10
[22925] RDATA = xxxxxxxx, RLAST = 1, RRESP = 10
[22945] ARADDR = 5e74, ARLEN = 8
[22965] RDATA = xxxxxxxx, RLAST = 0, RRESP = 10
[22985] RDATA = xxxxxxxx, RLAST = 0, RRESP = 10
[23005] RDATA = xxxxxxxx, RLAST = 0, RRESP = 10
[23025] RDATA = xxxxxxxx, RLAST = 0, RRESP = 10
[23045] RDATA = xxxxxxxx, RLAST = 0, RRESP = 10
[23065] RDATA = xxxxxxxx, RLAST = 0, RRESP = 10
[23085] RDATA = xxxxxxxx, RLAST = 0, RRESP = 10
[23105] RDATA = xxxxxxxx, RLAST = 0, RRESP = 10
[23125] RDATA = xxxxxxxx, RLAST = 1, RRESP = 10
[23145] AWADDR = 6d98, AWLEN = 14
[23165] WDATA = d89ddebc, WLAST = 0
[23175] WDATA = d75827ee, WLAST = 0
[23185] WDATA = 6ef8bc8b, WLAST = 0
[23195] WDATA = 55ce7f6a, WLAST = 0
[23205] WDATA = 0068c731, WLAST = 0
[23215] WDATA = 53960dde, WLAST = 0
[23225] WDATA = 32cb4e35, WLAST = 0
[23235] WDATA = d8c40357, WLAST = 0
[23245] WDATA = cfc8334d, WLAST = 0
[23255] WDATA = 516bbd63, WLAST = 0
[23265] WDATA = b92e2a57, WLAST = 0
[23275] WDATA = f82872ef, WLAST = 0
[23285] WDATA = 3f300583, WLAST = 0
[23295] WDATA = 9bc576bd, WLAST = 0
[23305] WDATA = 984900df, WLAST = 1
[23315] BRESP = 10
[23335] ARADDR = 6d98, ARLEN = 14
[23355] RDATA = xxxxxxxx, RLAST = 0, RRESP = 10
[23375] RDATA = xxxxxxxx, RLAST = 0, RRESP = 10
[23395] RDATA = xxxxxxxx, RLAST = 0, RRESP = 10
[23415] RDATA = xxxxxxxx, RLAST = 0, RRESP = 10
[23435] RDATA = xxxxxxxx, RLAST = 0, RRESP = 10
[23455] RDATA = xxxxxxxx, RLAST = 0, RRESP = 10
[23475] RDATA = xxxxxxxx, RLAST = 0, RRESP = 10
[23495] RDATA = xxxxxxxx, RLAST = 0, RRESP = 10
[23515] RDATA = xxxxxxxx, RLAST = 0, RRESP = 10
[23535] RDATA = xxxxxxxx, RLAST = 0, RRESP = 10
[23555] RDATA = xxxxxxxx, RLAST = 0, RRESP = 10
[23575] RDATA = xxxxxxxx, RLAST = 0, RRESP = 10
[23595] RDATA = xxxxxxxx, RLAST = 0, RRESP = 10
[23615] RDATA = xxxxxxxx, RLAST = 0, RRESP = 10
[23635] RDATA = xxxxxxxx, RLAST = 1, RRESP = 10
[23655] ARADDR = 3468, ARLEN = 15
[23675] RDATA = xxxxxxxx, RLAST = 0, RRESP = 10
[23695] RDATA = xxxxxxxx, RLAST = 0, RRESP = 10
[23715] RDATA = xxxxxxxx, RLAST = 0, RRESP = 10
[23735] RDATA = xxxxxxxx, RLAST = 0, RRESP = 10
[23755] RDATA = xxxxxxxx, RLAST = 0, RRESP = 10
[23775] RDATA = xxxxxxxx, RLAST = 0, RRESP = 10
[23795] RDATA = xxxxxxxx, RLAST = 0, RRESP = 10
[23815] RDATA = xxxxxxxx, RLAST = 0, RRESP = 10
[23835] RDATA = xxxxxxxx, RLAST = 0, RRESP = 10
[23855] RDATA = xxxxxxxx, RLAST = 0, RRESP = 10
[23875] RDATA = xxxxxxxx, RLAST = 0, RRESP = 10
[23895] RDATA = xxxxxxxx, RLAST = 0, RRESP = 10
[23915] RDATA = xxxxxxxx, RLAST = 0, RRESP = 10
[23935] RDATA = xxxxxxxx, RLAST = 0, RRESP = 10
[23955] RDATA = xxxxxxxx, RLAST = 0, RRESP = 10
[23975] RDATA = xxxxxxxx, RLAST = 1, RRESP = 10
[23995] ARADDR = aaec, ARLEN = 9
[24015] RDATA = xxxxxxxx, RLAST = 0, RRESP = 10
[24035] RDATA = xxxxxxxx, RLAST = 0, RRESP = 10
[24055] RDATA = xxxxxxxx, RLAST = 0, RRESP = 10
[24075] RDATA = xxxxxxxx, RLAST = 0, RRESP = 10
[24095] RDATA = xxxxxxxx, RLAST = 0, RRESP = 10
[24115] RDATA = xxxxxxxx, RLAST = 0, RRESP = 10
[24135] RDATA = xxxxxxxx, RLAST = 0, RRESP = 10
[24155] RDATA = xxxxxxxx, RLAST = 0, RRESP = 10
[24175] RDATA = xxxxxxxx, RLAST = 0, RRESP = 10
[24195] RDATA = xxxxxxxx, RLAST = 1, RRESP = 10
[24215] ARADDR = 82f0, ARLEN = 15
[24235] RDATA = xxxxxxxx, RLAST = 0, RRESP = 10
[24255] RDATA = xxxxxxxx, RLAST = 0, RRESP = 10
[24275] RDATA = xxxxxxxx, RLAST = 0, RRESP = 10
[24295] RDATA = xxxxxxxx, RLAST = 0, RRESP = 10
[24315] RDATA = xxxxxxxx, RLAST = 0, RRESP = 10
[24335] RDATA = xxxxxxxx, RLAST = 0, RRESP = 10
[24355] RDATA = xxxxxxxx, RLAST = 0, RRESP = 10
[24375] RDATA = xxxxxxxx, RLAST = 0, RRESP = 10
[24395] RDATA = xxxxxxxx, RLAST = 0, RRESP = 10
[24415] RDATA = xxxxxxxx, RLAST = 0, RRESP = 10
[24435] RDATA = xxxxxxxx, RLAST = 0, RRESP = 10
[24455] RDATA = xxxxxxxx, RLAST = 0, RRESP = 10
[24475] RDATA = xxxxxxxx, RLAST = 0, RRESP = 10
[24495] RDATA = xxxxxxxx, RLAST = 0, RRESP = 10
[24515] RDATA = xxxxxxxx, RLAST = 0, RRESP = 10
[24535] RDATA = xxxxxxxx, RLAST = 1, RRESP = 10
[24555] ARADDR = 4d78, ARLEN = 3
[24575] RDATA = xxxxxxxx, RLAST = 0, RRESP = 10
[24595] RDATA = xxxxxxxx, RLAST = 0, RRESP = 10
[24615] RDATA = xxxxxxxx, RLAST = 0, RRESP = 10
[24635] RDATA = xxxxxxxx, RLAST = 1, RRESP = 10
[24655] ARADDR = 68d0, ARLEN = 2
[24675] RDATA = xxxxxxxx, RLAST = 0, RRESP = 10
[24695] RDATA = xxxxxxxx, RLAST = 0, RRESP = 10
[24715] RDATA = xxxxxxxx, RLAST = 1, RRESP = 10
[24735] ARADDR = 4ac8, ARLEN = 13
[24755] RDATA = xxxxxxxx, RLAST = 0, RRESP = 10
[24775] RDATA = xxxxxxxx, RLAST = 0, RRESP = 10
[24795] RDATA = xxxxxxxx, RLAST = 0, RRESP = 10
[24815] RDATA = xxxxxxxx, RLAST = 0, RRESP = 10
[24835] RDATA = xxxxxxxx, RLAST = 0, RRESP = 10
[24855] RDATA = xxxxxxxx, RLAST = 0, RRESP = 10
[24875] RDATA = xxxxxxxx, RLAST = 0, RRESP = 10
[24895] RDATA = xxxxxxxx, RLAST = 0, RRESP = 10
[24915] RDATA = xxxxxxxx, RLAST = 0, RRESP = 10
[24935] RDATA = xxxxxxxx, RLAST = 0, RRESP = 10
[24955] RDATA = xxxxxxxx, RLAST = 0, RRESP = 10
[24975] RDATA = xxxxxxxx, RLAST = 0, RRESP = 10
[24995] RDATA = xxxxxxxx, RLAST = 0, RRESP = 10
[25015] RDATA = xxxxxxxx, RLAST = 1, RRESP = 10
[25035] ARADDR = 35b8, ARLEN = 2
[25055] RDATA = xxxxxxxx, RLAST = 0, RRESP = 10
[25075] RDATA = xxxxxxxx, RLAST = 0, RRESP = 10
[25095] RDATA = xxxxxxxx, RLAST = 1, RRESP = 10
[25115] ARADDR = 7ec8, ARLEN = 6
[25135] RDATA = xxxxxxxx, RLAST = 0, RRESP = 10
[25155] RDATA = xxxxxxxx, RLAST = 0, RRESP = 10
[25175] RDATA = xxxxxxxx, RLAST = 0, RRESP = 10
[25195] RDATA = xxxxxxxx, RLAST = 0, RRESP = 10
[25215] RDATA = xxxxxxxx, RLAST = 0, RRESP = 10
[25235] RDATA = xxxxxxxx, RLAST = 0, RRESP = 10
[25255] RDATA = xxxxxxxx, RLAST = 1, RRESP = 10
[25275] ARADDR = 6224, ARLEN = 12
[25295] RDATA = xxxxxxxx, RLAST = 0, RRESP = 10
[25315] RDATA = xxxxxxxx, RLAST = 0, RRESP = 10
[25335] RDATA = xxxxxxxx, RLAST = 0, RRESP = 10
[25355] RDATA = xxxxxxxx, RLAST = 0, RRESP = 10
[25375] RDATA = xxxxxxxx, RLAST = 0, RRESP = 10
[25395] RDATA = xxxxxxxx, RLAST = 0, RRESP = 10
[25415] RDATA = xxxxxxxx, RLAST = 0, RRESP = 10
[25435] RDATA = xxxxxxxx, RLAST = 0, RRESP = 10
[25455] RDATA = xxxxxxxx, RLAST = 0, RRESP = 10
[25475] RDATA = xxxxxxxx, RLAST = 0, RRESP = 10
[25495] RDATA = xxxxxxxx, RLAST = 0, RRESP = 10
[25515] RDATA = xxxxxxxx, RLAST = 0, RRESP = 10
[25535] RDATA = xxxxxxxx, RLAST = 1, RRESP = 10
[25555] AWADDR = e900, AWLEN = 11
[25575] WDATA = 4c3f6b6a, WLAST = 0
[25585] WDATA = c7f7d414, WLAST = 0
[25595] WDATA = 7fa3b54c, WLAST = 0
[25605] WDATA = d8704877, WLAST = 0
[25615] WDATA = 5f4c75b3, WLAST = 0
[25625] WDATA = dee817f9, WLAST = 0
[25635] WDATA = 22211028, WLAST = 0
[25645] WDATA = 2cdb3515, WLAST = 0
[25655] WDATA = 7a4c0442, WLAST = 0
[25665] WDATA = 3b676cf7, WLAST = 0
[25675] WDATA = 186e5604, WLAST = 0
[25685] WDATA = 3633557a, WLAST = 1
[25695] BRESP = 10
[25715] ARADDR = e900, ARLEN = 11
[25735] RDATA = xxxxxxxx, RLAST = 0, RRESP = 10
[25755] RDATA = xxxxxxxx, RLAST = 0, RRESP = 10
[25775] RDATA = xxxxxxxx, RLAST = 0, RRESP = 10
[25795] RDATA = xxxxxxxx, RLAST = 0, RRESP = 10
[25815] RDATA = xxxxxxxx, RLAST = 0, RRESP = 10
[25835] RDATA = xxxxxxxx, RLAST = 0, RRESP = 10
[25855] RDATA = xxxxxxxx, RLAST = 0, RRESP = 10
[25875] RDATA = xxxxxxxx, RLAST = 0, RRESP = 10
[25895] RDATA = xxxxxxxx, RLAST = 0, RRESP = 10
[25915] RDATA = xxxxxxxx, RLAST = 0, RRESP = 10
[25935] RDATA = xxxxxxxx, RLAST = 0, RRESP = 10
[25955] RDATA = xxxxxxxx, RLAST = 1, RRESP = 10
[25975] ARADDR = 9938, ARLEN = 11
[25995] RDATA = xxxxxxxx, RLAST = 0, RRESP = 10
[26015] RDATA = xxxxxxxx, RLAST = 0, RRESP = 10
[26035] RDATA = xxxxxxxx, RLAST = 0, RRESP = 10
[26055] RDATA = xxxxxxxx, RLAST = 0, RRESP = 10
[26075] RDATA = xxxxxxxx, RLAST = 0, RRESP = 10
[26095] RDATA = xxxxxxxx, RLAST = 0, RRESP = 10
[26115] RDATA = xxxxxxxx, RLAST = 0, RRESP = 10
[26135] RDATA = xxxxxxxx, RLAST = 0, RRESP = 10
[26155] RDATA = xxxxxxxx, RLAST = 0, RRESP = 10
[26175] RDATA = xxxxxxxx, RLAST = 0, RRESP = 10
[26195] RDATA = xxxxxxxx, RLAST = 0, RRESP = 10
[26215] RDATA = xxxxxxxx, RLAST = 1, RRESP = 10
[26235] ARADDR = acec, ARLEN = 12
[26255] RDATA = xxxxxxxx, RLAST = 0, RRESP = 10
[26275] RDATA = xxxxxxxx, RLAST = 0, RRESP = 10
[26295] RDATA = xxxxxxxx, RLAST = 0, RRESP = 10
[26315] RDATA = xxxxxxxx, RLAST = 0, RRESP = 10
[26335] RDATA = xxxxxxxx, RLAST = 0, RRESP = 10
[26355] RDATA = xxxxxxxx, RLAST = 0, RRESP = 10
[26375] RDATA = xxxxxxxx, RLAST = 0, RRESP = 10
[26395] RDATA = xxxxxxxx, RLAST = 0, RRESP = 10
[26415] RDATA = xxxxxxxx, RLAST = 0, RRESP = 10
[26435] RDATA = xxxxxxxx, RLAST = 0, RRESP = 10
[26455] RDATA = xxxxxxxx, RLAST = 0, RRESP = 10
[26475] RDATA = xxxxxxxx, RLAST = 0, RRESP = 10
[26495] RDATA = xxxxxxxx, RLAST = 1, RRESP = 10
[26515] ARADDR = 0450, ARLEN = 14
[26535] RDATA = xxxxxxxx, RLAST = 0, RRESP = 00
[26555] RDATA = xxxxxxxx, RLAST = 0, RRESP = 00
[26575] RDATA = xxxxxxxx, RLAST = 0, RRESP = 00
[26595] RDATA = xxxxxxxx, RLAST = 0, RRESP = 00
[26615] RDATA = xxxxxxxx, RLAST = 0, RRESP = 00
[26635] RDATA = xxxxxxxx, RLAST = 0, RRESP = 00
[26655] RDATA = xxxxxxxx, RLAST = 0, RRESP = 00
[26675] RDATA = xxxxxxxx, RLAST = 0, RRESP = 00
[26695] RDATA = xxxxxxxx, RLAST = 0, RRESP = 00
[26715] RDATA = xxxxxxxx, RLAST = 0, RRESP = 00
[26735] RDATA = xxxxxxxx, RLAST = 0, RRESP = 00
[26755] RDATA = xxxxxxxx, RLAST = 0, RRESP = 00
[26775] RDATA = xxxxxxxx, RLAST = 0, RRESP = 00
[26795] RDATA = xxxxxxxx, RLAST = 0, RRESP = 00
[26815] RDATA = xxxxxxxx, RLAST = 1, RRESP = 00
[26835] AWADDR = 0dd4, AWLEN = 15
[26855] WDATA = 03f45229, WLAST = 0
[26865] WDATA = 7adcaf2a, WLAST = 0
[26875] WDATA = bb000683, WLAST = 0
[26885] WDATA = 623de092, WLAST = 0
[26895] WDATA = e041a0e8, WLAST = 0
[26905] WDATA = d0bd4afd, WLAST = 0
[26915] WDATA = 51d24c3a, WLAST = 0
[26925] WDATA = 9be31c1f, WLAST = 0
[26935] WDATA = 04615f59, WLAST = 0
[26945] WDATA = f7fb3726, WLAST = 0
[26955] WDATA = af8739bd, WLAST = 0
[26965] WDATA = f02a6d78, WLAST = 0
[26975] WDATA = af109296, WLAST = 0
[26985] WDATA = 7a8c80c9, WLAST = 0
[26995] WDATA = 92cc513e, WLAST = 0
[27005] WDATA = 99ac44f1, WLAST = 1
[27015] BRESP = 00
[27035] ARADDR = 0dd4, ARLEN = 15
[27055] RDATA = xxxxxxxx, RLAST = 0, RRESP = 00
[27075] RDATA = xxxxxxxx, RLAST = 0, RRESP = 00
[27095] RDATA = xxxxxxxx, RLAST = 0, RRESP = 00
[27115] RDATA = xxxxxxxx, RLAST = 0, RRESP = 00
[27135] RDATA = xxxxxxxx, RLAST = 0, RRESP = 00
[27155] RDATA = xxxxxxxx, RLAST = 0, RRESP = 00
[27175] RDATA = xxxxxxxx, RLAST = 0, RRESP = 00
[27195] RDATA = xxxxxxxx, RLAST = 0, RRESP = 00
[27215] RDATA = xxxxxxxx, RLAST = 0, RRESP = 00
[27235] RDATA = xxxxxxxx, RLAST = 0, RRESP = 00
[27255] RDATA = xxxxxxxx, RLAST = 0, RRESP = 00
[27275] RDATA = xxxxxxxx, RLAST = 0, RRESP = 00
[27295] RDATA = xxxxxxxx, RLAST = 0, RRESP = 00
[27315] RDATA = xxxxxxxx, RLAST = 0, RRESP = 00
[27335] RDATA = xxxxxxxx, RLAST = 0, RRESP = 00
[27355] RDATA = xxxxxxxx, RLAST = 1, RRESP = 00
[27375] ARADDR = 1c9c, ARLEN = 5
[27395] RDATA = xxxxxxxx, RLAST = 0, RRESP = 10
[27415] RDATA = xxxxxxxx, RLAST = 0, RRESP = 10
[27435] RDATA = xxxxxxxx, RLAST = 0, RRESP = 10
[27455] RDATA = xxxxxxxx, RLAST = 0, RRESP = 10
[27475] RDATA = xxxxxxxx, RLAST = 0, RRESP = 10
[27495] RDATA = xxxxxxxx, RLAST = 1, RRESP = 10
[27515] AWADDR = bd70, AWLEN = 6
[27535] WDATA = ffdc2bfe, WLAST = 0
[27545] WDATA = b2080579, WLAST = 0
[27555] WDATA = 8dd493c0, WLAST = 0
[27565] WDATA = 569a6b76, WLAST = 0
[27575] WDATA = 56179cce, WLAST = 0
[27585] WDATA = cbab63bc, WLAST = 0
[27595] WDATA = 8f561249, WLAST = 1
[27605] BRESP = 10
[27625] ARADDR = bd70, ARLEN = 6
[27645] RDATA = xxxxxxxx, RLAST = 0, RRESP = 10
[27665] RDATA = xxxxxxxx, RLAST = 0, RRESP = 10
[27685] RDATA = xxxxxxxx, RLAST = 0, RRESP = 10
[27705] RDATA = xxxxxxxx, RLAST = 0, RRESP = 10
[27725] RDATA = xxxxxxxx, RLAST = 0, RRESP = 10
[27745] RDATA = xxxxxxxx, RLAST = 0, RRESP = 10
[27765] RDATA = xxxxxxxx, RLAST = 1, RRESP = 10
[27785] ARADDR = 4d84, ARLEN = 2
[27805] RDATA = xxxxxxxx, RLAST = 0, RRESP = 10
[27825] RDATA = xxxxxxxx, RLAST = 0, RRESP = 10
[27845] RDATA = xxxxxxxx, RLAST = 1, RRESP = 10
[27865] ARADDR = dd7c, ARLEN = 4
[27885] RDATA = xxxxxxxx, RLAST = 0, RRESP = 10
[27905] RDATA = xxxxxxxx, RLAST = 0, RRESP = 10
[27925] RDATA = xxxxxxxx, RLAST = 0, RRESP = 10
[27945] RDATA = xxxxxxxx, RLAST = 0, RRESP = 10
[27965] RDATA = xxxxxxxx, RLAST = 1, RRESP = 10
[27985] ARADDR = 120c, ARLEN = 13
[28005] RDATA = xxxxxxxx, RLAST = 0, RRESP = 10
[28025] RDATA = xxxxxxxx, RLAST = 0, RRESP = 10
[28045] RDATA = xxxxxxxx, RLAST = 0, RRESP = 10
[28065] RDATA = xxxxxxxx, RLAST = 0, RRESP = 10
[28085] RDATA = xxxxxxxx, RLAST = 0, RRESP = 10
[28105] RDATA = xxxxxxxx, RLAST = 0, RRESP = 10
[28125] RDATA = xxxxxxxx, RLAST = 0, RRESP = 10
[28145] RDATA = xxxxxxxx, RLAST = 0, RRESP = 10
[28165] RDATA = xxxxxxxx, RLAST = 0, RRESP = 10
[28185] RDATA = xxxxxxxx, RLAST = 0, RRESP = 10
[28205] RDATA = xxxxxxxx, RLAST = 0, RRESP = 10
[28225] RDATA = xxxxxxxx, RLAST = 0, RRESP = 10
[28245] RDATA = xxxxxxxx, RLAST = 0, RRESP = 10
[28265] RDATA = xxxxxxxx, RLAST = 1, RRESP = 10
[28285] AWADDR = c05c, AWLEN = 8
[28305] WDATA = 48446e92, WLAST = 0
[28315] WDATA = ae89715c, WLAST = 0
[28325] WDATA = 4243a015, WLAST = 0
[28335] WDATA = d650f46b, WLAST = 0
[28345] WDATA = ae6572a1, WLAST = 0
[28355] WDATA = 19710e88, WLAST = 0
[28365] WDATA = 688d1484, WLAST = 0
[28375] WDATA = eb0ef5eb, WLAST = 0
[28385] WDATA = b740c1b9, WLAST = 1
[28395] BRESP = 10
[28415] ARADDR = c05c, ARLEN = 8
[28435] RDATA = xxxxxxxx, RLAST = 0, RRESP = 10
[28455] RDATA = xxxxxxxx, RLAST = 0, RRESP = 10
[28475] RDATA = xxxxxxxx, RLAST = 0, RRESP = 10
[28495] RDATA = xxxxxxxx, RLAST = 0, RRESP = 10
[28515] RDATA = xxxxxxxx, RLAST = 0, RRESP = 10
[28535] RDATA = xxxxxxxx, RLAST = 0, RRESP = 10
[28555] RDATA = xxxxxxxx, RLAST = 0, RRESP = 10
[28575] RDATA = xxxxxxxx, RLAST = 0, RRESP = 10
[28595] RDATA = xxxxxxxx, RLAST = 1, RRESP = 10
[28615] AWADDR = df94, AWLEN = 15
[28635] WDATA = 2c3347bb, WLAST = 0
[28645] WDATA = 235b603a, WLAST = 0
[28655] WDATA = 2fafb5ae, WLAST = 0
[28665] WDATA = 987954b3, WLAST = 0
[28675] WDATA = 1c9b462f, WLAST = 0
[28685] WDATA = 07500bb1, WLAST = 0
[28695] WDATA = 29140f5b, WLAST = 0
[28705] WDATA = d65b11e8, WLAST = 0
[28715] WDATA = 13ab4dd9, WLAST = 0
[28725] WDATA = 3fc837ad, WLAST = 0
[28735] WDATA = 13fb7f5e, WLAST = 0
[28745] WDATA = 9645ffc0, WLAST = 0
[28755] WDATA = 1b090880, WLAST = 0
[28765] WDATA = f6607cbd, WLAST = 0
[28775] WDATA = d9a07fbf, WLAST = 0
[28785] WDATA = dd03fd64, WLAST = 1
[28795] BRESP = 10
[28815] ARADDR = df94, ARLEN = 15
[28835] RDATA = xxxxxxxx, RLAST = 0, RRESP = 10
[28855] RDATA = xxxxxxxx, RLAST = 0, RRESP = 10
[28875] RDATA = xxxxxxxx, RLAST = 0, RRESP = 10
[28895] RDATA = xxxxxxxx, RLAST = 0, RRESP = 10
[28915] RDATA = xxxxxxxx, RLAST = 0, RRESP = 10
[28935] RDATA = xxxxxxxx, RLAST = 0, RRESP = 10
[28955] RDATA = xxxxxxxx, RLAST = 0, RRESP = 10
[28975] RDATA = xxxxxxxx, RLAST = 0, RRESP = 10
[28995] RDATA = xxxxxxxx, RLAST = 0, RRESP = 10
[29015] RDATA = xxxxxxxx, RLAST = 0, RRESP = 10
[29035] RDATA = xxxxxxxx, RLAST = 0, RRESP = 10
[29055] RDATA = xxxxxxxx, RLAST = 0, RRESP = 10
[29075] RDATA = xxxxxxxx, RLAST = 0, RRESP = 10
[29095] RDATA = xxxxxxxx, RLAST = 0, RRESP = 10
[29115] RDATA = xxxxxxxx, RLAST = 0, RRESP = 10
[29135] RDATA = xxxxxxxx, RLAST = 1, RRESP = 10
[29155] ARADDR = 64d8, ARLEN = 14
[29175] RDATA = xxxxxxxx, RLAST = 0, RRESP = 10
[29195] RDATA = xxxxxxxx, RLAST = 0, RRESP = 10
[29215] RDATA = xxxxxxxx, RLAST = 0, RRESP = 10
[29235] RDATA = xxxxxxxx, RLAST = 0, RRESP = 10
[29255] RDATA = xxxxxxxx, RLAST = 0, RRESP = 10
[29275] RDATA = xxxxxxxx, RLAST = 0, RRESP = 10
[29295] RDATA = xxxxxxxx, RLAST = 0, RRESP = 10
[29315] RDATA = xxxxxxxx, RLAST = 0, RRESP = 10
[29335] RDATA = xxxxxxxx, RLAST = 0, RRESP = 10
[29355] RDATA = xxxxxxxx, RLAST = 0, RRESP = 10
[29375] RDATA = xxxxxxxx, RLAST = 0, RRESP = 10
[29395] RDATA = xxxxxxxx, RLAST = 0, RRESP = 10
[29415] RDATA = xxxxxxxx, RLAST = 0, RRESP = 10
[29435] RDATA = xxxxxxxx, RLAST = 0, RRESP = 10
[29455] RDATA = xxxxxxxx, RLAST = 1, RRESP = 10
[29475] ARADDR = cb1c, ARLEN = 13
[29495] RDATA = xxxxxxxx, RLAST = 0, RRESP = 10
[29515] RDATA = xxxxxxxx, RLAST = 0, RRESP = 10
[29535] RDATA = xxxxxxxx, RLAST = 0, RRESP = 10
[29555] RDATA = xxxxxxxx, RLAST = 0, RRESP = 10
[29575] RDATA = xxxxxxxx, RLAST = 0, RRESP = 10
[29595] RDATA = xxxxxxxx, RLAST = 0, RRESP = 10
[29615] RDATA = xxxxxxxx, RLAST = 0, RRESP = 10
[29635] RDATA = xxxxxxxx, RLAST = 0, RRESP = 10
[29655] RDATA = xxxxxxxx, RLAST = 0, RRESP = 10
[29675] RDATA = xxxxxxxx, RLAST = 0, RRESP = 10
[29695] RDATA = xxxxxxxx, RLAST = 0, RRESP = 10
[29715] RDATA = xxxxxxxx, RLAST = 0, RRESP = 10
[29735] RDATA = xxxxxxxx, RLAST = 0, RRESP = 10
[29755] RDATA = xxxxxxxx, RLAST = 1, RRESP = 10
[29775] AWADDR = 8014, AWLEN = 2
[29795] WDATA = 761e863d, WLAST = 0
[29805] WDATA = 74d347d1, WLAST = 0
[29815] WDATA = 467e02de, WLAST = 1
[29825] BRESP = 10
[29845] ARADDR = 8014, ARLEN = 2
[29865] RDATA = xxxxxxxx, RLAST = 0, RRESP = 10
[29885] RDATA = xxxxxxxx, RLAST = 0, RRESP = 10
[29905] RDATA = xxxxxxxx, RLAST = 1, RRESP = 10
[29925] ARADDR = 019c, ARLEN = 15
[29945] RDATA = xxxxxxxx, RLAST = 0, RRESP = 00
[29965] RDATA = xxxxxxxx, RLAST = 0, RRESP = 00
[29985] RDATA = xxxxxxxx, RLAST = 0, RRESP = 00
[30005] RDATA = xxxxxxxx, RLAST = 0, RRESP = 00
[30025] RDATA = xxxxxxxx, RLAST = 0, RRESP = 00
[30045] RDATA = xxxxxxxx, RLAST = 0, RRESP = 00
[30065] RDATA = xxxxxxxx, RLAST = 0, RRESP = 00
[30085] RDATA = xxxxxxxx, RLAST = 0, RRESP = 00
[30105] RDATA = xxxxxxxx, RLAST = 0, RRESP = 00
[30125] RDATA = xxxxxxxx, RLAST = 0, RRESP = 00
[30145] RDATA = xxxxxxxx, RLAST = 0, RRESP = 00
[30165] RDATA = xxxxxxxx, RLAST = 0, RRESP = 00
[30185] RDATA = xxxxxxxx, RLAST = 0, RRESP = 00
[30205] RDATA = xxxxxxxx, RLAST = 0, RRESP = 00
[30225] RDATA = xxxxxxxx, RLAST = 0, RRESP = 00
[30245] RDATA = xxxxxxxx, RLAST = 1, RRESP = 00
[30265] AWADDR = 3f94, AWLEN = 10
[30285] WDATA = 86520156, WLAST = 0
[30295] WDATA = af3e810a, WLAST = 0
[30305] WDATA = 66809b90, WLAST = 0
[30315] WDATA = b3470ef1, WLAST = 0
[30325] WDATA = 2a7b4f52, WLAST = 0
[30335] WDATA = a3c66218, WLAST = 0
[30345] WDATA = 04b06d35, WLAST = 0
[30355] WDATA = 96cd4597, WLAST = 0
[30365] WDATA = a74e8530, WLAST = 0
[30375] WDATA = 4a137fd2, WLAST = 0
[30385] WDATA = a1a44902, WLAST = 1
[30395] BRESP = 10
[30415] ARADDR = 3f94, ARLEN = 10
[30435] RDATA = xxxxxxxx, RLAST = 0, RRESP = 10
[30455] RDATA = xxxxxxxx, RLAST = 0, RRESP = 10
[30475] RDATA = xxxxxxxx, RLAST = 0, RRESP = 10
[30495] RDATA = xxxxxxxx, RLAST = 0, RRESP = 10
[30515] RDATA = xxxxxxxx, RLAST = 0, RRESP = 10
[30535] RDATA = xxxxxxxx, RLAST = 0, RRESP = 10
[30555] RDATA = xxxxxxxx, RLAST = 0, RRESP = 10
[30575] RDATA = xxxxxxxx, RLAST = 0, RRESP = 10
[30595] RDATA = xxxxxxxx, RLAST = 0, RRESP = 10
[30615] RDATA = xxxxxxxx, RLAST = 0, RRESP = 10
[30635] RDATA = xxxxxxxx, RLAST = 1, RRESP = 10
[30655] AWADDR = 0cac, AWLEN = 15
[30675] WDATA = b134c762, WLAST = 0
[30685] WDATA = 24bdc598, WLAST = 0
[30695] WDATA = faad7236, WLAST = 0
[30705] WDATA = 25ac8004, WLAST = 0
[30715] WDATA = 554508a0, WLAST = 0
[30725] WDATA = 1e90694e, WLAST = 0
[30735] WDATA = 0466ac54, WLAST = 0
[30745] WDATA = 811352df, WLAST = 0
[30755] WDATA = f373f776, WLAST = 0
[30765] WDATA = be5db140, WLAST = 0
[30775] WDATA = 1927215a, WLAST = 0
[30785] WDATA = 04efb4fc, WLAST = 0
[30795] WDATA = 02febe1f, WLAST = 0
[30805] WDATA = 4983dbca, WLAST = 0
[30815] WDATA = 2757e50f, WLAST = 0
[30825] WDATA = fc270199, WLAST = 1
[30835] BRESP = 00
[30855] ARADDR = 0cac, ARLEN = 15
[30875] RDATA = xxxxxxxx, RLAST = 0, RRESP = 00
[30895] RDATA = xxxxxxxx, RLAST = 0, RRESP = 00
[30915] RDATA = xxxxxxxx, RLAST = 0, RRESP = 00
[30935] RDATA = xxxxxxxx, RLAST = 0, RRESP = 00
[30955] RDATA = xxxxxxxx, RLAST = 0, RRESP = 00
[30975] RDATA = xxxxxxxx, RLAST = 0, RRESP = 00
[30995] RDATA = xxxxxxxx, RLAST = 0, RRESP = 00
[31015] RDATA = xxxxxxxx, RLAST = 0, RRESP = 00
[31035] RDATA = xxxxxxxx, RLAST = 0, RRESP = 00
[31055] RDATA = xxxxxxxx, RLAST = 0, RRESP = 00
[31075] RDATA = xxxxxxxx, RLAST = 0, RRESP = 00
[31095] RDATA = xxxxxxxx, RLAST = 0, RRESP = 00
[31115] RDATA = xxxxxxxx, RLAST = 0, RRESP = 00
[31135] RDATA = xxxxxxxx, RLAST = 0, RRESP = 00
[31155] RDATA = xxxxxxxx, RLAST = 0, RRESP = 00
[31175] RDATA = xxxxxxxx, RLAST = 1, RRESP = 00
[31195] ARADDR = e158, ARLEN = 4
[31215] RDATA = xxxxxxxx, RLAST = 0, RRESP = 10
[31235] RDATA = xxxxxxxx, RLAST = 0, RRESP = 10
[31255] RDATA = xxxxxxxx, RLAST = 0, RRESP = 10
[31275] RDATA = xxxxxxxx, RLAST = 0, RRESP = 10
[31295] RDATA = xxxxxxxx, RLAST = 1, RRESP = 10
[31315] ARADDR = 69a0, ARLEN = 12
[31335] RDATA = xxxxxxxx, RLAST = 0, RRESP = 10
[31355] RDATA = xxxxxxxx, RLAST = 0, RRESP = 10
[31375] RDATA = xxxxxxxx, RLAST = 0, RRESP = 10
[31395] RDATA = xxxxxxxx, RLAST = 0, RRESP = 10
[31415] RDATA = xxxxxxxx, RLAST = 0, RRESP = 10
[31435] RDATA = xxxxxxxx, RLAST = 0, RRESP = 10
[31455] RDATA = xxxxxxxx, RLAST = 0, RRESP = 10
[31475] RDATA = xxxxxxxx, RLAST = 0, RRESP = 10
[31495] RDATA = xxxxxxxx, RLAST = 0, RRESP = 10
[31515] RDATA = xxxxxxxx, RLAST = 0, RRESP = 10
[31535] RDATA = xxxxxxxx, RLAST = 0, RRESP = 10
[31555] RDATA = xxxxxxxx, RLAST = 0, RRESP = 10
[31575] RDATA = xxxxxxxx, RLAST = 1, RRESP = 10
[31595] AWADDR = 1ee8, AWLEN = 8
[31615] WDATA = b705c884, WLAST = 0
[31625] WDATA = dc1fe76f, WLAST = 0
[31635] WDATA = 96a0ba1e, WLAST = 0
[31645] WDATA = 9c666577, WLAST = 0
[31655] WDATA = 1b27b08f, WLAST = 0
[31665] WDATA = 1fddf5c5, WLAST = 0
[31675] WDATA = 0117b1ad, WLAST = 0
[31685] WDATA = d7ee1abd, WLAST = 0
[31695] WDATA = 1afb042b, WLAST = 1
[31705] BRESP = 10
[31725] ARADDR = 1ee8, ARLEN = 8
[31745] RDATA = xxxxxxxx, RLAST = 0, RRESP = 10
[31765] RDATA = xxxxxxxx, RLAST = 0, RRESP = 10
[31785] RDATA = xxxxxxxx, RLAST = 0, RRESP = 10
[31805] RDATA = xxxxxxxx, RLAST = 0, RRESP = 10
[31825] RDATA = xxxxxxxx, RLAST = 0, RRESP = 10
[31845] RDATA = xxxxxxxx, RLAST = 0, RRESP = 10
[31865] RDATA = xxxxxxxx, RLAST = 0, RRESP = 10
[31885] RDATA = xxxxxxxx, RLAST = 0, RRESP = 10
[31905] RDATA = xxxxxxxx, RLAST = 1, RRESP = 10
[31925] ARADDR = aab0, ARLEN = 13
[31945] RDATA = xxxxxxxx, RLAST = 0, RRESP = 10
[31965] RDATA = xxxxxxxx, RLAST = 0, RRESP = 10
[31985] RDATA = xxxxxxxx, RLAST = 0, RRESP = 10
[32005] RDATA = xxxxxxxx, RLAST = 0, RRESP = 10
[32025] RDATA = xxxxxxxx, RLAST = 0, RRESP = 10
[32045] RDATA = xxxxxxxx, RLAST = 0, RRESP = 10
[32065] RDATA = xxxxxxxx, RLAST = 0, RRESP = 10
[32085] RDATA = xxxxxxxx, RLAST = 0, RRESP = 10
[32105] RDATA = xxxxxxxx, RLAST = 0, RRESP = 10
[32125] RDATA = xxxxxxxx, RLAST = 0, RRESP = 10
[32145] RDATA = xxxxxxxx, RLAST = 0, RRESP = 10
[32165] RDATA = xxxxxxxx, RLAST = 0, RRESP = 10
[32185] RDATA = xxxxxxxx, RLAST = 0, RRESP = 10
[32205] RDATA = xxxxxxxx, RLAST = 1, RRESP = 10
[32225] AWADDR = 9f20, AWLEN = 8
[32245] WDATA = 16550b97, WLAST = 0
[32255] WDATA = ccecc3d0, WLAST = 0
[32265] WDATA = fcb347be, WLAST = 0
[32275] WDATA = 2b07c9d8, WLAST = 0
[32285] WDATA = 186a3031, WLAST = 0
[32295] WDATA = bedfd746, WLAST = 0
[32305] WDATA = 2a1753f1, WLAST = 0
[32315] WDATA = 65a55d44, WLAST = 0
[32325] WDATA = 74b1d6e6, WLAST = 1
[32335] BRESP = 10
[32355] ARADDR = 9f20, ARLEN = 8
[32375] RDATA = xxxxxxxx, RLAST = 0, RRESP = 10
[32395] RDATA = xxxxxxxx, RLAST = 0, RRESP = 10
[32415] RDATA = xxxxxxxx, RLAST = 0, RRESP = 10
[32435] RDATA = xxxxxxxx, RLAST = 0, RRESP = 10
[32455] RDATA = xxxxxxxx, RLAST = 0, RRESP = 10
[32475] RDATA = xxxxxxxx, RLAST = 0, RRESP = 10
[32495] RDATA = xxxxxxxx, RLAST = 0, RRESP = 10
[32515] RDATA = xxxxxxxx, RLAST = 0, RRESP = 10
[32535] RDATA = xxxxxxxx, RLAST = 1, RRESP = 10
[32555] AWADDR = 7d44, AWLEN = 13
[32575] WDATA = d49547c4, WLAST = 0
[32585] WDATA = 9cb818f4, WLAST = 0
[32595] WDATA = 833a60eb, WLAST = 0
[32605] WDATA = f5af0d7f, WLAST = 0
[32615] WDATA = 8b7522f4, WLAST = 0
[32625] WDATA = ba653f53, WLAST = 0
[32635] WDATA = c4452053, WLAST = 0
[32645] WDATA = ed8ed46f, WLAST = 0
[32655] WDATA = 791accd9, WLAST = 0
[32665] WDATA = fee26805, WLAST = 0
[32675] WDATA = 419865bb, WLAST = 0
[32685] WDATA = 146284d1, WLAST = 0
[32695] WDATA = 9f919c61, WLAST = 0
[32705] WDATA = 49a9485b, WLAST = 1
[32715] BRESP = 10
[32735] ARADDR = 7d44, ARLEN = 13
[32755] RDATA = xxxxxxxx, RLAST = 0, RRESP = 10
[32775] RDATA = xxxxxxxx, RLAST = 0, RRESP = 10
[32795] RDATA = xxxxxxxx, RLAST = 0, RRESP = 10
[32815] RDATA = xxxxxxxx, RLAST = 0, RRESP = 10
[32835] RDATA = xxxxxxxx, RLAST = 0, RRESP = 10
[32855] RDATA = xxxxxxxx, RLAST = 0, RRESP = 10
[32875] RDATA = xxxxxxxx, RLAST = 0, RRESP = 10
[32895] RDATA = xxxxxxxx, RLAST = 0, RRESP = 10
[32915] RDATA = xxxxxxxx, RLAST = 0, RRESP = 10
[32935] RDATA = xxxxxxxx, RLAST = 0, RRESP = 10
[32955] RDATA = xxxxxxxx, RLAST = 0, RRESP = 10
[32975] RDATA = xxxxxxxx, RLAST = 0, RRESP = 10
[32995] RDATA = xxxxxxxx, RLAST = 0, RRESP = 10
[33015] RDATA = xxxxxxxx, RLAST = 1, RRESP = 10
[33035] ARADDR = 18d8, ARLEN = 15
[33055] RDATA = xxxxxxxx, RLAST = 0, RRESP = 10
[33075] RDATA = xxxxxxxx, RLAST = 0, RRESP = 10
[33095] RDATA = xxxxxxxx, RLAST = 0, RRESP = 10
[33115] RDATA = xxxxxxxx, RLAST = 0, RRESP = 10
[33135] RDATA = xxxxxxxx, RLAST = 0, RRESP = 10
[33155] RDATA = xxxxxxxx, RLAST = 0, RRESP = 10
[33175] RDATA = xxxxxxxx, RLAST = 0, RRESP = 10
[33195] RDATA = xxxxxxxx, RLAST = 0, RRESP = 10
[33215] RDATA = xxxxxxxx, RLAST = 0, RRESP = 10
[33235] RDATA = xxxxxxxx, RLAST = 0, RRESP = 10
[33255] RDATA = xxxxxxxx, RLAST = 0, RRESP = 10
[33275] RDATA = xxxxxxxx, RLAST = 0, RRESP = 10
[33295] RDATA = xxxxxxxx, RLAST = 0, RRESP = 10
[33315] RDATA = xxxxxxxx, RLAST = 0, RRESP = 10
[33335] RDATA = xxxxxxxx, RLAST = 0, RRESP = 10
[33355] RDATA = xxxxxxxx, RLAST = 1, RRESP = 10
[33375] ARADDR = ccc0, ARLEN = 11
[33395] RDATA = xxxxxxxx, RLAST = 0, RRESP = 10
[33415] RDATA = xxxxxxxx, RLAST = 0, RRESP = 10
[33435] RDATA = xxxxxxxx, RLAST = 0, RRESP = 10
[33455] RDATA = xxxxxxxx, RLAST = 0, RRESP = 10
[33475] RDATA = xxxxxxxx, RLAST = 0, RRESP = 10
[33495] RDATA = xxxxxxxx, RLAST = 0, RRESP = 10
[33515] RDATA = xxxxxxxx, RLAST = 0, RRESP = 10
[33535] RDATA = xxxxxxxx, RLAST = 0, RRESP = 10
[33555] RDATA = xxxxxxxx, RLAST = 0, RRESP = 10
[33575] RDATA = xxxxxxxx, RLAST = 0, RRESP = 10
[33595] RDATA = xxxxxxxx, RLAST = 0, RRESP = 10
[33615] RDATA = xxxxxxxx, RLAST = 1, RRESP = 10
[33635] ARADDR = 5cac, ARLEN = 14
[33655] RDATA = xxxxxxxx, RLAST = 0, RRESP = 10
[33675] RDATA = xxxxxxxx, RLAST = 0, RRESP = 10
[33695] RDATA = xxxxxxxx, RLAST = 0, RRESP = 10
[33715] RDATA = xxxxxxxx, RLAST = 0, RRESP = 10
[33735] RDATA = xxxxxxxx, RLAST = 0, RRESP = 10
[33755] RDATA = xxxxxxxx, RLAST = 0, RRESP = 10
[33775] RDATA = xxxxxxxx, RLAST = 0, RRESP = 10
[33795] RDATA = xxxxxxxx, RLAST = 0, RRESP = 10
[33815] RDATA = xxxxxxxx, RLAST = 0, RRESP = 10
[33835] RDATA = xxxxxxxx, RLAST = 0, RRESP = 10
[33855] RDATA = xxxxxxxx, RLAST = 0, RRESP = 10
[33875] RDATA = xxxxxxxx, RLAST = 0, RRESP = 10
[33895] RDATA = xxxxxxxx, RLAST = 0, RRESP = 10
[33915] RDATA = xxxxxxxx, RLAST = 0, RRESP = 10
[33935] RDATA = xxxxxxxx, RLAST = 1, RRESP = 10
[33955] ARADDR = 0ba8, ARLEN = 15
[33975] RDATA = xxxxxxxx, RLAST = 0, RRESP = 00
[33995] RDATA = xxxxxxxx, RLAST = 0, RRESP = 00
[34015] RDATA = xxxxxxxx, RLAST = 0, RRESP = 00
[34035] RDATA = xxxxxxxx, RLAST = 0, RRESP = 00
[34055] RDATA = xxxxxxxx, RLAST = 0, RRESP = 00
[34075] RDATA = xxxxxxxx, RLAST = 0, RRESP = 00
[34095] RDATA = xxxxxxxx, RLAST = 0, RRESP = 00
[34115] RDATA = xxxxxxxx, RLAST = 0, RRESP = 00
[34135] RDATA = xxxxxxxx, RLAST = 0, RRESP = 00
[34155] RDATA = xxxxxxxx, RLAST = 0, RRESP = 00
[34175] RDATA = xxxxxxxx, RLAST = 0, RRESP = 00
[34195] RDATA = xxxxxxxx, RLAST = 0, RRESP = 00
[34215] RDATA = xxxxxxxx, RLAST = 0, RRESP = 00
[34235] RDATA = xxxxxxxx, RLAST = 0, RRESP = 00
[34255] RDATA = xxxxxxxx, RLAST = 0, RRESP = 00
[34275] RDATA = xxxxxxxx, RLAST = 1, RRESP = 00
[34295] AWADDR = 53ec, AWLEN = 9
[34315] WDATA = 41b9c31c, WLAST = 0
[34325] WDATA = 1349e4d4, WLAST = 0
[34335] WDATA = 2e892543, WLAST = 0
[34345] WDATA = f5226a0f, WLAST = 0
[34355] WDATA = 1790406d, WLAST = 0
[34365] WDATA = 65a3a228, WLAST = 0
[34375] WDATA = 7bb395d5, WLAST = 0
[34385] WDATA = 807d992d, WLAST = 0
[34395] WDATA = 26c19599, WLAST = 0
[34405] WDATA = a54467fa, WLAST = 1
[34415] BRESP = 10
[34435] ARADDR = 53ec, ARLEN = 9
[34455] RDATA = xxxxxxxx, RLAST = 0, RRESP = 10
[34475] RDATA = xxxxxxxx, RLAST = 0, RRESP = 10
[34495] RDATA = xxxxxxxx, RLAST = 0, RRESP = 10
[34515] RDATA = xxxxxxxx, RLAST = 0, RRESP = 10
[34535] RDATA = xxxxxxxx, RLAST = 0, RRESP = 10
[34555] RDATA = xxxxxxxx, RLAST = 0, RRESP = 10
[34575] RDATA = xxxxxxxx, RLAST = 0, RRESP = 10
[34595] RDATA = xxxxxxxx, RLAST = 0, RRESP = 10
[34615] RDATA = xxxxxxxx, RLAST = 0, RRESP = 10
[34635] RDATA = xxxxxxxx, RLAST = 1, RRESP = 10
[34655] AWADDR = c384, AWLEN = 8
[34675] WDATA = ec2e754f, WLAST = 0
[34685] WDATA = 8fb4fa5c, WLAST = 0
[34695] WDATA = 9ac93fd8, WLAST = 0
[34705] WDATA = 56eb7fa7, WLAST = 0
[34715] WDATA = 36f33a98, WLAST = 0
[34725] WDATA = 65b5619b, WLAST = 0
[34735] WDATA = 716ad95c, WLAST = 0
[34745] WDATA = f138e01e, WLAST = 0
[34755] WDATA = 7015cdaa, WLAST = 1
[34765] BRESP = 10
[34785] ARADDR = c384, ARLEN = 8
[34805] RDATA = xxxxxxxx, RLAST = 0, RRESP = 10
[34825] RDATA = xxxxxxxx, RLAST = 0, RRESP = 10
[34845] RDATA = xxxxxxxx, RLAST = 0, RRESP = 10
[34865] RDATA = xxxxxxxx, RLAST = 0, RRESP = 10
[34885] RDATA = xxxxxxxx, RLAST = 0, RRESP = 10
[34905] RDATA = xxxxxxxx, RLAST = 0, RRESP = 10
[34925] RDATA = xxxxxxxx, RLAST = 0, RRESP = 10
[34945] RDATA = xxxxxxxx, RLAST = 0, RRESP = 10
[34965] RDATA = xxxxxxxx, RLAST = 1, RRESP = 10
[34985] AWADDR = 573c, AWLEN = 9
[35005] WDATA = 2d61a050, WLAST = 0
[35015] WDATA = 2d63237f, WLAST = 0
[35025] WDATA = 6f2d36b9, WLAST = 0
[35035] WDATA = 15da7fc6, WLAST = 0
[35045] WDATA = ab07eff1, WLAST = 0
[35055] WDATA = ecf8a73f, WLAST = 0
[35065] WDATA = 7411cc60, WLAST = 0
[35075] WDATA = e5d00c1b, WLAST = 0
[35085] WDATA = b22d6727, WLAST = 0
[35095] WDATA = 9aa3c818, WLAST = 1
[35105] BRESP = 10
[35125] ARADDR = 573c, ARLEN = 9
[35145] RDATA = xxxxxxxx, RLAST = 0, RRESP = 10
[35165] RDATA = xxxxxxxx, RLAST = 0, RRESP = 10
[35185] RDATA = xxxxxxxx, RLAST = 0, RRESP = 10
[35205] RDATA = xxxxxxxx, RLAST = 0, RRESP = 10
[35225] RDATA = xxxxxxxx, RLAST = 0, RRESP = 10
[35245] RDATA = xxxxxxxx, RLAST = 0, RRESP = 10
[35265] RDATA = xxxxxxxx, RLAST = 0, RRESP = 10
[35285] RDATA = xxxxxxxx, RLAST = 0, RRESP = 10
[35305] RDATA = xxxxxxxx, RLAST = 0, RRESP = 10
[35325] RDATA = xxxxxxxx, RLAST = 1, RRESP = 10
[35345] AWADDR = 5be4, AWLEN = 1
[35365] WDATA = 2daac47f, WLAST = 0
[35375] WDATA = 944c6911, WLAST = 1
[35385] BRESP = 10
[35405] ARADDR = 5be4, ARLEN = 1
[35425] RDATA = xxxxxxxx, RLAST = 0, RRESP = 10
[35445] RDATA = xxxxxxxx, RLAST = 1, RRESP = 10
[35465] AWADDR = ab2c, AWLEN = 3
[35485] WDATA = a60d85ae, WLAST = 0
[35495] WDATA = 84d21af2, WLAST = 0
[35505] WDATA = f814d30e, WLAST = 0
[35515] WDATA = d8535085, WLAST = 1
[35525] BRESP = 10
[35545] ARADDR = ab2c, ARLEN = 3
[35565] RDATA = xxxxxxxx, RLAST = 0, RRESP = 10
[35585] RDATA = xxxxxxxx, RLAST = 0, RRESP = 10
[35605] RDATA = xxxxxxxx, RLAST = 0, RRESP = 10
[35625] RDATA = xxxxxxxx, RLAST = 1, RRESP = 10
[35645] AWADDR = 9a34, AWLEN = 1
[35665] WDATA = 918dc1d1, WLAST = 0
[35675] WDATA = f843560e, WLAST = 1
[35685] BRESP = 10
[35705] ARADDR = 9a34, ARLEN = 1
[35725] RDATA = xxxxxxxx, RLAST = 0, RRESP = 10
[35745] RDATA = xxxxxxxx, RLAST = 1, RRESP = 10
[35765] AWADDR = c7c4, AWLEN = 13
[35785] WDATA = 08d1928c, WLAST = 0
[35795] WDATA = 2c46a5dd, WLAST = 0
[35805] WDATA = 609e073a, WLAST = 0
[35815] WDATA = 228649c4, WLAST = 0
[35825] WDATA = 70755e5c, WLAST = 0
[35835] WDATA = 1e42df07, WLAST = 0
[35845] WDATA = 76a2c996, WLAST = 0
[35855] WDATA = a16ad3d2, WLAST = 0
[35865] WDATA = 851f248a, WLAST = 0
[35875] WDATA = 777a9894, WLAST = 0
[35885] WDATA = 7c401002, WLAST = 0
[35895] WDATA = 7a032ac1, WLAST = 0
[35905] WDATA = 415122d3, WLAST = 0
[35915] WDATA = 8cd036cf, WLAST = 1
[35925] BRESP = 10
[35945] ARADDR = c7c4, ARLEN = 13
[35965] RDATA = xxxxxxxx, RLAST = 0, RRESP = 10
[35985] RDATA = xxxxxxxx, RLAST = 0, RRESP = 10
[36005] RDATA = xxxxxxxx, RLAST = 0, RRESP = 10
[36025] RDATA = xxxxxxxx, RLAST = 0, RRESP = 10
[36045] RDATA = xxxxxxxx, RLAST = 0, RRESP = 10
[36065] RDATA = xxxxxxxx, RLAST = 0, RRESP = 10
[36085] RDATA = xxxxxxxx, RLAST = 0, RRESP = 10
[36105] RDATA = xxxxxxxx, RLAST = 0, RRESP = 10
[36125] RDATA = xxxxxxxx, RLAST = 0, RRESP = 10
[36145] RDATA = xxxxxxxx, RLAST = 0, RRESP = 10
[36165] RDATA = xxxxxxxx, RLAST = 0, RRESP = 10
[36185] RDATA = xxxxxxxx, RLAST = 0, RRESP = 10
[36205] RDATA = xxxxxxxx, RLAST = 0, RRESP = 10
[36225] RDATA = xxxxxxxx, RLAST = 1, RRESP = 10
[36245] AWADDR = f86c, AWLEN = 8
[36265] WDATA = a9339be0, WLAST = 0
[36275] WDATA = be96d0e9, WLAST = 0
[36285] WDATA = e1854097, WLAST = 0
[36295] WDATA = dcd6cd9c, WLAST = 0
[36305] WDATA = 19719e93, WLAST = 0
[36315] WDATA = a2426805, WLAST = 0
[36325] WDATA = e5bc8722, WLAST = 0
[36335] WDATA = 0b1efbcd, WLAST = 0
[36345] WDATA = 29197d76, WLAST = 1
[36355] BRESP = 10
[36375] ARADDR = f86c, ARLEN = 8
[36395] RDATA = xxxxxxxx, RLAST = 0, RRESP = 10
[36415] RDATA = xxxxxxxx, RLAST = 0, RRESP = 10
[36435] RDATA = xxxxxxxx, RLAST = 0, RRESP = 10
[36455] RDATA = xxxxxxxx, RLAST = 0, RRESP = 10
[36475] RDATA = xxxxxxxx, RLAST = 0, RRESP = 10
[36495] RDATA = xxxxxxxx, RLAST = 0, RRESP = 10
[36515] RDATA = xxxxxxxx, RLAST = 0, RRESP = 10
[36535] RDATA = xxxxxxxx, RLAST = 0, RRESP = 10
[36555] RDATA = xxxxxxxx, RLAST = 1, RRESP = 10
[36575] ARADDR = b328, ARLEN = 11
[36595] RDATA = xxxxxxxx, RLAST = 0, RRESP = 10
[36615] RDATA = xxxxxxxx, RLAST = 0, RRESP = 10
[36635] RDATA = xxxxxxxx, RLAST = 0, RRESP = 10
[36655] RDATA = xxxxxxxx, RLAST = 0, RRESP = 10
[36675] RDATA = xxxxxxxx, RLAST = 0, RRESP = 10
[36695] RDATA = xxxxxxxx, RLAST = 0, RRESP = 10
[36715] RDATA = xxxxxxxx, RLAST = 0, RRESP = 10
[36735] RDATA = xxxxxxxx, RLAST = 0, RRESP = 10
[36755] RDATA = xxxxxxxx, RLAST = 0, RRESP = 10
[36775] RDATA = xxxxxxxx, RLAST = 0, RRESP = 10
[36795] RDATA = xxxxxxxx, RLAST = 0, RRESP = 10
[36815] RDATA = xxxxxxxx, RLAST = 1, RRESP = 10
[36835] AWADDR = 04a0, AWLEN = 14
[36855] WDATA = 2bae7b49, WLAST = 0
[36865] WDATA = e1434119, WLAST = 0
[36875] WDATA = 8b74ce52, WLAST = 0
[36885] WDATA = 39cff99b, WLAST = 0
[36895] WDATA = f3b2fb80, WLAST = 0
[36905] WDATA = b4e2a02b, WLAST = 0
[36915] WDATA = 0f770d5f, WLAST = 0
[36925] WDATA = cf8ba129, WLAST = 0
[36935] WDATA = 9e6996ac, WLAST = 0
[36945] WDATA = a124d6fb, WLAST = 0
[36955] WDATA = 301b2a4e, WLAST = 0
[36965] WDATA = 38efcc4c, WLAST = 0
[36975] WDATA = 6b8fd6b2, WLAST = 0
[36985] WDATA = 13e1ecac, WLAST = 0
[36995] WDATA = 664e50a8, WLAST = 1
[37005] BRESP = 00
[37025] ARADDR = 04a0, ARLEN = 14
[37045] RDATA = xxxxxxxx, RLAST = 0, RRESP = 00
[37065] RDATA = xxxxxxxx, RLAST = 0, RRESP = 00
[37085] RDATA = xxxxxxxx, RLAST = 0, RRESP = 00
[37105] RDATA = xxxxxxxx, RLAST = 0, RRESP = 00
[37125] RDATA = xxxxxxxx, RLAST = 0, RRESP = 00
[37145] RDATA = xxxxxxxx, RLAST = 0, RRESP = 00
[37165] RDATA = xxxxxxxx, RLAST = 0, RRESP = 00
[37185] RDATA = xxxxxxxx, RLAST = 0, RRESP = 00
[37205] RDATA = xxxxxxxx, RLAST = 0, RRESP = 00
[37225] RDATA = xxxxxxxx, RLAST = 0, RRESP = 00
[37245] RDATA = xxxxxxxx, RLAST = 0, RRESP = 00
[37265] RDATA = xxxxxxxx, RLAST = 0, RRESP = 00
[37285] RDATA = xxxxxxxx, RLAST = 0, RRESP = 00
[37305] RDATA = xxxxxxxx, RLAST = 0, RRESP = 00
[37325] RDATA = xxxxxxxx, RLAST = 1, RRESP = 00
[37345] ARADDR = 0838, ARLEN = 2
[37365] RDATA = xxxxxxxx, RLAST = 0, RRESP = 00
[37385] RDATA = xxxxxxxx, RLAST = 0, RRESP = 00
[37405] RDATA = xxxxxxxx, RLAST = 1, RRESP = 00
[37425] AWADDR = 0524, AWLEN = 15
[37445] WDATA = a7dc9c71, WLAST = 0
[37455] WDATA = 9e7365fa, WLAST = 0
[37465] WDATA = 22013ec9, WLAST = 0
[37475] WDATA = 9895dee2, WLAST = 0
[37485] WDATA = 53ea53fc, WLAST = 0
[37495] WDATA = 1e30e266, WLAST = 0
[37505] WDATA = 23a2184e, WLAST = 0
[37515] WDATA = 806e0222, WLAST = 0
[37525] WDATA = f9136579, WLAST = 0
[37535] WDATA = 533c0531, WLAST = 0
[37545] WDATA = 079e8038, WLAST = 0
[37555] WDATA = 586acd26, WLAST = 0
[37565] WDATA = b79a331b, WLAST = 0
[37575] WDATA = d45e0abc, WLAST = 0
[37585] WDATA = 3bea4200, WLAST = 0
[37595] WDATA = 92d8522f, WLAST = 1
[37605] BRESP = 00
[37625] ARADDR = 0524, ARLEN = 15
[37645] RDATA = xxxxxxxx, RLAST = 0, RRESP = 00
[37665] RDATA = xxxxxxxx, RLAST = 0, RRESP = 00
[37685] RDATA = xxxxxxxx, RLAST = 0, RRESP = 00
[37705] RDATA = xxxxxxxx, RLAST = 0, RRESP = 00
[37725] RDATA = xxxxxxxx, RLAST = 0, RRESP = 00
[37745] RDATA = xxxxxxxx, RLAST = 0, RRESP = 00
[37765] RDATA = xxxxxxxx, RLAST = 0, RRESP = 00
[37785] RDATA = xxxxxxxx, RLAST = 0, RRESP = 00
[37805] RDATA = xxxxxxxx, RLAST = 0, RRESP = 00
[37825] RDATA = xxxxxxxx, RLAST = 0, RRESP = 00
[37845] RDATA = xxxxxxxx, RLAST = 0, RRESP = 00
[37865] RDATA = xxxxxxxx, RLAST = 0, RRESP = 00
[37885] RDATA = xxxxxxxx, RLAST = 0, RRESP = 00
[37905] RDATA = xxxxxxxx, RLAST = 0, RRESP = 00
[37925] RDATA = xxxxxxxx, RLAST = 0, RRESP = 00
[37945] RDATA = xxxxxxxx, RLAST = 1, RRESP = 00
[37965] ARADDR = 9d20, ARLEN = 10
[37985] RDATA = xxxxxxxx, RLAST = 0, RRESP = 10
[38005] RDATA = xxxxxxxx, RLAST = 0, RRESP = 10
[38025] RDATA = xxxxxxxx, RLAST = 0, RRESP = 10
[38045] RDATA = xxxxxxxx, RLAST = 0, RRESP = 10
[38065] RDATA = xxxxxxxx, RLAST = 0, RRESP = 10
[38085] RDATA = xxxxxxxx, RLAST = 0, RRESP = 10
[38105] RDATA = xxxxxxxx, RLAST = 0, RRESP = 10
[38125] RDATA = xxxxxxxx, RLAST = 0, RRESP = 10
[38145] RDATA = xxxxxxxx, RLAST = 0, RRESP = 10
[38165] RDATA = xxxxxxxx, RLAST = 0, RRESP = 10
[38185] RDATA = xxxxxxxx, RLAST = 1, RRESP = 10
[38205] AWADDR = ac14, AWLEN = 9
[38225] WDATA = 7b26b795, WLAST = 0
[38235] WDATA = a395c8d4, WLAST = 0
[38245] WDATA = f94e09f0, WLAST = 0
[38255] WDATA = ddfbadb6, WLAST = 0
[38265] WDATA = f78a79b3, WLAST = 0
[38275] WDATA = 1dc0241d, WLAST = 0
[38285] WDATA = 544a2eca, WLAST = 0
[38295] WDATA = 9edc0b15, WLAST = 0
[38305] WDATA = 9144048b, WLAST = 0
[38315] WDATA = c33d76a9, WLAST = 1
[38325] BRESP = 10
[38345] ARADDR = ac14, ARLEN = 9
[38365] RDATA = xxxxxxxx, RLAST = 0, RRESP = 10
[38385] RDATA = xxxxxxxx, RLAST = 0, RRESP = 10
[38405] RDATA = xxxxxxxx, RLAST = 0, RRESP = 10
[38425] RDATA = xxxxxxxx, RLAST = 0, RRESP = 10
[38445] RDATA = xxxxxxxx, RLAST = 0, RRESP = 10
[38465] RDATA = xxxxxxxx, RLAST = 0, RRESP = 10
[38485] RDATA = xxxxxxxx, RLAST = 0, RRESP = 10
[38505] RDATA = xxxxxxxx, RLAST = 0, RRESP = 10
[38525] RDATA = xxxxxxxx, RLAST = 0, RRESP = 10
[38545] RDATA = xxxxxxxx, RLAST = 1, RRESP = 10
[38565] AWADDR = 9278, AWLEN = 5
[38585] WDATA = 2e1fbecb, WLAST = 0
[38595] WDATA = d4fcef09, WLAST = 0
[38605] WDATA = 47c34ecd, WLAST = 0
[38615] WDATA = a791251e, WLAST = 0
[38625] WDATA = 33717cbb, WLAST = 0
[38635] WDATA = 23a76cbc, WLAST = 1
[38645] BRESP = 10
[38665] ARADDR = 9278, ARLEN = 5
[38685] RDATA = xxxxxxxx, RLAST = 0, RRESP = 10
[38705] RDATA = xxxxxxxx, RLAST = 0, RRESP = 10
[38725] RDATA = xxxxxxxx, RLAST = 0, RRESP = 10
[38745] RDATA = xxxxxxxx, RLAST = 0, RRESP = 10
[38765] RDATA = xxxxxxxx, RLAST = 0, RRESP = 10
[38785] RDATA = xxxxxxxx, RLAST = 1, RRESP = 10
[38805] AWADDR = 98c4, AWLEN = 15
[38825] WDATA = 8d272f71, WLAST = 0
[38835] WDATA = aa1cc5f1, WLAST = 0
[38845] WDATA = b2172008, WLAST = 0
[38855] WDATA = 266a2892, WLAST = 0
[38865] WDATA = 57d99569, WLAST = 0
[38875] WDATA = 0cb04357, WLAST = 0
[38885] WDATA = 260fa10c, WLAST = 0
[38895] WDATA = f5b9efb8, WLAST = 0
[38905] WDATA = 599be0bf, WLAST = 0
[38915] WDATA = 348402d4, WLAST = 0
[38925] WDATA = 972b20e4, WLAST = 0
[38935] WDATA = 89ae6ef3, WLAST = 0
[38945] WDATA = 914b95fe, WLAST = 0
[38955] WDATA = 1ad2e29d, WLAST = 0
[38965] WDATA = b9d17a2e, WLAST = 0
[38975] WDATA = 3f5f8c47, WLAST = 1
[38985] BRESP = 10
[39005] ARADDR = 98c4, ARLEN = 15
[39025] RDATA = xxxxxxxx, RLAST = 0, RRESP = 10
[39045] RDATA = xxxxxxxx, RLAST = 0, RRESP = 10
[39065] RDATA = xxxxxxxx, RLAST = 0, RRESP = 10
[39085] RDATA = xxxxxxxx, RLAST = 0, RRESP = 10
[39105] RDATA = xxxxxxxx, RLAST = 0, RRESP = 10
[39125] RDATA = xxxxxxxx, RLAST = 0, RRESP = 10
[39145] RDATA = xxxxxxxx, RLAST = 0, RRESP = 10
[39165] RDATA = xxxxxxxx, RLAST = 0, RRESP = 10
[39185] RDATA = xxxxxxxx, RLAST = 0, RRESP = 10
[39205] RDATA = xxxxxxxx, RLAST = 0, RRESP = 10
[39225] RDATA = xxxxxxxx, RLAST = 0, RRESP = 10
[39245] RDATA = xxxxxxxx, RLAST = 0, RRESP = 10
[39265] RDATA = xxxxxxxx, RLAST = 0, RRESP = 10
[39285] RDATA = xxxxxxxx, RLAST = 0, RRESP = 10
[39305] RDATA = xxxxxxxx, RLAST = 0, RRESP = 10
[39325] RDATA = xxxxxxxx, RLAST = 1, RRESP = 10
[39345] AWADDR = 9318, AWLEN = 3
[39365] WDATA = 168c3ea3, WLAST = 0
[39375] WDATA = a487d333, WLAST = 0
[39385] WDATA = 1862db42, WLAST = 0
[39395] WDATA = 4862efec, WLAST = 1
[39405] BRESP = 10
[39425] ARADDR = 9318, ARLEN = 3
[39445] RDATA = xxxxxxxx, RLAST = 0, RRESP = 10
[39465] RDATA = xxxxxxxx, RLAST = 0, RRESP = 10
[39485] RDATA = xxxxxxxx, RLAST = 0, RRESP = 10
[39505] RDATA = xxxxxxxx, RLAST = 1, RRESP = 10
[39525] ARADDR = 4984, ARLEN = 4
[39545] RDATA = xxxxxxxx, RLAST = 0, RRESP = 10
[39565] RDATA = xxxxxxxx, RLAST = 0, RRESP = 10
[39585] RDATA = xxxxxxxx, RLAST = 0, RRESP = 10
[39605] RDATA = xxxxxxxx, RLAST = 0, RRESP = 10
[39625] RDATA = xxxxxxxx, RLAST = 1, RRESP = 10
[39645] ARADDR = 0dd0, ARLEN = 15
[39665] RDATA = xxxxxxxx, RLAST = 0, RRESP = 00
[39685] RDATA = xxxxxxxx, RLAST = 0, RRESP = 00
[39705] RDATA = xxxxxxxx, RLAST = 0, RRESP = 00
[39725] RDATA = xxxxxxxx, RLAST = 0, RRESP = 00
[39745] RDATA = xxxxxxxx, RLAST = 0, RRESP = 00
[39765] RDATA = xxxxxxxx, RLAST = 0, RRESP = 00
[39785] RDATA = xxxxxxxx, RLAST = 0, RRESP = 00
[39805] RDATA = xxxxxxxx, RLAST = 0, RRESP = 00
[39825] RDATA = xxxxxxxx, RLAST = 0, RRESP = 00
[39845] RDATA = xxxxxxxx, RLAST = 0, RRESP = 00
[39865] RDATA = xxxxxxxx, RLAST = 0, RRESP = 00
[39885] RDATA = xxxxxxxx, RLAST = 0, RRESP = 00
[39905] RDATA = xxxxxxxx, RLAST = 0, RRESP = 00
[39925] RDATA = xxxxxxxx, RLAST = 0, RRESP = 00
[39945] RDATA = xxxxxxxx, RLAST = 0, RRESP = 00
[39965] RDATA = xxxxxxxx, RLAST = 1, RRESP = 00
[39985] AWADDR = 9a84, AWLEN = 4
[40005] WDATA = 5677b280, WLAST = 0
[40015] WDATA = 09ea0c2e, WLAST = 0
[40025] WDATA = 1c27a1de, WLAST = 0
[40035] WDATA = 198b7e66, WLAST = 0
[40045] WDATA = a76009c1, WLAST = 1
[40055] BRESP = 10
[40075] ARADDR = 9a84, ARLEN = 4
[40095] RDATA = xxxxxxxx, RLAST = 0, RRESP = 10
[40115] RDATA = xxxxxxxx, RLAST = 0, RRESP = 10
[40135] RDATA = xxxxxxxx, RLAST = 0, RRESP = 10
[40155] RDATA = xxxxxxxx, RLAST = 0, RRESP = 10
[40175] RDATA = xxxxxxxx, RLAST = 1, RRESP = 10
[40195] ARADDR = 4a54, ARLEN = 0
[40215] RDATA = xxxxxxxx, RLAST = 1, RRESP = 10
[40235] AWADDR = f50c, AWLEN = 2
[40255] WDATA = a5573abf, WLAST = 0
[40265] WDATA = 1fc5b38d, WLAST = 0
[40275] WDATA = bb01a9b0, WLAST = 1
[40285] BRESP = 10
[40305] ARADDR = f50c, ARLEN = 2
[40325] RDATA = xxxxxxxx, RLAST = 0, RRESP = 10
[40345] RDATA = xxxxxxxx, RLAST = 0, RRESP = 10
[40365] RDATA = xxxxxxxx, RLAST = 1, RRESP = 10
[40385] ARADDR = ece0, ARLEN = 6
[40405] RDATA = xxxxxxxx, RLAST = 0, RRESP = 10
[40425] RDATA = xxxxxxxx, RLAST = 0, RRESP = 10
[40445] RDATA = xxxxxxxx, RLAST = 0, RRESP = 10
[40465] RDATA = xxxxxxxx, RLAST = 0, RRESP = 10
[40485] RDATA = xxxxxxxx, RLAST = 0, RRESP = 10
[40505] RDATA = xxxxxxxx, RLAST = 0, RRESP = 10
[40525] RDATA = xxxxxxxx, RLAST = 1, RRESP = 10
[40545] AWADDR = e290, AWLEN = 4
[40565] WDATA = ffc1cff4, WLAST = 0
[40575] WDATA = 9734ae40, WLAST = 0
[40585] WDATA = d700a056, WLAST = 0
[40595] WDATA = 1c9c6595, WLAST = 0
[40605] WDATA = c98f5b0d, WLAST = 1
[40615] BRESP = 10
[40635] ARADDR = e290, ARLEN = 4
[40655] RDATA = xxxxxxxx, RLAST = 0, RRESP = 10
[40675] RDATA = xxxxxxxx, RLAST = 0, RRESP = 10
[40695] RDATA = xxxxxxxx, RLAST = 0, RRESP = 10
[40715] RDATA = xxxxxxxx, RLAST = 0, RRESP = 10
[40735] RDATA = xxxxxxxx, RLAST = 1, RRESP = 10
[40755] AWADDR = f5fc, AWLEN = 6
[40775] WDATA = 2506d1fd, WLAST = 0
[40785] WDATA = 70a04378, WLAST = 0
[40795] WDATA = a6b8b83d, WLAST = 0
[40805] WDATA = e1e3b735, WLAST = 0
[40815] WDATA = f62d2514, WLAST = 0
[40825] WDATA = afb49c27, WLAST = 0
[40835] WDATA = 5484702f, WLAST = 1
[40845] BRESP = 10
[40865] ARADDR = f5fc, ARLEN = 6
[40885] RDATA = xxxxxxxx, RLAST = 0, RRESP = 10
[40905] RDATA = xxxxxxxx, RLAST = 0, RRESP = 10
[40925] RDATA = xxxxxxxx, RLAST = 0, RRESP = 10
[40945] RDATA = xxxxxxxx, RLAST = 0, RRESP = 10
[40965] RDATA = xxxxxxxx, RLAST = 0, RRESP = 10
[40985] RDATA = xxxxxxxx, RLAST = 0, RRESP = 10
[41005] RDATA = xxxxxxxx, RLAST = 1, RRESP = 10
[41025] ARADDR = c438, ARLEN = 0
[41045] RDATA = xxxxxxxx, RLAST = 1, RRESP = 10
[41065] ARADDR = 0824, ARLEN = 12
[41085] RDATA = xxxxxxxx, RLAST = 0, RRESP = 00
[41105] RDATA = xxxxxxxx, RLAST = 0, RRESP = 00
[41125] RDATA = xxxxxxxx, RLAST = 0, RRESP = 00
[41145] RDATA = xxxxxxxx, RLAST = 0, RRESP = 00
[41165] RDATA = xxxxxxxx, RLAST = 0, RRESP = 00
