[50] WDATA = a01b6e32, WLAST = 0
[60] WDATA = 5cb53a0a, WLAST = 0
[70] WDATA = 8b4e9f1d, WLAST = 0
[80] WDATA = a80385b8, WLAST = 0
[90] WDATA = 69968eda, WLAST = 0
[100] BRESP = 00
[160] RDATA = 00000000, RLAST = 0, RRESP = 00
[180] RDATA = 00000000, RLAST = 0, RRESP = 00
[200] RDATA = 00000000, RLAST = 0, RRESP = 00
[220] RDATA = 00000000, RLAST = 0, RRESP = 00
[240] RDATA = 00000000, RLAST = 0, RRESP = 00
[260] RDATA = 00000000, RLAST = 0, RRESP = 00
[280] RDATA = 00000000, RLAST = 0, RRESP = 00
[300] RDATA = 00000000, RLAST = 0, RRESP = 00
[320] RDATA = 13c11ac0, RLAST = 0, RRESP = 00
[340] RDATA = 00000000, RLAST = 1, RRESP = 00
[390] RDATA = 00000000, RLAST = 0, RRESP = 00
[410] RDATA = 00000000, RLAST = 0, RRESP = 00
[430] RDATA = 00000000, RLAST = 0, RRESP = 00
[450] RDATA = 00000000, RLAST = 0, RRESP = 00
[470] RDATA = 00000000, RLAST = 1, RRESP = 00
[510] WDATA = caa56f5e, WLAST = 0
[520] BRESP = 10
[580] RDATA = 00000000, RLAST = 0, RRESP = 00
[600] RDATA = 00000000, RLAST = 0, RRESP = 00
[620] RDATA = 00000000, RLAST = 0, RRESP = 00
[640] RDATA = 00000000, RLAST = 0, RRESP = 00
[660] RDATA = 00000000, RLAST = 0, RRESP = 00
[680] RDATA = 00000000, RLAST = 1, RRESP = 00
[720] WDATA = bb8483d8, WLAST = 0
[730] WDATA = c7b26927, WLAST = 0
[740] WDATA = e3d71de7, WLAST = 0
[750] BRESP = 00
[810] RDATA = 00000000, RLAST = 0, RRESP = 00
[830] RDATA = 00000000, RLAST = 0, RRESP = 00
[850] RDATA = 00000000, RLAST = 0, RRESP = 00
[870] RDATA = 00000000, RLAST = 0, RRESP = 00
[890] RDATA = 00000000, RLAST = 0, RRESP = 00
[910] RDATA = 00000000, RLAST = 0, RRESP = 00
[930] RDATA = 00000000, RLAST = 0, RRESP = 00
[950] RDATA = 00000000, RLAST = 0, RRESP = 00
[970] RDATA = 13c11ac0, RLAST = 0, RRESP = 00
[990] RDATA = 00000000, RLAST = 0, RRESP = 00
[1010] RDATA = 00000000, RLAST = 0, RRESP = 00
[1030] RDATA = 00000000, RLAST = 1, RRESP = 00
[1070] WDATA = 7a518c92, WLAST = 0
[1080] WDATA = d21db6ba, WLAST = 0
[1090] WDATA = 9ee54f3a, WLAST = 0
[1100] WDATA = 0a7d8661, WLAST = 0
[1110] WDATA = 88ac6783, WLAST = 0
[1120] WDATA = f37ab271, WLAST = 0
[1130] WDATA = 7676c92f, WLAST = 0
[1140] WDATA = 8fc41d5f, WLAST = 0
[1150] WDATA = 74f90a92, WLAST = 0
[1160] WDATA = 0abc4c48, WLAST = 0
[1170] WDATA = cf24e577, WLAST = 0
[1180] BRESP = 00
[1280] WDATA = b536995d, WLAST = 0
[1290] WDATA = 17f4513f, WLAST = 0
[1300] WDATA = 2b01ca24, WLAST = 0
[1310] WDATA = 4d1e08f9, WLAST = 0
[1320] WDATA = ebf76165, WLAST = 0
[1330] WDATA = 3b9eb302, WLAST = 0
[1340] WDATA = fca63be8, WLAST = 0
[1350] WDATA = 538923c5, WLAST = 0
[1360] WDATA = 684d2b2a, WLAST = 0
[1370] BRESP = 00
[1450] WDATA = bb1c4478, WLAST = 0
[1460] WDATA = 96e08caa, WLAST = 0
[1470] WDATA = 66ec23e1, WLAST = 0
[1480] WDATA = 4398bee8, WLAST = 0
[1490] WDATA = 531450c7, WLAST = 0
[1500] WDATA = 14809926, WLAST = 0
[1510] WDATA = 24e10182, WLAST = 0
[1520] WDATA = d5d90278, WLAST = 0
[1530] WDATA = 52dba4f4, WLAST = 0
[1540] WDATA = 73a381a1, WLAST = 0
[1550] WDATA = 73f6f165, WLAST = 0
[1560] WDATA = ca086703, WLAST = 0
[1570] BRESP = 00
[1620] WDATA = 7c8115ab, WLAST = 0
[1630] WDATA = 299df067, WLAST = 0
[1640] WDATA = e8942f70, WLAST = 0
[1650] WDATA = 54ed2ef6, WLAST = 0
[1660] WDATA = 87339d6d, WLAST = 0
[1670] WDATA = ea455fac, WLAST = 0
[1680] WDATA = ea108187, WLAST = 0
[1690] WDATA = 64688849, WLAST = 0
[1700] WDATA = 7da76e9a, WLAST = 0
[1710] WDATA = cdaec229, WLAST = 0
[1720] WDATA = fb3c8774, WLAST = 0
[1730] WDATA = c9b6e6fa, WLAST = 0
[1740] WDATA = 4aec3eda, WLAST = 0
[1750] BRESP = 00
